!Keysight Technologies,N5222B,MY61257109,A.17.25.03
!Date: Tuesday, July 21, 2026 11:46:44
!Correction: S11(C  2-Port  ) 
!S21(C  2-Port  ) 
!S12(C  2-Port  ) 
!S22(C  2-Port  ) 
!S2P File: Measurements: S11, S21, S12, S22:
# Hz S  dB   R 50
10000000 -0.48207808 -179.80339 -55.447304 3.1362369 -56.935799 10.340734 -2.5788658 -47.936455
20000000 -0.41947427 -179.90802 -36.456043 30.923452 -36.455666 31.257862 -3.6718032 -109.95921
30000000 -0.42328271 179.98811 -36.809021 29.60454 -36.831039 29.418396 -3.8169785 -123.10031
40000000 -0.4218941 179.90619 -33.464771 18.761431 -33.438702 18.990887 -3.518554 -145.14493
50000000 -0.41025904 179.81082 -28.634687 -21.47485 -28.639259 -21.523848 -4.4737544 171.18279
60000000 -0.41434276 179.6721 -34.946419 -62.489307 -34.952415 -62.489017 -11.196017 -159.27193
70000000 -0.4160879 179.6658 -39.301807 -56.295094 -39.341019 -56.225666 -8.7216082 -151.78371
80000000 -0.41226214 179.61902 -41.557468 -48.492966 -41.568863 -48.657658 -7.8622255 -153.30534
90000000 -0.4189229 179.63898 -43.270588 -37.44236 -43.312462 -37.564598 -7.2952166 -155.14291
100000000 -0.41867518 179.61879 -43.599949 -26.184507 -43.657669 -26.102951 -6.8956666 -157.72478
110000000 -0.41955125 179.5488 -43.798203 -17.92811 -43.842056 -17.997309 -6.6902432 -159.62862
120000000 -0.41976023 179.53055 -42.348373 -12.326281 -42.369896 -12.214855 -6.4078226 -163.04262
130000000 -0.41879377 179.47202 -39.414654 -20.268164 -39.383167 -19.629524 -6.3992939 -170.13318
140000000 -0.42113647 179.39651 -42.856457 -26.619009 -42.862156 -26.800163 -6.9241972 -166.41777
150000000 -0.42022359 179.36566 -43.293598 -20.592503 -43.328281 -20.646276 -6.7691035 -166.7184
160000000 -0.41887102 179.32637 -43.485687 -17.507843 -43.447609 -17.236917 -6.6935821 -167.70807
170000000 -0.42126882 179.26799 -43.539658 -14.17125 -43.55484 -14.156183 -6.7069459 -168.49802
180000000 -0.42344081 179.24811 -43.481663 -13.357377 -43.452297 -13.509881 -6.7383385 -168.65279
190000000 -0.42500177 179.20625 -43.56329 -11.26348 -43.543297 -11.35049 -6.6953068 -168.63803
200000000 -0.41431001 179.16077 -43.47216 -9.6460857 -43.534718 -9.1969309 -6.6297712 -168.59169
210000000 -0.42021248 179.10829 -43.530178 -7.0121841 -43.554039 -6.651516 -6.5360689 -168.45819
220000000 -0.41583923 179.07074 -43.39246 -5.8593459 -43.328835 -6.1388798 -6.4559298 -168.74248
230000000 -0.4160184 179.02823 -42.375668 -6.0956783 -42.322174 -6.2549119 -6.2907801 -169.49303
240000000 -0.41475084 178.97539 -42.97879 -14.926212 -42.973614 -14.973668 -6.4227214 -169.86037
250000000 -0.41657454 178.93987 -43.995705 -9.5956573 -44.061344 -9.719409 -6.3288798 -168.77809
260000000 -0.42625147 178.90028 -44.111713 -2.0747406 -44.161869 -1.4461886 -6.1255527 -168.26707
270000000 -0.42352271 178.85054 -42.006683 3.9990425 -42.007633 4.0229239 -5.7311025 -168.68294
280000000 -0.42098105 178.80447 -41.668327 -9.2273626 -41.650398 -9.2132206 -5.7196627 -170.7088
290000000 -0.42031285 178.74748 -42.585838 -17.422483 -42.640697 -17.167139 -5.7630062 -170.8632
300000000 -0.4228062 178.71487 -44.162552 -16.700985 -44.110256 -16.400129 -5.6789341 -170.60484
310000000 -0.4222604 178.67322 -44.652149 -5.5500998 -44.60128 -5.2335029 -5.4517903 -170.53183
320000000 -0.42365456 178.65773 -43.762959 -0.38583747 -43.698082 -1.6310812 -5.2874742 -171.46724
330000000 -0.42406154 178.61119 -43.207554 -0.86485165 -43.320572 -1.71849 -5.2072434 -172.06718
340000000 -0.42639825 178.58841 -41.32272 -3.7877326 -41.446568 -3.2655699 -5.0080595 -173.22154
350000000 -0.42613098 178.50272 -42.1394 -13.954649 -42.056412 -13.420327 -5.0393453 -173.89131
360000000 -0.42325759 178.44917 -43.084637 -19.883425 -43.085373 -19.177198 -5.0219412 -174.08247
370000000 -0.42336318 178.37772 -45.025269 -21.247337 -44.952385 -20.916922 -4.9553461 -173.86856
380000000 -0.42412746 178.32941 -46.142826 -12.788486 -46.122589 -12.918818 -4.7849588 -173.92966
390000000 -0.42613298 178.29065 -46.702579 2.052089 -46.661945 1.9563154 -4.5878344 -174.07541
400000000 -0.42649534 178.27455 -44.558167 12.632525 -44.637215 12.650674 -4.3192797 -174.84879
410000000 -0.42475429 178.22922 -42.861134 7.3361797 -42.822834 7.7397389 -4.1358395 -176.45026
420000000 -0.42263043 178.18765 -42.231556 -1.4693985 -42.157009 -1.6024089 -4.0639963 -178.08931
430000000 -0.42293286 178.13847 -42.529266 -8.3245993 -42.529369 -8.8106823 -4.048738 -179.25307
440000000 -0.42351958 178.08748 -43.324642 -11.293485 -43.391354 -12.221307 -4.0302606 -179.98532
450000000 -0.4231526 178.01309 -44.03476 -11.933106 -44.215942 -12.319917 -3.9869118 179.35509
460000000 -0.42245468 177.97578 -44.222321 -10.001274 -44.366314 -8.7932367 -3.8953867 178.64984
470000000 -0.42104977 177.93074 -44.596561 -11.948281 -44.536942 -11.529523 -3.8402188 177.70016
480000000 -0.42237622 177.87532 -45.229446 -9.3169327 -45.205151 -8.8100471 -3.783987 177.01399
490000000 -0.42019221 177.82423 -45.601215 -8.8460789 -45.471886 -8.7469406 -3.7305601 176.11067
500000000 -0.41650388 177.78386 -45.67189 -7.8564839 -45.57621 -8.3150139 -3.6700656 175.26343
510000000 -0.4195618 177.73473 -46.389214 -7.2080498 -46.390373 -7.7413416 -3.6425362 174.47511
520000000 -0.41668108 177.69737 -47.066086 -3.2694139 -47.170383 -4.0594463 -3.6079035 173.7594
530000000 -0.41519773 177.65558 -47.214611 6.0721445 -47.407623 5.643949 -3.5572805 173.19286
540000000 -0.41879147 177.59613 -46.200005 9.2643671 -46.283939 10.586547 -3.475436 172.42145
550000000 -0.41621211 177.57297 -45.833241 9.2097197 -45.699615 10.523865 -3.4140348 171.5274
560000000 -0.4137257 177.53082 -45.586323 9.2017565 -45.445255 8.9355831 -3.3649731 170.59398
570000000 -0.42183533 177.47331 -45.662235 7.9476647 -45.664284 7.2201223 -3.3364277 169.61885
580000000 -0.41815868 177.41672 -45.815304 7.4780769 -45.935284 7.177268 -3.3159451 168.81374
590000000 -0.42044431 177.36223 -46.507572 10.016862 -46.538197 10.095008 -3.2993011 168.08214
600000000 -0.42649448 177.34224 -46.324867 17.77582 -46.254787 17.990366 -3.2631361 167.49252
610000000 -0.42022473 177.29117 -45.01355 17.804781 -45.057762 17.635567 -3.1883368 166.67525
620000000 -0.42424676 177.26999 -44.970833 13.362779 -44.937824 13.48455 -3.1567156 165.62463
630000000 -0.42797771 177.23529 -45.087826 11.837439 -45.114563 11.78771 -3.1460834 164.71349
640000000 -0.42742041 177.14909 -45.551136 9.8884144 -45.554939 9.8426113 -3.1409504 163.79878
650000000 -0.42902967 177.11882 -46.217026 12.331193 -46.20512 11.915441 -3.1477215 162.98465
660000000 -0.431914 177.06514 -46.603428 17.967978 -46.648983 17.701763 -3.1571367 162.29825
670000000 -0.43503603 177.02675 -46.197609 23.377447 -46.175556 23.5263 -3.1405463 161.73038
680000000 -0.43317541 176.98714 -45.584366 24.636875 -45.596722 24.556986 -3.1082571 161.01692
690000000 -0.4333699 176.94183 -45.372528 25.593121 -45.381275 25.824856 -3.0929539 160.24033
700000000 -0.43249649 176.92947 -45.028488 27.873739 -44.999775 27.79563 -3.0890875 159.49788
710000000 -0.43170184 176.89354 -44.640182 28.868641 -44.650196 28.693274 -3.08463 158.80075
720000000 -0.43181649 176.85168 -44.159878 29.873459 -44.133083 29.395615 -3.0821562 158.15977
730000000 -0.42925084 176.81116 -43.757717 29.812157 -43.821888 29.666237 -3.0817878 157.49557
740000000 -0.42942801 176.7627 -43.064114 29.710705 -43.071434 29.687923 -3.0779717 157.00853
750000000 -0.42646021 176.7018 -42.509552 26.211674 -42.518505 26.412186 -3.0431991 156.41719
760000000 -0.42472258 176.67024 -42.225544 22.560165 -42.203884 22.802977 -3.0163999 155.76541
770000000 -0.42365998 176.59999 -42.146667 18.775227 -42.125324 18.869999 -2.9857762 155.10568
780000000 -0.42393053 176.56068 -42.253159 14.846124 -42.242916 14.963833 -2.9499805 154.36693
790000000 -0.42242929 176.54033 -42.593048 11.787883 -42.582069 11.891818 -2.9258959 153.51494
800000000 -0.42157945 176.50192 -43.01598 9.9609241 -43.03569 10.037926 -2.9168262 152.66949
810000000 -0.41930777 176.45305 -43.555626 9.7356472 -43.536808 9.7777786 -2.9184875 151.84212
820000000 -0.4199644 176.40381 -43.892342 11.16309 -43.866123 10.97886 -2.9312556 151.06801
830000000 -0.419267 176.36247 -44.057095 12.741974 -44.021526 12.45634 -2.9544754 150.35118
840000000 -0.42013147 176.32283 -43.949558 14.005326 -43.969776 13.462557 -2.9721332 149.79976
850000000 -0.42261046 176.25822 -43.869968 13.48245 -43.904049 13.303306 -2.9723964 149.21248
860000000 -0.42170325 176.21606 -44.077538 12.602767 -44.088833 12.798232 -2.9715631 148.58067
870000000 -0.42006505 176.18243 -44.214039 13.077416 -44.216019 13.271357 -2.977041 147.97408
880000000 -0.42096993 176.12811 -44.270531 13.058414 -44.261192 13.36284 -2.9855146 147.40933
890000000 -0.42057693 176.10019 -44.371288 13.035522 -44.350368 13.188394 -2.9827774 146.92088
900000000 -0.42217594 176.043 -44.519562 12.681416 -44.502701 12.802576 -2.9666095 146.41621
910000000 -0.4234117 176.00172 -44.750893 12.470655 -44.8176 12.037166 -2.9396358 145.8165
920000000 -0.42554021 175.94846 -45.131554 13.035423 -45.153477 13.195486 -2.9195876 145.14571
930000000 -0.42578605 175.89981 -45.55975 14.716777 -45.534855 14.94518 -2.9067123 144.39891
940000000 -0.42845196 175.85143 -45.807198 18.560434 -45.729 18.560474 -2.9103458 143.61777
950000000 -0.42984125 175.78473 -45.682243 22.507082 -45.660713 22.252132 -2.9261661 142.89366
960000000 -0.42908052 175.7542 -45.353642 25.499033 -45.34486 25.390526 -2.9509604 142.24457
970000000 -0.42917624 175.71797 -44.93417 26.261295 -44.900898 26.195299 -2.9631927 141.71568
980000000 -0.43185109 175.66646 -44.576183 26.173412 -44.593464 26.015738 -2.9696248 141.15755
990000000 -0.43218935 175.61829 -44.328541 25.855486 -44.360859 25.763903 -2.9762108 140.61404
1000000000 -0.4313502 175.5704 -44.143871 24.308815 -44.206787 24.646441 -2.9811828 140.08006
1010000000 -0.43578318 175.53203 -44.10078 23.319901 -44.115597 23.632214 -2.9805791 139.57521
1020000000 -0.43430015 175.48032 -44.179363 22.290438 -44.157158 22.327505 -2.9777594 139.06746
1030000000 -0.43510956 175.45425 -44.256577 22.084503 -44.244537 22.108671 -2.9746232 138.51463
1040000000 -0.43549356 175.40329 -44.309612 21.930239 -44.24369 21.80353 -2.9626596 137.96542
1050000000 -0.4350203 175.35706 -44.410381 21.734793 -44.363483 21.503761 -2.9588847 137.39706
1060000000 -0.4332329 175.31757 -44.55711 21.991844 -44.528385 21.524082 -2.9439373 136.78937
1070000000 -0.43426669 175.28101 -44.555965 22.839689 -44.574097 22.530649 -2.933315 136.15666
1080000000 -0.43069041 175.24052 -44.542332 23.126356 -44.590424 22.976875 -2.9304595 135.43491
1090000000 -0.42963663 175.20049 -44.538841 23.274216 -44.558735 23.239395 -2.9493437 134.77753
1100000000 -0.42803171 175.1544 -44.494595 23.426088 -44.507889 23.372498 -2.9678235 134.26869
1110000000 -0.42741442 175.10004 -44.453236 23.29451 -44.483379 23.461231 -2.9736946 133.74963
1120000000 -0.42735985 175.07204 -44.429508 22.335537 -44.413143 22.543198 -2.9780481 133.31082
1130000000 -0.43013531 175.02501 -44.542671 21.235226 -44.523468 21.353153 -2.9643469 132.81117
1140000000 -0.43136075 174.98067 -44.792179 21.019547 -44.790131 21.027538 -2.9497046 132.24773
1150000000 -0.43354496 174.92706 -44.984585 21.68639 -44.994862 21.682402 -2.9348645 131.60971
1160000000 -0.43308619 174.88608 -45.084358 22.271332 -45.036728 22.214006 -2.9300823 130.93304
1170000000 -0.43273154 174.84483 -45.236542 22.730164 -45.230827 22.628599 -2.9355199 130.26945
1180000000 -0.43509495 174.79181 -45.385025 23.974691 -45.386116 23.950396 -2.9371727 129.66673
1190000000 -0.43564895 174.74854 -45.444851 24.96166 -45.404133 24.981054 -2.9366589 128.99692
1200000000 -0.43844235 174.70447 -45.510117 25.291666 -45.451088 25.534441 -2.9541686 128.31064
1210000000 -0.43794498 174.65059 -45.558769 26.591425 -45.554214 26.326406 -2.9770153 127.77325
1220000000 -0.43858209 174.61487 -45.556503 27.475769 -45.564545 27.569839 -2.9818978 127.24623
1230000000 -0.43921673 174.57497 -45.574528 28.254137 -45.544876 28.393053 -2.9806836 126.66985
1240000000 -0.44125271 174.52251 -45.562183 29.00531 -45.56142 28.860958 -2.9825437 126.03863
1250000000 -0.44030434 174.48549 -45.55378 29.595831 -45.577293 29.539591 -2.9958696 125.30751
1260000000 -0.43982279 174.4346 -45.544674 29.703953 -45.53236 29.936695 -3.0322902 124.70465
1270000000 -0.44065559 174.39243 -45.598797 30.0949 -45.591946 30.273594 -3.0461786 124.15263
1280000000 -0.4384644 174.32695 -45.638103 31.248911 -45.616203 31.146297 -3.0665848 123.51071
1290000000 -0.43966353 174.28314 -45.640594 31.421654 -45.644279 31.437134 -3.1020453 122.90811
1300000000 -0.43870178 174.24313 -45.724472 32.096153 -45.713474 31.873306 -3.1459384 122.45238
1310000000 -0.43981048 174.19658 -45.775341 32.837769 -45.76606 32.863956 -3.1689963 122.00147
1320000000 -0.4386743 174.16095 -45.827744 33.884941 -45.823605 33.656036 -3.2040324 121.54504
1330000000 -0.43928975 174.11653 -45.773098 35.061237 -45.804165 34.866741 -3.2431071 121.16268
1340000000 -0.43690315 174.06731 -45.696098 35.992153 -45.700268 35.937504 -3.2828002 120.88294
1350000000 -0.43824103 174.02588 -45.628975 36.216526 -45.618889 36.173843 -3.2993691 120.77018
1360000000 -0.4388364 173.98016 -45.559799 36.722351 -45.558792 36.881996 -3.2860718 120.57545
1370000000 -0.4398019 173.93773 -45.489773 36.679317 -45.472393 36.954105 -3.2701523 120.33013
1380000000 -0.44095844 173.88257 -45.515476 36.657711 -45.501102 36.413383 -3.2271817 119.97338
1390000000 -0.44015881 173.84084 -45.485298 36.869225 -45.507343 36.681644 -3.1996021 119.50502
1400000000 -0.43888077 173.79034 -45.566105 36.908955 -45.569954 36.733051 -3.1725407 118.99983
1410000000 -0.43861386 173.74603 -45.651112 36.873871 -45.67149 36.881699 -3.1486871 118.43797
1420000000 -0.43901652 173.71753 -45.764256 37.621666 -45.774906 37.680622 -3.1402435 117.8388
1430000000 -0.44007576 173.67529 -45.818905 38.594688 -45.797546 38.621159 -3.1325982 117.27959
1440000000 -0.44041693 173.6348 -45.790802 39.523022 -45.786461 39.608021 -3.1280055 116.72543
1450000000 -0.44290006 173.59604 -45.702427 39.796547 -45.700096 40.046913 -3.1184955 116.14687
1460000000 -0.44519731 173.5506 -45.733803 39.981823 -45.702129 40.214638 -3.1171169 115.55571
1470000000 -0.44700083 173.49341 -45.72575 40.319366 -45.703407 40.451332 -3.1235058 114.99522
1480000000 -0.4464187 173.44923 -45.781868 40.744167 -45.780472 40.63924 -3.1237171 114.45458
1490000000 -0.44840553 173.3951 -45.772915 41.022446 -45.7808 40.931263 -3.123482 113.92863
1500000000 -0.44942543 173.34143 -45.809177 40.996643 -45.820961 41.120399 -3.1184568 113.4057
1510000000 -0.44942686 173.31013 -45.910076 41.30228 -45.904911 41.345173 -3.111095 112.81886
1520000000 -0.44903272 173.26797 -46.021339 41.748272 -46.027382 41.619541 -3.118722 112.19994
1530000000 -0.45011073 173.22833 -46.097424 42.452637 -46.098877 42.278233 -3.1326609 111.63329
1540000000 -0.45176262 173.18539 -46.222298 42.924255 -46.22411 42.843563 -3.1501703 111.12895
1550000000 -0.45180139 173.13942 -46.348263 44.060574 -46.382698 44.133045 -3.1508362 110.72469
1560000000 -0.454285 173.08904 -46.411392 45.357929 -46.398975 45.550243 -3.1419084 110.25664
1570000000 -0.45559376 173.0428 -46.45245 46.628983 -46.447678 46.570873 -3.1305826 109.74603
1580000000 -0.45587867 172.98607 -46.468349 47.74192 -46.426491 47.801853 -3.1175833 109.17583
1590000000 -0.45340967 172.93478 -46.425522 49.075905 -46.445137 49.13847 -3.1092472 108.5711
1600000000 -0.45257413 172.89371 -46.414692 50.366238 -46.407959 50.257774 -3.1035693 107.96715
1610000000 -0.45189533 172.84991 -46.292896 51.330341 -46.335152 51.356247 -3.1038251 107.34878
1620000000 -0.45032093 172.80659 -46.210423 52.061691 -46.203995 51.828037 -3.1036224 106.77159
1630000000 -0.45020723 172.7765 -46.185688 52.187 -46.188 52.199429 -3.1005309 106.13727
1640000000 -0.44939443 172.73598 -46.141865 52.811092 -46.162472 52.800049 -3.1036954 105.49141
1650000000 -0.45107588 172.69281 -46.117779 53.511181 -46.093384 53.616615 -3.106025 104.89099
1660000000 -0.4529646 172.63722 -46.044369 53.695091 -46.059418 53.707191 -3.1078351 104.27083
1670000000 -0.4543376 172.59616 -46.066196 53.533852 -46.062717 53.479782 -3.1108479 103.63408
1680000000 -0.45577142 172.54153 -46.142849 53.759583 -46.134789 53.778191 -3.1151171 102.9892
1690000000 -0.45549056 172.49597 -46.219738 54.627975 -46.205055 54.469635 -3.1216784 102.30577
1700000000 -0.4542442 172.44504 -46.283508 55.551838 -46.284782 55.2715 -3.1330998 101.60725
1710000000 -0.45490757 172.40631 -46.234222 56.515148 -46.285339 56.520275 -3.1538332 100.93029
1720000000 -0.45539653 172.35358 -46.22683 56.803566 -46.23576 56.966873 -3.1734993 100.3022
1730000000 -0.45536405 172.31895 -46.256947 57.273289 -46.216053 57.389721 -3.1912763 99.662712
1740000000 -0.45735902 172.28433 -46.320339 57.691521 -46.282906 57.571583 -3.20577 99.003548
1750000000 -0.45982653 172.23724 -46.424976 58.220055 -46.387791 58.271248 -3.225904 98.345787
1760000000 -0.46144381 172.19643 -46.511024 58.934437 -46.479836 59.056023 -3.2484813 97.718254
1770000000 -0.46357867 172.14536 -46.589355 59.750771 -46.576225 59.806469 -3.2746985 97.118744
1780000000 -0.46594512 172.09935 -46.749855 60.523502 -46.723721 60.565609 -3.2906313 96.495285
1790000000 -0.46719655 172.05025 -46.966637 62.134319 -46.922657 62.065487 -3.3129749 95.827469
1800000000 -0.46664977 172.00853 -47.02396 64.614098 -47.041222 64.741661 -3.3409402 95.15036
1810000000 -0.46578431 171.94786 -46.997776 67.062111 -46.983765 67.104782 -3.3767655 94.552132
1820000000 -0.46571428 171.91423 -46.855892 69.362144 -46.874374 69.234795 -3.4030511 93.951065
1830000000 -0.4653495 171.86914 -46.677273 70.855057 -46.698185 70.61879 -3.4339502 93.361153
1840000000 -0.46521118 171.82538 -46.509342 72.084763 -46.497116 72.127968 -3.4554079 92.796486
1850000000 -0.46579239 171.78618 -46.360847 72.580986 -46.358616 72.573448 -3.470669 92.229279
1860000000 -0.46588776 171.74458 -46.314396 73.30146 -46.295975 73.379883 -3.4824822 91.595757
1870000000 -0.46867153 171.69949 -46.20903 74.140976 -46.207829 74.405563 -3.4988539 90.95372
1880000000 -0.47043002 171.65395 -46.163235 74.975166 -46.135067 74.952469 -3.5126615 90.278114
1890000000 -0.46996388 171.61276 -46.088566 75.903824 -46.096127 75.820869 -3.5254366 89.558159
1900000000 -0.47104856 171.5583 -46.040535 76.786446 -46.062351 76.7397 -3.5428991 88.755089
1910000000 -0.46889126 171.50516 -45.991123 78.124535 -46.024109 77.926399 -3.5677707 87.943069
1920000000 -0.46932241 171.45557 -45.857246 79.29879 -45.910976 79.379684 -3.600013 87.091835
1930000000 -0.46792763 171.41823 -45.735634 80.268715 -45.76685 80.234367 -3.63375 86.236313
1940000000 -0.46885207 171.37541 -45.604012 81.006348 -45.601223 80.883842 -3.6696043 85.342644
1950000000 -0.47029531 171.33734 -45.495617 81.407463 -45.463799 81.379868 -3.7067955 84.411613
1960000000 -0.47099489 171.30238 -45.444298 81.778152 -45.392696 81.873352 -3.7517068 83.401512
1970000000 -0.47400454 171.25906 -45.376575 82.651031 -45.361374 82.456039 -3.8134944 82.342392
1980000000 -0.47439605 171.2148 -45.321518 83.215988 -45.329067 83.156105 -3.8947856 81.311661
1990000000 -0.47662625 171.16473 -45.312557 84.146301 -45.317158 84.032448 -3.9740808 80.276039
2000000000 -0.47678629 171.11066 -45.245811 85.431328 -45.303692 85.42778 -4.0665669 79.140526
2010000000 -0.47763428 171.06374 -45.119698 86.954613 -45.188004 87.03994 -4.1829109 77.94397
2020000000 -0.47847927 171.02219 -44.936321 88.007401 -44.956882 88.121254 -4.3244529 76.750786
2030000000 -0.47845644 170.97115 -44.779823 88.903244 -44.75341 88.91256 -4.4871855 75.545189
2040000000 -0.4808608 170.92554 -44.510281 89.429588 -44.497181 89.387146 -4.6888628 74.385735
2050000000 -0.48131973 170.89188 -44.28677 89.141754 -44.286583 89.147575 -4.9206371 73.371071
