!Keysight Technologies,N5222B,MY61257109,A.17.25.03
!Date: Tuesday, July 21, 2026 11:50:04
!Correction: S11(C  2-Port  ) 
!S21(C  2-Port  ) 
!S12(C  2-Port  ) 
!S22(C  2-Port  ) 
!S2P File: Measurements: S11, S21, S12, S22:
# Hz S  dB   R 50
10000000 -0.41252315 -179.64542 -55.682026 13.899489 -55.397301 21.508062 -2.58219 -47.807732
20000000 -0.35134566 -179.86261 -37.459263 29.871799 -37.491997 30.021748 -3.7195046 -109.89521
30000000 -0.35605928 179.99518 -37.884598 27.578959 -37.916656 27.41913 -3.8468933 -123.07731
40000000 -0.35559654 179.89658 -34.658691 16.912138 -34.62096 17.208103 -3.5976212 -145.3013
50000000 -0.34753552 179.80591 -30.108355 -21.958155 -30.110201 -22.022646 -4.8832521 172.04308
60000000 -0.34898669 179.69736 -35.968487 -58.906918 -35.973431 -58.897453 -10.850057 -157.74702
70000000 -0.34997141 179.7009 -39.588081 -53.95694 -39.637775 -54.168346 -8.567482 -151.72453
80000000 -0.34632677 179.64029 -41.426117 -49.818489 -41.477768 -49.998894 -7.761291 -153.36295
90000000 -0.35086319 179.64211 -42.956623 -43.697254 -42.989082 -43.969082 -7.2359843 -155.29651
100000000 -0.35143238 179.62326 -43.651886 -37.194588 -43.619045 -37.273594 -6.8561215 -157.97218
110000000 -0.35254708 179.55185 -44.285671 -32.967957 -44.317062 -32.915264 -6.6713314 -159.81157
120000000 -0.35296682 179.52177 -43.433449 -26.757368 -43.472061 -26.319954 -6.4009004 -163.13321
130000000 -0.35253164 179.46286 -40.649807 -29.07852 -40.610466 -28.793594 -6.3459082 -169.73064
140000000 -0.35343799 179.3835 -43.861458 -43.717609 -43.851147 -43.773029 -6.8964171 -166.50323
150000000 -0.3531937 179.35185 -44.928635 -40.241005 -44.931374 -40.164272 -6.7550106 -166.8063
160000000 -0.35135546 179.30714 -45.602459 -38.394341 -45.615005 -38.979355 -6.6915584 -167.75322
170000000 -0.35357362 179.24568 -46.411091 -36.503853 -46.343529 -36.377811 -6.7054253 -168.49408
180000000 -0.35747761 179.22261 -46.970337 -35.117714 -46.988483 -34.939297 -6.7342753 -168.62743
190000000 -0.35767633 179.18185 -47.878426 -31.956266 -47.855621 -31.954975 -6.6937613 -168.59175
200000000 -0.34791353 179.14249 -48.544033 -26.758184 -48.564526 -26.496172 -6.6266217 -168.50493
210000000 -0.35369998 179.08604 -49.259026 -18.674324 -49.263878 -19.312078 -6.5269117 -168.37244
220000000 -0.34814182 179.04643 -49.265419 -14.416841 -49.207439 -14.824607 -6.4526196 -168.66521
230000000 -0.3485477 179.00098 -47.898628 -9.5141935 -47.834232 -9.2355032 -6.284163 -169.31813
240000000 -0.34779716 178.9478 -48.708344 -21.943634 -48.742035 -22.217512 -6.4120207 -169.75436
250000000 -0.34914491 178.90372 -51.117363 -8.870141 -51.052792 -8.6389608 -6.3150988 -168.61906
260000000 -0.35927877 178.86403 -50.857735 12.103178 -50.941273 12.700662 -6.1062894 -168.08005
270000000 -0.35767603 178.81606 -46.401028 20.651768 -46.44894 20.148739 -5.6914959 -168.52724
280000000 -0.35549006 178.77193 -46.156792 1.013418 -46.169968 0.80183399 -5.6859131 -170.62308
290000000 -0.35417265 178.7119 -47.501751 -9.080163 -47.630341 -8.5425167 -5.7262259 -170.84813
300000000 -0.35699588 178.68513 -49.958725 -4.4493508 -49.795959 -4.4595046 -5.6541495 -170.6026
310000000 -0.35639647 178.63576 -49.376514 17.762041 -49.509575 17.554079 -5.4252415 -170.46173
320000000 -0.3577539 178.62306 -47.727036 19.920771 -47.69907 19.631935 -5.2539563 -171.438
330000000 -0.3588348 178.57364 -46.931423 19.207747 -46.939907 18.721478 -5.1719327 -172.06612
340000000 -0.36193904 178.5464 -44.489029 13.319625 -44.471611 13.637366 -4.9659944 -173.26016
350000000 -0.36117804 178.46324 -45.541729 1.1154138 -45.535267 1.1028252 -5.0209022 -174.02094
360000000 -0.35954762 178.4066 -46.908981 -2.7666726 -46.93375 -2.9639211 -4.998785 -174.17482
370000000 -0.35880783 178.33852 -49.541801 -0.15016882 -49.47443 0.085355595 -4.9449468 -173.90329
380000000 -0.36016151 178.29039 -50.018265 17.832846 -49.997768 17.615576 -4.7649479 -173.86414
390000000 -0.36171451 178.24513 -48.642323 35.118187 -48.621326 34.886524 -4.5528684 -174.05261
400000000 -0.3625741 178.22832 -45.794838 36.438248 -45.798603 36.558979 -4.2885895 -174.92996
410000000 -0.36183774 178.18367 -44.198898 27.223921 -44.180676 27.283983 -4.1077938 -176.50877
420000000 -0.36008331 178.14188 -43.838135 15.633186 -43.775761 15.505142 -4.035677 -178.19951
430000000 -0.36008331 178.09392 -44.459778 8.0456266 -44.484337 8.3059187 -4.0286069 -179.33148
440000000 -0.36046413 178.04071 -45.443951 4.9921703 -45.447773 5.6336246 -4.0107408 179.93608
450000000 -0.3607668 177.9649 -46.26115 6.7383375 -46.24696 6.8948479 -3.9687774 179.274
460000000 -0.35986423 177.93233 -46.111568 10.085276 -46.112911 10.065507 -3.8778412 178.55553
470000000 -0.35792395 177.88707 -46.403503 6.8337684 -46.397137 7.0546141 -3.8269815 177.61243
480000000 -0.35884184 177.82965 -46.900215 10.244864 -46.921955 10.308027 -3.7725949 176.91306
490000000 -0.35722888 177.77699 -47.216202 11.410158 -47.242989 11.154291 -3.7220058 176.04733
500000000 -0.35281157 177.73715 -47.278381 11.535744 -47.307007 11.584743 -3.6639526 175.22054
510000000 -0.35487205 177.68752 -48.02911 13.623617 -48.01582 13.656854 -3.6335025 174.45264
520000000 -0.35281718 177.65213 -48.512402 19.029261 -48.491165 19.154638 -3.5966437 173.74847
530000000 -0.35084438 177.60889 -48.214077 28.972208 -48.130856 28.800774 -3.5440364 173.16846
540000000 -0.35446504 177.54459 -46.786617 29.710928 -46.781467 29.642191 -3.4590089 172.38661
550000000 -0.35217315 177.52521 -46.334534 27.575769 -46.359779 27.233051 -3.3997352 171.46001
560000000 -0.35086769 177.48846 -46.348961 26.281605 -46.343082 26.655746 -3.3590689 170.55634
570000000 -0.35722604 177.42361 -46.511074 24.496927 -46.444077 24.14958 -3.3268375 169.60033
580000000 -0.35585445 177.37062 -46.727573 24.594526 -46.72945 24.944334 -3.3047881 168.78992
590000000 -0.35668224 177.32001 -47.142212 28.235376 -47.160885 28.018726 -3.287781 168.05661
600000000 -0.36250547 177.29607 -46.665215 35.050594 -46.705109 34.930466 -3.2514565 167.46965
610000000 -0.35733202 177.24181 -45.505516 32.813728 -45.482189 32.810509 -3.1752388 166.65932
620000000 -0.36077747 177.22639 -45.613045 28.073235 -45.572227 27.938643 -3.1442661 165.58749
630000000 -0.36461979 177.18793 -45.781811 26.810469 -45.809258 26.799416 -3.1349878 164.6714
640000000 -0.36430055 177.10088 -46.228092 25.248533 -46.266834 24.866621 -3.1287241 163.75375
650000000 -0.36622033 177.06795 -46.910069 27.206795 -46.911316 27.297827 -3.1375389 162.92685
660000000 -0.36935267 177.00999 -47.264084 33.307892 -47.317909 32.994919 -3.1503575 162.23219
670000000 -0.37341219 176.96796 -46.812748 39.447098 -46.806797 39.592381 -3.1448205 161.68295
680000000 -0.37060675 176.93141 -46.096245 41.967224 -46.088993 41.713017 -3.1180108 161.07368
690000000 -0.3709242 176.88724 -45.493538 41.877895 -45.484455 41.916649 -3.0869007 160.36987
700000000 -0.369203 176.8728 -45.14843 41.905228 -45.132629 41.608418 -3.0712574 159.59187
710000000 -0.36952177 176.83734 -44.793224 41.613232 -44.858364 41.804642 -3.0646601 158.8551
720000000 -0.37029129 176.79218 -44.41407 42.36219 -44.435329 42.101871 -3.0618038 158.18704
730000000 -0.36736813 176.75688 -44.100018 42.106289 -44.08297 42.13295 -3.0613997 157.50845
740000000 -0.36842945 176.70242 -43.387794 41.317696 -43.378998 41.349163 -3.0546439 156.99631
750000000 -0.36491373 176.64299 -42.966187 37.589367 -42.980171 37.553394 -3.0242519 156.36778
760000000 -0.36362836 176.61414 -42.748489 33.86256 -42.780102 33.913181 -3.0000467 155.72388
770000000 -0.36190811 176.53925 -42.738583 30.282873 -42.750366 30.249371 -2.9708831 155.06976
780000000 -0.36245453 176.50278 -42.955791 26.4881 -42.952621 26.53455 -2.9370565 154.30138
790000000 -0.36124948 176.4801 -43.303082 24.09247 -43.296314 23.964087 -2.9185524 153.47261
800000000 -0.36017585 176.44344 -43.712658 22.309658 -43.775177 22.258631 -2.9076288 152.65408
810000000 -0.35745174 176.39696 -44.228497 22.161308 -44.235867 22.160646 -2.9094222 151.8237
820000000 -0.35805327 176.34711 -44.606857 23.820852 -44.609524 23.753872 -2.9233954 151.04991
830000000 -0.35770667 176.3064 -44.807178 25.467621 -44.789307 25.500116 -2.9464042 150.33501
840000000 -0.35941094 176.26331 -44.689083 26.828629 -44.690334 26.852295 -2.9635744 149.7955
850000000 -0.36081687 176.2043 -44.622314 26.757673 -44.635517 26.645361 -2.9621887 149.21303
860000000 -0.36048663 176.15813 -44.772549 26.019455 -44.726841 26.104841 -2.9616592 148.59108
870000000 -0.35892507 176.12563 -44.891891 26.396263 -44.875309 26.419748 -2.9666409 147.99504
880000000 -0.36033082 176.07372 -44.976513 26.51165 -44.955261 26.594957 -2.9729671 147.43112
890000000 -0.35968342 176.04776 -45.055756 26.649212 -45.088799 26.686876 -2.9678307 146.91408
900000000 -0.36120334 175.9894 -45.20158 26.568859 -45.192844 26.76627 -2.9550693 146.39482
910000000 -0.36276716 175.94632 -45.491531 26.627897 -45.469173 26.713711 -2.9302745 145.81227
920000000 -0.36453533 175.89497 -45.778667 27.555887 -45.739689 27.709047 -2.9110081 145.14804
930000000 -0.36473298 175.8488 -46.143097 29.643396 -46.118389 29.80393 -2.8974741 144.40887
940000000 -0.36731321 175.79913 -46.281048 33.529266 -46.248928 33.327866 -2.9006579 143.63016
950000000 -0.3688978 175.7327 -46.100124 36.716965 -46.05891 36.589401 -2.9136546 142.91637
960000000 -0.36866587 175.70125 -45.791897 39.575512 -45.780415 39.337872 -2.9375978 142.25677
970000000 -0.36858049 175.66324 -45.36937 40.120865 -45.372746 40.157398 -2.9527767 141.72122
980000000 -0.37014386 175.61287 -45.051311 39.938423 -45.086227 39.782841 -2.9609585 141.17802
990000000 -0.37120304 175.56224 -44.807392 39.475143 -44.812424 39.526093 -2.9650998 140.63986
1000000000 -0.37034568 175.51408 -44.656414 38.078644 -44.680622 38.307869 -2.9673939 140.10509
1010000000 -0.37432545 175.47546 -44.618721 37.113209 -44.619308 37.072868 -2.9668934 139.59041
1020000000 -0.37300512 175.42398 -44.762505 36.125069 -44.734623 36.037399 -2.9622607 139.06744
1030000000 -0.37421203 175.39453 -44.852665 36.473923 -44.816235 36.46862 -2.9612563 138.49295
1040000000 -0.37421709 175.34361 -44.803223 36.16888 -44.794586 36.045406 -2.9524589 137.9651
1050000000 -0.37336987 175.29625 -44.917458 36.178299 -44.912167 36.067867 -2.9500539 137.41451
1060000000 -0.37176642 175.25746 -45.058167 36.278709 -45.047672 36.116489 -2.9326472 136.81564
1070000000 -0.37252423 175.22008 -45.117203 37.036198 -45.081017 37.166779 -2.9209223 136.16161
1080000000 -0.3695522 175.17889 -45.067173 37.601219 -45.084 37.738529 -2.9203157 135.43706
1090000000 -0.36858726 175.13737 -45.078327 37.829262 -45.056839 38.089119 -2.9412577 134.8007
1100000000 -0.36745235 175.09404 -45.01012 38.382927 -45.036358 38.369122 -2.9578362 134.29321
1110000000 -0.3664048 175.03949 -44.9977 38.473946 -45.001797 38.393272 -2.9626248 133.79141
1120000000 -0.36669067 175.00798 -44.941654 37.360958 -44.942627 37.437016 -2.9650774 133.3365
1130000000 -0.36923346 174.96339 -45.105103 36.605598 -45.059708 36.467644 -2.9503303 132.82933
1140000000 -0.37032425 174.92143 -45.348213 36.461075 -45.360748 36.313961 -2.9381485 132.26706
1150000000 -0.37247741 174.86426 -45.532558 37.425255 -45.541161 37.330238 -2.9228184 131.63179
1160000000 -0.37217987 174.82513 -45.664204 37.962608 -45.633457 37.902866 -2.9166701 130.94331
1170000000 -0.37211838 174.78203 -45.815052 39.07338 -45.840595 38.978722 -2.9247313 130.25728
1180000000 -0.37421229 174.72694 -45.924202 40.466076 -45.902496 40.519047 -2.9321015 129.67162
1190000000 -0.3752307 174.68755 -45.93951 41.43206 -45.952229 41.470749 -2.9310958 129.04433
1200000000 -0.37796798 174.64241 -46.042603 42.095535 -46.032402 42.243752 -2.943511 128.36583
1210000000 -0.37844157 174.58887 -46.120808 43.658112 -46.135876 43.925385 -2.9640467 127.81248
1220000000 -0.37928894 174.55049 -46.074574 45.240826 -46.094673 45.410152 -2.9698911 127.26021
1230000000 -0.37981808 174.51282 -46.020084 46.166729 -46.020298 46.036175 -2.9709623 126.68654
1240000000 -0.38177127 174.45929 -46.039433 47.075169 -46.050571 46.634865 -2.9711325 126.05382
1250000000 -0.38090223 174.42351 -46.050911 48.004192 -46.071209 47.664783 -2.9894612 125.33343
1260000000 -0.38055861 174.37062 -46.023708 48.71188 -46.036121 48.547924 -3.0244956 124.75158
1270000000 -0.38114893 174.32867 -46.034058 49.345154 -46.065628 49.288643 -3.0375874 124.20419
1280000000 -0.37864804 174.26244 -46.092094 50.488579 -46.059105 50.779232 -3.0551755 123.5601
1290000000 -0.37986723 174.2191 -46.075314 51.693562 -46.062366 51.918476 -3.0909417 122.9485
1300000000 -0.37882739 174.17563 -46.031864 52.734425 -46.005116 52.697338 -3.1342373 122.49315
1310000000 -0.37965223 174.13071 -46.010387 53.954536 -46.001301 53.980675 -3.1610498 122.03342
1320000000 -0.37863052 174.09474 -45.965908 55.27158 -45.953751 55.208534 -3.1956077 121.59293
1330000000 -0.37932792 174.05029 -45.836544 56.662262 -45.862366 56.416733 -3.2332642 121.21716
1340000000 -0.37769377 174.00261 -45.627056 57.628101 -45.665607 57.452122 -3.2735913 120.94276
1350000000 -0.37877119 173.95886 -45.450314 57.618732 -45.477585 57.605125 -3.2873502 120.82684
1360000000 -0.37878671 173.91418 -45.355492 57.52248 -45.369049 57.433647 -3.2741854 120.62743
1370000000 -0.38015965 173.87041 -45.288143 57.552391 -45.273312 57.727535 -3.2585697 120.36366
1380000000 -0.38094717 173.81342 -45.315971 57.2654 -45.305454 57.286556 -3.2179527 120.00425
1390000000 -0.37974209 173.77316 -45.334534 57.333858 -45.311718 57.456207 -3.1902606 119.5461
1400000000 -0.37891695 173.72139 -45.418125 57.637646 -45.363987 57.591972 -3.1637907 119.02945
1410000000 -0.37918612 173.67744 -45.480427 57.873425 -45.459965 58.066525 -3.1447949 118.47601
1420000000 -0.37975395 173.64897 -45.517342 59.092224 -45.551373 58.918201 -3.1347499 117.90779
1430000000 -0.38060638 173.60498 -45.541759 60.177551 -45.576893 59.878109 -3.1232126 117.35594
1440000000 -0.38134027 173.56668 -45.463318 61.168259 -45.520317 60.94429 -3.1169932 116.78631
1450000000 -0.3835212 173.52335 -45.39621 61.625839 -45.466187 61.4743 -3.1096489 116.19794
1460000000 -0.38578868 173.47975 -45.434746 62.169365 -45.478989 62.042938 -3.1096165 115.61177
1470000000 -0.38847628 173.42313 -45.428982 62.632801 -45.39399 62.686234 -3.1173296 115.05159
1480000000 -0.38760701 173.3754 -45.439892 63.208763 -45.43605 63.267605 -3.116683 114.51544
1490000000 -0.39027876 173.32068 -45.439724 63.648232 -45.434601 63.909584 -3.1157048 113.99635
1500000000 -0.39067891 173.26755 -45.495945 64.092522 -45.44474 64.196289 -3.1094561 113.45384
1510000000 -0.39058545 173.23579 -45.526577 64.770844 -45.515968 64.934029 -3.1062994 112.86001
1520000000 -0.39048606 173.1931 -45.567719 65.790932 -45.576157 65.866997 -3.1166911 112.25597
1530000000 -0.39149666 173.15555 -45.607616 66.930992 -45.628269 66.920486 -3.1277537 111.70641
1540000000 -0.39344209 173.10951 -45.657238 68.155708 -45.676228 68.015442 -3.1449406 111.20654
1550000000 -0.39354187 173.06398 -45.615086 69.431282 -45.659584 69.490791 -3.1455464 110.80439
1560000000 -0.39644328 173.01216 -45.586899 70.861435 -45.611885 70.680382 -3.1365709 110.33472
1570000000 -0.39713502 172.96628 -45.557407 72.200905 -45.544426 72.107437 -3.1258559 109.81867
1580000000 -0.39731088 172.90813 -45.500832 73.082359 -45.470387 73.155632 -3.1125834 109.2525
1590000000 -0.39507228 172.85741 -45.460587 74.110649 -45.464443 74.27227 -3.1034849 108.64358
1600000000 -0.39406309 172.81415 -45.373505 75.582466 -45.332729 75.828979 -3.0999303 108.03162
1610000000 -0.39354357 172.77058 -45.279564 76.821114 -45.215183 76.672348 -3.1012967 107.42285
1620000000 -0.39181793 172.72423 -45.121941 77.450981 -45.103523 77.588554 -3.1019921 106.84238
1630000000 -0.39193803 172.69559 -45.032715 78.220772 -45.040653 78.13945 -3.0984831 106.22056
1640000000 -0.39133239 172.6541 -44.949978 78.900185 -45.006195 78.803139 -3.100579 105.58529
1650000000 -0.39282629 172.6106 -44.844513 79.730675 -44.901314 79.514732 -3.1040411 104.98336
1660000000 -0.39434057 172.55559 -44.784779 80.267433 -44.815987 80.088074 -3.1070051 104.37215
1670000000 -0.39591837 172.51414 -44.766212 80.710304 -44.766354 80.551682 -3.1104174 103.73711
1680000000 -0.39758265 172.45894 -44.792072 81.445015 -44.75565 81.524712 -3.114042 103.08636
1690000000 -0.39667952 172.41188 -44.781704 82.638016 -44.736725 82.675125 -3.1205568 102.4108
1700000000 -0.39576268 172.36316 -44.758293 83.842209 -44.709412 84.026207 -3.1313686 101.71697
1710000000 -0.39692855 172.32303 -44.622967 85.36097 -44.546295 85.269516 -3.1524608 101.03271
1720000000 -0.39703491 172.26909 -44.471443 86.017288 -44.448765 86.105927 -3.1721694 100.40491
1730000000 -0.39767826 172.23508 -44.381134 86.743095 -44.392101 86.61338 -3.1885951 99.758713
1740000000 -0.39964631 172.20073 -44.322021 87.628548 -44.354874 87.636421 -3.2044008 99.097168
1750000000 -0.40197334 172.15092 -44.256203 88.496689 -44.314213 88.5019 -3.2260189 98.444946
1760000000 -0.40364876 172.11128 -44.184246 89.648987 -44.208073 89.613091 -3.2525821 97.829491
1770000000 -0.40625733 172.05852 -44.089005 90.676414 -44.099205 90.493759 -3.2790954 97.223572
1780000000 -0.40879607 172.01355 -44.116119 91.759018 -44.071072 91.875618 -3.295085 96.606987
1790000000 -0.40996459 171.96204 -44.06876 93.591515 -44.018929 93.527122 -3.3168616 95.940483
1800000000 -0.40959477 171.91931 -43.910355 95.57637 -43.826996 95.408859 -3.3468704 95.265785
1810000000 -0.40850741 171.8602 -43.626305 96.883041 -43.586411 96.720947 -3.3821468 94.676407
1820000000 -0.4088524 171.82507 -43.352665 97.81543 -43.324726 97.871239 -3.4089086 94.066658
1830000000 -0.40830579 171.77962 -43.082493 98.40519 -43.107586 98.549843 -3.4400394 93.477409
1840000000 -0.40800834 171.73569 -42.84761 98.969688 -42.905098 99.008949 -3.462846 92.928146
1850000000 -0.4088757 171.69508 -42.65678 98.910233 -42.730984 99.11338 -3.4781075 92.357918
1860000000 -0.40949777 171.65402 -42.532059 99.441719 -42.57283 99.585167 -3.4938438 91.727753
1870000000 -0.41246253 171.60832 -42.354416 99.78447 -42.349243 99.890747 -3.5114748 91.096581
1880000000 -0.41471213 171.56274 -42.22583 100.22591 -42.213047 100.07156 -3.5251822 90.426575
1890000000 -0.41349193 171.51936 -42.122341 100.76357 -42.068523 100.65379 -3.5386729 89.710243
1900000000 -0.41498667 171.46503 -42.016762 101.2956 -41.941757 101.13492 -3.5574296 88.924873
1910000000 -0.41279101 171.41339 -41.85146 101.94776 -41.794109 101.83532 -3.5816789 88.117943
1920000000 -0.41350248 171.36414 -41.626568 102.6116 -41.603542 102.38515 -3.6138821 87.269577
1930000000 -0.41223112 171.32472 -41.41494 102.83535 -41.425137 102.88811 -3.6470494 86.415146
1940000000 -0.41317248 171.28137 -41.20047 103.15266 -41.253593 103.2504 -3.6839423 85.523003
1950000000 -0.41438377 171.24564 -41.048538 103.13951 -41.09687 103.34435 -3.7232034 84.606812
1960000000 -0.41559508 171.21066 -40.904385 103.41508 -40.929127 103.49096 -3.7700045 83.60701
1970000000 -0.4181242 171.16742 -40.740097 103.63826 -40.763653 103.62204 -3.8320873 82.557327
1980000000 -0.41946712 171.12123 -40.602943 103.74098 -40.584785 103.75265 -3.9130228 81.524529
1990000000 -0.42148048 171.07271 -40.503475 104.02859 -40.455841 103.98255 -3.9933045 80.486145
2000000000 -0.42196 171.01605 -40.368462 104.54768 -40.308159 104.31242 -4.0871696 79.377274
2010000000 -0.42302161 170.97354 -40.143322 104.86431 -40.134434 104.88323 -4.2028646 78.170967
2020000000 -0.42389372 170.93095 -39.911427 104.84116 -39.928833 104.95589 -4.3481255 76.976906
2030000000 -0.42348847 170.87851 -39.720604 104.82076 -39.765018 105.05748 -4.5150375 75.802834
2040000000 -0.42669725 170.83406 -39.518314 104.50507 -39.57489 104.85287 -4.7168355 74.685623
2050000000 -0.42773205 170.80016 -39.356045 104.13577 -39.389347 104.32874 -4.9462557 73.684364
