!Keysight Technologies,N5222B,MY61257109,A.17.25.03
!Date: Tuesday, July 21, 2026 11:42:52
!Correction: S11(C  2-Port  ) 
!S21(C  2-Port  ) 
!S12(C  2-Port  ) 
!S22(C  2-Port  ) 
!S2P File: Measurements: S11, S21, S12, S22:
# Hz S  dB   R 50
10000000 -5.8277202 -6.3407292 -24.643002 22.912672 -24.556744 24.529341 -2.2993834 -49.223305
20000000 -7.6287093 -57.058018 -7.981719 14.31809 -7.9496222 13.983864 -4.7322326 -106.39084
30000000 -7.619185 -67.837944 -8.6278543 9.5899334 -8.6067591 9.5333815 -4.7163324 -121.89258
40000000 -8.5041428 -101.90433 -7.3626862 -5.1596251 -7.3612118 -5.1060901 -5.3346872 -138.78384
50000000 -9.435421 -172.82805 -6.2521405 -30.066248 -6.246778 -30.064089 -6.5804558 -152.91165
60000000 -12.750574 75.059837 -10.136766 -56.529961 -10.102806 -56.494968 -7.654552 -148.48141
70000000 -12.349944 6.5364285 -14.572211 -49.389614 -14.516254 -49.666653 -6.9028292 -148.92369
80000000 -10.756529 -24.284719 -16.68623 -33.736458 -16.661648 -34.279675 -6.5190868 -151.99577
90000000 -9.471735 -46.887863 -16.847832 -15.667136 -16.889847 -16.181934 -6.2370734 -154.95615
100000000 -9.0486851 -62.743416 -15.792445 -7.5246334 -15.819211 -7.2776341 -6.0413108 -158.00253
110000000 -8.5771656 -75.401039 -15.076326 -3.4148633 -15.081432 -3.4662259 -5.9595361 -160.43979
120000000 -9.0855703 -87.116882 -14.083378 -5.9714355 -14.14246 -5.9011769 -5.8742976 -163.38644
130000000 -10.827209 -99.09243 -13.358119 -16.044708 -13.411687 -16.097887 -5.9552045 -167.4931
140000000 -9.1112595 -92.959442 -14.877395 -7.1317544 -14.871858 -7.1238623 -6.1244941 -166.53201
150000000 -8.671319 -100.89279 -14.376939 -5.0289021 -14.366194 -4.9847002 -6.0562048 -167.61906
160000000 -8.5388861 -107.11519 -14.123901 -4.307055 -14.112792 -4.3179936 -6.0309925 -168.96283
170000000 -8.4074926 -111.89079 -13.716094 -3.5486772 -13.713522 -3.6007755 -6.0870528 -170.2683
180000000 -8.2763166 -116.71005 -13.446764 -4.7730355 -13.44317 -4.7916679 -6.1584811 -170.72171
190000000 -8.1039953 -121.45781 -13.253534 -5.6105618 -13.250876 -5.6490045 -6.1647391 -171.12997
200000000 -8.1044989 -126.07454 -13.073983 -6.4925752 -13.069223 -6.4649425 -6.166791 -171.4563
210000000 -8.0074816 -129.74875 -12.907228 -7.4498119 -12.910392 -7.4147773 -6.1487927 -171.67952
220000000 -8.0071754 -133.2411 -12.823459 -8.9331055 -12.810105 -8.9461803 -6.1336584 -172.02165
230000000 -8.1427336 -137.51343 -12.625935 -10.777826 -12.618088 -10.79221 -6.0850458 -172.23685
240000000 -8.2888947 -138.38766 -12.828526 -12.767038 -12.822747 -12.814227 -6.097971 -172.63028
250000000 -8.0132713 -140.68626 -12.842227 -12.774216 -12.836508 -12.811837 -6.0726318 -172.46344
260000000 -7.8276315 -144.12923 -12.775738 -13.049044 -12.769076 -13.083025 -6.0090504 -172.41231
270000000 -7.9005837 -149.52147 -12.400957 -13.751388 -12.397872 -13.799991 -5.8859849 -172.06279
280000000 -8.2979374 -150.41705 -12.416938 -17.73016 -12.414119 -17.712763 -5.7557216 -172.77065
290000000 -8.4611359 -150.83791 -12.652319 -19.837725 -12.648389 -19.798038 -5.6836147 -173.11137
300000000 -8.3166485 -150.80779 -12.876791 -20.641298 -12.863837 -20.60116 -5.6047382 -173.46857
310000000 -8.0110855 -152.18877 -12.908644 -20.494471 -12.894253 -20.484167 -5.5124612 -173.68567
320000000 -7.7610712 -154.43204 -12.860729 -21.655386 -12.836734 -21.64591 -5.4211597 -174.21556
330000000 -7.6106176 -157.12805 -12.880103 -22.952936 -12.855828 -23.014313 -5.3770175 -174.51541
340000000 -7.5175085 -161.24324 -12.734811 -24.255816 -12.722987 -24.448233 -5.2618303 -174.56525
350000000 -7.7687101 -163.40808 -12.885612 -27.363295 -12.89058 -27.348213 -5.1679764 -175.08684
360000000 -7.8943887 -164.75127 -13.154265 -29.254595 -13.164425 -29.191416 -5.0896621 -175.50525
370000000 -7.9982028 -165.00998 -13.535004 -30.591375 -13.525078 -30.6255 -5.0170956 -175.79369
380000000 -7.8874679 -165.59273 -13.810202 -30.767267 -13.80336 -30.714863 -4.9101505 -175.99399
390000000 -7.7227521 -166.1931 -14.070699 -30.424109 -14.061899 -30.312462 -4.7950363 -176.29353
400000000 -7.4669352 -167.73221 -14.100204 -29.507887 -14.089115 -29.574505 -4.6340747 -176.5538
410000000 -7.2903099 -170.27432 -13.986012 -29.956253 -13.974529 -30.069653 -4.4603448 -177.24673
420000000 -7.2513742 -173.06531 -13.922814 -31.924797 -13.922518 -31.878874 -4.3153286 -178.3037
430000000 -7.3148055 -175.0999 -14.093381 -33.928261 -14.09243 -33.918488 -4.2286267 -179.31731
440000000 -7.3894548 -176.65932 -14.359602 -35.341427 -14.350525 -35.454998 -4.1601124 179.81082
450000000 -7.3983293 -177.90224 -14.664352 -36.495556 -14.658278 -36.504234 -4.1053562 178.94254
460000000 -7.3428664 -179.1317 -14.903953 -36.523796 -14.903672 -36.39439 -4.0327706 178.2785
470000000 -7.3509645 179.02365 -15.06361 -37.202572 -15.049663 -37.349575 -3.9496777 177.45117
480000000 -7.3458295 177.92067 -15.343204 -37.774971 -15.344265 -37.792095 -3.8925626 176.62447
490000000 -7.3330579 176.556 -15.580786 -38.306053 -15.573443 -38.147049 -3.8336608 175.73462
500000000 -7.3407679 174.96426 -15.771155 -38.630192 -15.759561 -38.63979 -3.7662015 174.95993
510000000 -7.3838558 173.93402 -16.100256 -39.219845 -16.07535 -39.244453 -3.7254448 174.0999
520000000 -7.3849587 173.00394 -16.432421 -39.259232 -16.424377 -39.28698 -3.6935949 173.28568
530000000 -7.348011 172.34906 -16.800127 -38.226746 -16.795847 -38.174812 -3.665704 172.60416
540000000 -7.2390866 171.19618 -16.930977 -36.602013 -16.918253 -36.492924 -3.6094618 171.9677
550000000 -7.1923699 169.46223 -16.9415 -36.335049 -16.942226 -36.076439 -3.5404718 171.21138
560000000 -7.1916685 168.2213 -17.111776 -36.190174 -17.094578 -36.016159 -3.4903541 170.38443
570000000 -7.1811814 166.56737 -17.207642 -36.213928 -17.19976 -36.245373 -3.4419901 169.50502
580000000 -7.2371545 164.99678 -17.385786 -36.264679 -17.387566 -36.381424 -3.4097147 168.68993
590000000 -7.3405762 164.01068 -17.684826 -36.193161 -17.697887 -36.349407 -3.3846378 167.8811
600000000 -7.3517742 163.82169 -18.017313 -34.530121 -18.001913 -34.55188 -3.3643806 167.21913
610000000 -7.1924601 162.81335 -17.898012 -32.575214 -17.896902 -32.683548 -3.3036597 166.56732
620000000 -7.1817303 161.18578 -17.869272 -33.315105 -17.863064 -33.256466 -3.2558393 165.60847
630000000 -7.2022486 159.74323 -17.981483 -33.613361 -17.968079 -33.515938 -3.2351549 164.70819
640000000 -7.2986422 158.24962 -18.119385 -34.419292 -18.097681 -34.191807 -3.2113254 163.81345
650000000 -7.4059134 157.53128 -18.451124 -34.647343 -18.427439 -34.477249 -3.2056947 162.9225
660000000 -7.4772401 157.21155 -18.842466 -33.751648 -18.824924 -33.611958 -3.2133093 162.1362
670000000 -7.4557829 156.90985 -19.041479 -31.540394 -19.03558 -31.544321 -3.206605 161.52838
680000000 -7.4092503 156.30267 -19.09655 -30.053898 -19.090099 -30.181988 -3.1826427 160.82387
690000000 -7.3616199 155.7131 -19.193819 -28.708023 -19.210901 -28.932064 -3.1712041 160.05519
700000000 -7.2954373 155.07362 -19.302113 -27.411919 -19.309801 -27.51194 -3.170835 159.30875
710000000 -7.2203746 154.30414 -19.359995 -25.998947 -19.349871 -26.113932 -3.1711566 158.62065
720000000 -7.1334634 153.49927 -19.361975 -24.363432 -19.36507 -24.408463 -3.1763906 157.98331
730000000 -7.0803871 152.59131 -19.365232 -23.209208 -19.346102 -23.054665 -3.1821322 157.32381
740000000 -6.9712467 151.64862 -19.218904 -21.121691 -19.182465 -20.847532 -3.1947105 156.86725
750000000 -6.8964396 150.2683 -18.943878 -20.732477 -18.89489 -20.549112 -3.1688235 156.4122
760000000 -6.8778319 149.03499 -18.738958 -21.182522 -18.697172 -21.045673 -3.1393516 155.92279
770000000 -6.8572807 148.09384 -18.660105 -22.093788 -18.64958 -22.162882 -3.0945597 155.38579
780000000 -6.7988772 147.07806 -18.684626 -23.103714 -18.698446 -23.281054 -3.0427401 154.69955
790000000 -6.7448072 145.78096 -18.76705 -23.773321 -18.81039 -23.885393 -3.0048907 153.89052
800000000 -6.7107778 144.59407 -18.978294 -24.307404 -19.006327 -24.364098 -2.9765205 153.03378
810000000 -6.6646852 143.3885 -19.221722 -23.932678 -19.229464 -23.909931 -2.9670966 152.14363
820000000 -6.6496644 141.93896 -19.374605 -22.717733 -19.357025 -22.70118 -2.9804044 151.29982
830000000 -6.6919785 140.698 -19.429464 -21.865204 -19.405001 -21.84404 -3.0045457 150.56104
840000000 -6.7246804 139.81525 -19.430563 -21.063425 -19.393669 -20.948242 -3.0226564 150.00687
850000000 -6.7077842 139.0687 -19.449495 -20.600468 -19.404591 -20.545034 -3.0218186 149.44176
860000000 -6.6518736 138.0446 -19.515455 -20.215031 -19.486319 -20.170742 -3.0125713 148.81714
870000000 -6.6109672 136.77391 -19.552544 -19.33009 -19.544598 -19.32041 -3.0166988 148.19385
880000000 -6.5979595 135.35686 -19.520613 -18.681297 -19.533121 -18.647228 -3.0272388 147.6273
890000000 -6.6164694 134.03275 -19.507807 -18.325989 -19.519672 -18.283424 -3.0223763 147.15636
900000000 -6.6452837 132.84064 -19.534988 -17.956337 -19.542023 -17.957329 -3.0029314 146.66501
910000000 -6.6703148 131.71483 -19.594479 -17.726412 -19.595051 -17.701872 -2.9685955 146.07779
920000000 -6.7062664 130.5843 -19.686573 -17.200962 -19.668495 -17.18346 -2.943063 145.3912
930000000 -6.75032 129.52968 -19.781052 -16.362278 -19.765657 -16.383631 -2.9204071 144.59822
940000000 -6.7919159 128.44135 -19.819927 -15.036272 -19.795076 -14.95897 -2.9230752 143.73792
950000000 -6.8320217 127.41048 -19.773197 -13.668385 -19.747665 -13.54906 -2.9403238 142.94618
960000000 -6.885901 126.38741 -19.659769 -12.40296 -19.633221 -12.28675 -2.9758794 142.25424
970000000 -6.9336553 125.48044 -19.478989 -11.640009 -19.463051 -11.591709 -3.0001314 141.74294
980000000 -7.0028667 124.60005 -19.30271 -11.5031 -19.301367 -11.522019 -3.0122006 141.22588
990000000 -7.0621872 123.94085 -19.159216 -11.560218 -19.169344 -11.581868 -3.0223675 140.71083
1000000000 -7.1013503 123.27325 -19.05092 -12.058998 -19.06489 -12.04793 -3.0290611 140.22906
1010000000 -7.1518841 122.77011 -19.02244 -12.691608 -19.000919 -12.567598 -3.0280988 139.76842
1020000000 -7.1825995 122.21432 -19.069664 -13.183095 -19.029476 -13.068622 -3.0169764 139.2901
1030000000 -7.2014446 121.67122 -19.108744 -13.064775 -19.060049 -12.987701 -3.0101187 138.70325
1040000000 -7.2180476 121.08289 -19.087183 -13.045467 -19.040894 -12.985077 -2.9996321 138.18076
1050000000 -7.2298121 120.60999 -19.109024 -13.160848 -19.078039 -13.105501 -2.9962201 137.64748
1060000000 -7.2265224 120.09537 -19.154675 -13.195747 -19.130354 -13.127106 -2.9728794 137.06787
1070000000 -7.2034445 119.63456 -19.17392 -12.746174 -19.167292 -12.716218 -2.9589274 136.3996
1080000000 -7.1686826 119.02352 -19.154524 -12.430052 -19.153889 -12.449024 -2.9583001 135.67757
1090000000 -7.1341543 118.38838 -19.142342 -12.297467 -19.146503 -12.245806 -2.9754415 135.04716
1100000000 -7.1027436 117.67763 -19.151911 -12.04388 -19.140284 -11.976386 -2.9896879 134.52222
1110000000 -7.0684786 116.87178 -19.136875 -11.683318 -19.115784 -11.62529 -2.9945824 133.97115
1120000000 -7.04603 115.924 -19.048283 -11.760146 -19.017923 -11.647445 -3.0082083 133.54126
1130000000 -7.0465345 114.90826 -19.03553 -12.104104 -18.989182 -11.993866 -2.9924867 133.09531
1140000000 -7.0629988 114.00259 -19.085905 -12.313951 -19.039318 -12.234438 -2.9725299 132.57188
1150000000 -7.07763 113.20085 -19.124834 -12.084161 -19.085043 -12.012939 -2.9503272 131.93488
1160000000 -7.0685096 112.3473 -19.097658 -11.941678 -19.074953 -11.881538 -2.9430904 131.24493
1170000000 -7.0665689 111.40631 -19.114147 -11.96623 -19.10141 -11.878838 -2.9467533 130.57375
1180000000 -7.0904217 110.45746 -19.131697 -11.649833 -19.115976 -11.628395 -2.9467058 129.97736
1190000000 -7.1168041 109.76963 -19.110886 -11.509974 -19.096056 -11.533868 -2.9436672 129.31187
1200000000 -7.1285801 109.15189 -19.141708 -11.514494 -19.135502 -11.531414 -2.9563887 128.62569
1210000000 -7.1395054 108.44988 -19.172886 -11.203013 -19.156176 -11.12825 -2.9745283 128.05914
1220000000 -7.1495929 107.72064 -19.158297 -10.821815 -19.129663 -10.697705 -2.979485 127.47897
1230000000 -7.1550198 106.97287 -19.118565 -10.745064 -19.073008 -10.572195 -2.9829934 126.89366
1240000000 -7.1553082 106.18951 -19.096106 -10.648913 -19.049839 -10.522535 -2.9842572 126.26427
1250000000 -7.154757 105.40583 -19.076645 -10.628888 -19.031355 -10.498179 -3.001476 125.5539
1260000000 -7.1516519 104.54233 -19.049908 -10.672796 -19.014517 -10.596521 -3.0373654 124.98296
1270000000 -7.1569357 103.67836 -19.041679 -10.720986 -19.022354 -10.700677 -3.0471966 124.45274
1280000000 -7.1633224 102.82615 -19.026316 -10.627547 -19.012861 -10.621698 -3.0623908 123.77824
1290000000 -7.1875224 102.08208 -19.024485 -10.772177 -19.012434 -10.778731 -3.102011 123.15668
1300000000 -7.21278 101.4342 -19.051456 -10.846535 -19.039045 -10.83412 -3.145056 122.72294
1310000000 -7.2409568 100.77139 -19.090986 -10.743482 -19.064209 -10.684753 -3.1681185 122.26117
1320000000 -7.2596335 100.06085 -19.1208 -10.600034 -19.085073 -10.511256 -3.2026727 121.80354
1330000000 -7.2766104 99.315681 -19.121784 -10.267555 -19.075483 -10.117723 -3.2401483 121.42746
1340000000 -7.2885041 98.550644 -19.0989 -9.9012547 -19.046251 -9.7628937 -3.2782876 121.15152
1350000000 -7.3060088 97.744812 -19.055243 -9.7568226 -19.008045 -9.6281118 -3.2961762 121.03963
1360000000 -7.3315883 96.988869 -19.011839 -9.6774931 -18.973335 -9.6097679 -3.2842915 120.86919
1370000000 -7.3471918 96.290596 -18.961702 -9.5862598 -18.939386 -9.5564756 -3.2689409 120.63437
1380000000 -7.3594851 95.590843 -18.900539 -9.776803 -18.888365 -9.744175 -3.225354 120.29868
1390000000 -7.3813491 94.982414 -18.874872 -9.9682674 -18.853739 -9.924696 -3.1944795 119.85835
1400000000 -7.4063182 94.370468 -18.872406 -10.227292 -18.845819 -10.244734 -3.1620052 119.35424
1410000000 -7.4339705 93.746269 -18.882772 -10.528044 -18.849058 -10.488673 -3.1368487 118.79151
1420000000 -7.4602013 93.056892 -18.910593 -10.626571 -18.86845 -10.571691 -3.1228843 118.18452
1430000000 -7.4902029 92.326614 -18.908674 -10.598987 -18.867113 -10.518574 -3.1103091 117.61108
1440000000 -7.5215921 91.648491 -18.896292 -10.616012 -18.853157 -10.471255 -3.104409 117.03763
1450000000 -7.5490952 91.052071 -18.870226 -10.788181 -18.825788 -10.593843 -3.0982969 116.46034
1460000000 -7.5688009 90.450523 -18.86754 -11.013636 -18.826672 -10.867204 -3.0958972 115.89082
1470000000 -7.5711656 89.907509 -18.864252 -11.188255 -18.835787 -11.10203 -3.1012936 115.3275
1480000000 -7.5532703 89.252258 -18.870255 -11.326128 -18.850956 -11.27257 -3.1010857 114.77863
1490000000 -7.5548005 88.600021 -18.867308 -11.440591 -18.839212 -11.429083 -3.1003971 114.2601
1500000000 -7.5732374 87.933754 -18.869093 -11.710069 -18.838413 -11.752887 -3.0940359 113.73642
1510000000 -7.6062274 87.290108 -18.89784 -12.09688 -18.866344 -12.111456 -3.0869434 113.15076
1520000000 -7.6381764 86.665344 -18.941029 -12.368369 -18.909716 -12.327285 -3.0946591 112.55354
1530000000 -7.6623278 86.014671 -18.983418 -12.573066 -18.942631 -12.407489 -3.1010392 112.0106
1540000000 -7.6812286 85.421349 -19.038912 -12.720689 -18.985535 -12.497342 -3.1132545 111.50248
1550000000 -7.6976714 84.755379 -19.093493 -12.691692 -19.039204 -12.483552 -3.110168 111.08889
1560000000 -7.7171159 84.133278 -19.122793 -12.55943 -19.069927 -12.38287 -3.1009445 110.60923
1570000000 -7.7215452 83.500679 -19.138323 -12.458027 -19.101536 -12.39697 -3.0886729 110.0878
1580000000 -7.7167048 82.869247 -19.131926 -12.400789 -19.105543 -12.41453 -3.0741818 109.51385
1590000000 -7.7252235 82.224091 -19.158178 -12.436224 -19.135944 -12.481849 -3.0642231 108.91036
1600000000 -7.7561588 81.660461 -19.174685 -12.346023 -19.154345 -12.378257 -3.0561607 108.29844
1610000000 -7.7916689 81.13063 -19.174093 -12.419394 -19.148436 -12.371641 -3.0522428 107.67476
1620000000 -7.8269587 80.593414 -19.182695 -12.554937 -19.140104 -12.410693 -3.0504494 107.06669
1630000000 -7.845871 80.03643 -19.187122 -12.727041 -19.127285 -12.545671 -3.0449245 106.42518
1640000000 -7.8667521 79.442863 -19.203857 -12.872602 -19.135038 -12.690368 -3.0443172 105.77029
1650000000 -7.8816686 78.858109 -19.207558 -12.989065 -19.146391 -12.839087 -3.047364 105.14463
1660000000 -7.8909364 78.239601 -19.201046 -13.258476 -19.152988 -13.097893 -3.0536489 104.5093
1670000000 -7.8923197 77.606956 -19.210775 -13.649558 -19.178537 -13.573867 -3.0622365 103.88145
1680000000 -7.8801351 76.951141 -19.256907 -13.958081 -19.224388 -13.947846 -3.065485 103.25243
1690000000 -7.873632 76.286003 -19.298376 -14.171405 -19.275578 -14.23648 -3.0693567 102.5847
1700000000 -7.8995323 75.6213 -19.360392 -14.438433 -19.337879 -14.476313 -3.0765228 101.88802
1710000000 -7.9393578 75.017815 -19.422132 -14.568923 -19.388618 -14.579628 -3.0942242 101.19016
1720000000 -7.9846954 74.439835 -19.460901 -14.802588 -19.411562 -14.729474 -3.1123528 100.54056
1730000000 -8.0125637 73.802979 -19.500345 -15.194663 -19.444324 -15.067922 -3.1275408 99.881966
1740000000 -8.040144 73.138062 -19.563814 -15.622048 -19.501848 -15.374613 -3.1418724 99.219955
1750000000 -8.0682726 72.459129 -19.651226 -15.994451 -19.585781 -15.75741 -3.1624455 98.568573
1760000000 -8.0951405 71.867935 -19.746355 -16.230423 -19.687775 -16.02994 -3.189064 97.944893
1770000000 -8.105648 71.241516 -19.839912 -16.412613 -19.792372 -16.322859 -3.2176769 97.355629
1780000000 -8.1057482 70.606575 -19.939465 -16.601812 -19.911648 -16.633005 -3.2307677 96.744995
1790000000 -8.116313 69.996498 -20.076099 -16.723783 -20.057102 -16.826935 -3.2497189 96.073708
1800000000 -8.1533108 69.480751 -20.240534 -16.641609 -20.215429 -16.697159 -3.2751241 95.400803
1810000000 -8.190362 68.949585 -20.391726 -16.368023 -20.354639 -16.390747 -3.3076224 94.781288
1820000000 -8.2381268 68.370857 -20.508909 -15.996585 -20.46034 -15.948315 -3.3330169 94.159409
1830000000 -8.2791243 67.752823 -20.597881 -15.595371 -20.539196 -15.478961 -3.3596129 93.575516
1840000000 -8.3180904 67.203842 -20.672297 -15.241861 -20.608316 -15.018008 -3.3745515 92.997528
1850000000 -8.3423052 66.672882 -20.725653 -15.070956 -20.660797 -14.807417 -3.3900814 92.395828
1860000000 -8.3696928 66.061348 -20.829657 -15.012904 -20.758539 -14.74818 -3.4050255 91.743164
1870000000 -8.3935518 65.479149 -20.920658 -14.731335 -20.860662 -14.64248 -3.4254727 91.09005
1880000000 -8.3988218 64.928658 -21.0056 -14.525535 -20.968475 -14.621982 -3.439769 90.406288
1890000000 -8.4049406 64.383881 -21.104601 -14.289034 -21.090549 -14.445787 -3.4522722 89.677025
1900000000 -8.4332228 63.852612 -21.250189 -14.247042 -21.22855 -14.322278 -3.4705045 88.874504
1910000000 -8.4689236 63.293369 -21.426283 -13.965395 -21.389208 -14.057788 -3.4917669 88.050293
1920000000 -8.5255966 62.737576 -21.599379 -13.487705 -21.552023 -13.497084 -3.5226355 87.159248
1930000000 -8.5678272 62.143883 -21.741945 -12.976734 -21.682838 -12.847328 -3.555805 86.272842
1940000000 -8.6166544 61.588261 -21.889669 -12.357068 -21.812263 -12.084266 -3.5924416 85.356483
1950000000 -8.6494255 61.035881 -22.029585 -11.877217 -21.943649 -11.551441 -3.6327817 84.424538
1960000000 -8.6836548 60.446682 -22.216923 -11.346122 -22.132746 -11.078082 -3.6821122 83.399185
1970000000 -8.7114 59.789474 -22.425627 -10.574869 -22.359732 -10.450361 -3.747952 82.324081
1980000000 -8.7157774 59.085701 -22.634405 -9.5582352 -22.598387 -9.6465979 -3.8341024 81.282494
1990000000 -8.7310562 58.356133 -22.880346 -8.3880529 -22.86631 -8.6027126 -3.9152451 80.239769
2000000000 -8.7785082 57.664871 -23.198219 -6.7716928 -23.185951 -7.0569005 -4.0099616 79.101608
2010000000 -8.894784 57.038265 -23.546345 -4.7045445 -23.505974 -4.6886334 -4.1283422 77.882431
2020000000 -8.9782639 56.423641 -23.803164 -1.8529842 -23.732052 -1.6042246 -4.2723475 76.665565
2030000000 -9.0561113 55.798729 -24.045967 1.4914464 -23.933399 1.9500474 -4.4407248 75.464325
