!Keysight Technologies,N5222B,MY61257109,A.17.25.03
!Date: Wednesday, July 22, 2026 17:41:11
!Correction: S11(C  2-Port  ) 
!S21(C  2-Port  ) 
!S12(C  2-Port  ) 
!S22(C  2-Port  ) 
!S2P File: Measurements: S11, S21, S12, S22:
# Hz S  dB   R 50
10000000 -1.9843159 -53.13966 -52.42205 47.925507 -51.44865 43.899342 -0.33902591 179.97203
20000000 -3.2641165 -87.370262 -49.07119 29.938013 -48.744122 27.387781 -0.33371961 179.91151
30000000 -4.0482378 -109.63722 -47.96384 17.445265 -47.817986 13.77107 -0.33237135 179.86716
40000000 -4.4822769 -124.50275 -47.58107 8.6381111 -47.494141 5.1956835 -0.33262202 179.81761
50000000 -4.7263942 -135.19615 -47.159878 1.4536453 -47.223064 -1.4054681 -0.33095813 179.77271
60000000 -4.872622 -142.89745 -47.295914 -5.6588111 -47.370983 -7.3174677 -0.33134142 179.73019
70000000 -4.9546347 -148.52051 -47.404419 -10.835194 -47.419167 -11.95258 -0.33091596 179.6647
80000000 -5.0001364 -152.80658 -47.475723 -15.843797 -47.549187 -16.513348 -0.33106849 179.59523
90000000 -5.0366182 -156.09946 -47.61182 -20.318811 -47.801392 -21.073179 -0.33147329 179.54031
100000000 -5.0552921 -158.79021 -47.926117 -24.485292 -47.938133 -24.670918 -0.33056509 179.49113
110000000 -5.0650792 -161.05832 -48.194809 -27.891989 -48.224667 -28.664297 -0.33048826 179.43431
120000000 -5.0676165 -162.94438 -48.417175 -31.346193 -48.452209 -31.991631 -0.32972243 179.37993
130000000 -5.0586543 -164.62509 -48.702633 -34.094032 -48.772434 -35.130814 -0.32905611 179.32285
140000000 -5.0434327 -166.1329 -48.96788 -37.550793 -49.055508 -38.329987 -0.32801777 179.26363
150000000 -5.0241842 -167.42354 -49.268387 -40.951916 -49.34539 -41.223911 -0.32809874 179.21477
160000000 -4.9947863 -168.61507 -49.611786 -44.601681 -49.679939 -44.52536 -0.32944065 179.16687
170000000 -4.9831376 -169.74419 -50.18578 -45.63913 -50.34074 -46.201157 -0.32837343 179.11015
180000000 -4.9734678 -170.67847 -50.616737 -47.084667 -50.56871 -47.169182 -0.32959509 179.06721
190000000 -4.9526629 -171.47342 -50.790283 -48.968822 -50.957169 -49.626217 -0.32956967 179.01157
200000000 -4.9158878 -172.32268 -51.188522 -51.617668 -51.335251 -51.127899 -0.32894638 178.95689
210000000 -4.8918815 -173.0625 -51.498196 -52.78463 -51.592655 -52.570763 -0.32888246 178.89632
220000000 -4.8494725 -173.80389 -51.945129 -54.803127 -52.062084 -54.409271 -0.32769561 178.845
230000000 -4.8105369 -174.49715 -52.298374 -55.562378 -52.443829 -55.427544 -0.32802308 178.78307
240000000 -4.7706194 -175.16719 -52.754765 -57.036289 -52.851498 -57.342102 -0.32733887 178.7206
250000000 -4.7278781 -175.78621 -53.087837 -57.995766 -53.194389 -58.288692 -0.32781258 178.67319
260000000 -4.6910615 -176.40161 -53.649189 -60.299637 -53.55777 -59.011803 -0.32796139 178.63008
270000000 -4.6447692 -177.08298 -54.164845 -59.234673 -54.069134 -59.037056 -0.32836869 178.57794
280000000 -4.6106753 -177.6241 -54.300442 -59.034 -54.322945 -59.624794 -0.32921892 178.53467
290000000 -4.5625858 -178.19835 -54.473221 -60.671955 -54.574066 -59.960331 -0.32868952 178.48129
300000000 -4.5115271 -178.7921 -54.756985 -62.66433 -54.911068 -62.469921 -0.32872859 178.4234
310000000 -4.4561629 -179.3791 -55.419216 -64.310455 -55.396057 -63.274197 -0.32925633 178.37042
320000000 -4.412466 -179.96565 -56.122829 -64.48037 -56.037956 -65.53508 -0.32894528 178.31355
330000000 -4.3666606 179.41565 -56.760723 -63.502476 -56.974976 -62.894772 -0.32852617 178.26175
340000000 -4.3204556 178.89066 -57.366199 -58.982094 -57.428596 -59.673374 -0.32790861 178.20554
350000000 -4.2738266 178.32478 -57.479927 -57.87981 -57.413719 -58.08852 -0.32740113 178.14827
360000000 -4.2215295 177.74185 -57.455822 -56.543423 -57.498978 -56.526386 -0.32873809 178.09456
370000000 -4.1656551 177.11795 -57.692707 -56.710495 -57.663094 -56.668667 -0.33011538 178.05066
380000000 -4.1147943 176.53975 -57.919716 -56.233627 -57.898502 -56.124744 -0.33014807 177.99965
390000000 -4.0614481 175.91774 -58.141895 -56.74947 -58.315174 -55.459206 -0.33128053 177.94769
400000000 -4.0033035 175.24814 -58.53035 -55.921593 -58.371098 -54.39167 -0.33121738 177.89594
410000000 -3.9510512 174.62444 -58.74258 -54.720421 -58.89114 -54.90345 -0.33053884 177.84187
420000000 -3.8982894 173.98929 -59.118092 -53.778576 -59.014 -53.593178 -0.33117017 177.789
430000000 -3.844744 173.29948 -59.457138 -52.485317 -59.418724 -52.252419 -0.33048603 177.73096
440000000 -3.7909873 172.65367 -59.725216 -50.24102 -59.725285 -50.739494 -0.33122212 177.68127
450000000 -3.7383142 171.98465 -59.837685 -48.704704 -59.869328 -49.526726 -0.32898408 177.62793
460000000 -3.6867242 171.29102 -60.093845 -46.761803 -60.029308 -46.486195 -0.32966322 177.56914
470000000 -3.6316254 170.5883 -60.288109 -44.953915 -60.173012 -44.038425 -0.33080533 177.52071
480000000 -3.5846503 169.9147 -60.184078 -43.442795 -60.363773 -43.001728 -0.33051118 177.47949
490000000 -3.539454 169.21063 -60.48727 -41.383121 -60.345879 -40.912544 -0.3304905 177.42253
500000000 -3.4928918 168.46674 -60.519878 -38.64756 -60.345898 -39.054287 -0.33178204 177.36636
510000000 -3.4565344 167.78925 -60.489555 -37.301651 -60.344566 -36.115921 -0.33267763 177.31448
520000000 -3.4168236 167.09224 -60.709892 -35.515621 -60.386246 -35.886066 -0.33258513 177.25391
530000000 -3.3780982 166.36375 -60.430973 -33.24398 -60.778408 -34.606457 -0.33311781 177.20213
540000000 -3.3483548 165.62053 -60.455242 -31.752785 -60.611774 -30.919239 -0.33392957 177.15013
550000000 -3.3139091 164.90315 -60.237064 -28.40526 -60.413818 -31.05098 -0.33318603 177.10118
560000000 -3.2802327 164.16199 -60.39777 -28.335133 -60.278751 -29.904427 -0.33419123 177.05104
570000000 -3.2591264 163.41682 -60.147491 -23.930328 -60.400436 -24.924091 -0.33279139 176.99306
580000000 -3.2283988 162.69215 -60.108925 -24.217136 -60.055607 -24.190685 -0.33318517 176.93866
590000000 -3.2023351 161.97403 -59.916225 -23.286499 -60.004585 -23.071825 -0.33486223 176.89183
600000000 -3.1839747 161.27846 -59.896469 -21.790039 -59.81007 -24.058136 -0.33560017 176.8407
610000000 -3.1578858 160.53995 -59.778263 -19.742981 -59.756359 -19.726393 -0.33580658 176.78539
620000000 -3.1425493 159.83487 -59.48772 -17.602541 -59.415699 -17.346363 -0.33618078 176.73041
630000000 -3.1255593 159.12712 -59.298103 -15.614497 -59.068489 -14.667534 -0.33597243 176.67743
640000000 -3.1064444 158.38589 -58.650528 -14.654323 -58.803963 -14.230878 -0.33587509 176.62016
650000000 -3.0873487 157.689 -58.493649 -15.487135 -58.391869 -14.109229 -0.335985 176.56406
660000000 -3.0729537 156.95543 -58.156517 -13.275748 -58.238991 -12.907929 -0.33656034 176.51193
670000000 -3.0594995 156.2459 -57.833591 -13.116693 -57.938671 -12.629401 -0.3368468 176.46422
680000000 -3.0435538 155.53896 -57.73476 -11.82222 -57.587082 -12.592223 -0.33739454 176.41399
690000000 -3.0329876 154.85138 -57.45892 -11.231946 -57.509464 -12.150731 -0.33767545 176.36154
700000000 -3.0222638 154.19073 -57.118584 -10.606904 -57.091022 -10.364513 -0.33775407 176.31519
710000000 -3.0127232 153.50693 -56.736095 -9.7226057 -56.706699 -10.070121 -0.33845165 176.26088
720000000 -3.0072072 152.81929 -56.222111 -9.8736401 -56.299751 -9.6342821 -0.33807975 176.20404
730000000 -2.9984367 152.13806 -55.837833 -8.5215721 -55.751808 -8.0900021 -0.33904186 176.14941
740000000 -2.993964 151.46187 -55.276558 -8.677002 -55.113419 -9.3498726 -0.33893049 176.10068
750000000 -2.9882612 150.78888 -54.759163 -9.4727259 -54.768543 -9.9859524 -0.33919582 176.04703
760000000 -2.9845932 150.13725 -54.318829 -10.101706 -54.262978 -10.374844 -0.34007418 175.9946
770000000 -2.9853535 149.46008 -53.7938 -11.690566 -53.767078 -12.169878 -0.34010357 175.94417
780000000 -2.992449 148.86082 -53.307663 -13.612426 -53.300018 -13.752394 -0.34145117 175.89534
790000000 -2.9959431 148.30612 -52.883034 -15.730166 -52.827129 -15.909635 -0.34125179 175.8405
800000000 -2.99984 147.76282 -52.477715 -18.299095 -52.533871 -17.712784 -0.34209362 175.79608
810000000 -3.00424 147.22641 -52.087799 -21.068445 -52.121674 -20.748755 -0.34228939 175.74139
820000000 -2.9988921 146.7289 -52.020088 -24.226139 -51.922955 -24.442217 -0.34169537 175.68718
830000000 -2.9899733 146.149 -51.910355 -25.886162 -51.885868 -26.110788 -0.34249863 175.62881
840000000 -2.9870288 145.52719 -51.758377 -26.786957 -51.702663 -26.928276 -0.34228966 175.57744
850000000 -2.9998598 144.91998 -51.170586 -27.230293 -51.214832 -27.325848 -0.34263223 175.52071
860000000 -3.011389 144.41394 -50.652081 -29.443941 -50.655968 -30.304123 -0.34305719 175.47079
870000000 -3.0148122 143.99643 -50.199196 -33.610832 -50.2542 -33.839909 -0.34299612 175.42717
880000000 -3.0121765 143.54158 -49.885677 -37.41111 -49.834194 -36.851868 -0.34429416 175.37984
890000000 -3.0010772 143.1142 -49.569572 -41.444016 -49.561279 -41.247261 -0.34426248 175.33331
900000000 -2.9959409 142.69749 -49.281876 -46.608982 -49.29594 -46.379501 -0.34450573 175.28641
910000000 -2.9797153 142.31046 -49.223289 -52.368141 -49.199688 -52.011696 -0.34448022 175.23837
920000000 -2.9556711 141.89847 -49.220997 -58.120144 -49.223637 -57.913311 -0.34374526 175.1897
930000000 -2.915659 141.46556 -49.45388 -64.832069 -49.424713 -64.812584 -0.34421009 175.12938
940000000 -2.8682916 140.90414 -50.104019 -70.677032 -50.108063 -70.741882 -0.34445947 175.07469
950000000 -2.8264613 140.24289 -51.012062 -74.810791 -50.986137 -75.222412 -0.34480026 175.02179
960000000 -2.7893152 139.52673 -51.924522 -76.352005 -51.94112 -76.66256 -0.3449401 174.96794
970000000 -2.7639937 138.79187 -52.782272 -76.08564 -52.836483 -76.500862 -0.34450209 174.91806
980000000 -2.7508509 137.99651 -53.738892 -72.635536 -53.738873 -72.611656 -0.34435916 174.86971
990000000 -2.7522919 137.20625 -54.184849 -67.143478 -54.11964 -66.837646 -0.34448388 174.81738
1000000000 -2.7645421 136.48779 -53.924927 -61.356342 -53.909115 -61.312599 -0.34461361 174.76349
1010000000 -2.7871976 135.85419 -53.374226 -58.884735 -53.390675 -58.997597 -0.34410614 174.70706
1020000000 -2.8016059 135.29544 -52.913483 -59.516167 -52.781105 -59.281349 -0.34465566 174.64882
1030000000 -2.8087718 134.73654 -52.599037 -59.447918 -52.55645 -59.419601 -0.34549674 174.59146
1040000000 -2.8202753 134.19902 -52.189617 -59.90498 -52.203117 -60.352482 -0.34767798 174.53749
1050000000 -2.8279424 133.68875 -51.825485 -61.260536 -51.802635 -61.434349 -0.34919286 174.48564
1060000000 -2.8296709 133.20966 -51.622963 -62.014225 -51.685574 -62.80814 -0.34947172 174.43343
1070000000 -2.8348174 132.73505 -51.354107 -64.019691 -51.336597 -64.323402 -0.3497057 174.38268
1080000000 -2.8323355 132.25909 -51.295563 -65.507652 -51.26062 -65.446487 -0.34935951 174.33878
1090000000 -2.8399856 131.78534 -51.08791 -65.84259 -51.022526 -65.805725 -0.34926775 174.28578
1100000000 -2.8452182 131.35886 -50.636616 -67.546967 -50.610863 -67.716972 -0.35001379 174.22945
1110000000 -2.844243 130.95645 -50.266445 -70.81723 -50.272686 -70.516739 -0.3503564 174.17796
1120000000 -2.8347702 130.55862 -50.066841 -74.14212 -50.023945 -74.107407 -0.35094514 174.11952
1130000000 -2.820188 130.09485 -49.994289 -77.909546 -50.019699 -77.864922 -0.35191375 174.06952
1140000000 -2.8055201 129.6125 -50.102421 -80.669846 -50.084538 -80.500084 -0.35232896 174.01683
1150000000 -2.7950211 129.08324 -50.125443 -83.238144 -50.148956 -83.266396 -0.35166898 173.96941
1160000000 -2.7785938 128.5744 -50.279827 -85.139481 -50.309963 -85.127953 -0.3515991 173.91481
1170000000 -2.7637608 128.09195 -50.285347 -86.973633 -50.280972 -87.441177 -0.35243198 173.86659
1180000000 -2.7435768 127.53934 -50.490753 -89.80397 -50.52459 -89.702446 -0.35278657 173.81607
1190000000 -2.7338295 126.94729 -50.865261 -90.337044 -50.733898 -90.263496 -0.3532024 173.76781
1200000000 -2.7367136 126.42332 -50.746964 -90.688736 -50.703777 -90.502892 -0.35371068 173.71481
1210000000 -2.7269986 125.91656 -50.693771 -92.364891 -50.659542 -92.482224 -0.35417575 173.66245
1220000000 -2.7172167 125.39442 -50.782883 -94.458748 -50.765404 -94.241699 -0.35441083 173.60616
1230000000 -2.7087924 124.84998 -50.808704 -95.399147 -50.774868 -95.448517 -0.35501361 173.54613
1240000000 -2.6979156 124.32362 -50.849709 -97.268585 -50.841835 -97.231026 -0.35502428 173.49347
1250000000 -2.6844761 123.79375 -50.944313 -98.481476 -50.975933 -98.912239 -0.35525098 173.44176
1260000000 -2.6706233 123.24101 -51.046844 -98.787186 -51.079002 -99.219719 -0.35527822 173.39032
1270000000 -2.6620378 122.70683 -51.148911 -99.396179 -51.109127 -99.769493 -0.35521784 173.33742
1280000000 -2.6513751 122.14362 -51.22414 -100.75742 -51.224659 -100.55418 -0.35593453 173.28867
1290000000 -2.6495359 121.58294 -51.373173 -100.68698 -51.324543 -99.97261 -0.35624304 173.23781
1300000000 -2.6501012 121.06745 -51.247887 -100.47307 -51.193913 -100.01411 -0.35689807 173.18867
1310000000 -2.6475816 120.5545 -51.040642 -101.12095 -51.052906 -101.05735 -0.35733652 173.13878
1320000000 -2.6419351 120.04037 -50.955315 -102.20415 -50.884129 -102.28349 -0.35795686 173.08528
1330000000 -2.6370428 119.50388 -50.800816 -103.68893 -50.819016 -103.4712 -0.35821012 173.03084
1340000000 -2.6265235 118.98366 -50.755032 -105.26881 -50.725708 -105.46522 -0.35891578 172.97574
1350000000 -2.6143131 118.44973 -50.66095 -107.04971 -50.661556 -107.25853 -0.35978016 172.92221
1360000000 -2.6030793 117.87995 -50.766098 -108.03301 -50.769543 -108.90828 -0.36023518 172.8707
1370000000 -2.59728 117.32072 -50.837772 -108.40627 -50.799397 -108.95601 -0.36026642 172.81924
1380000000 -2.595819 116.76443 -50.792892 -109.75294 -50.739559 -109.63053 -0.36043236 172.77165
1390000000 -2.5947812 116.23151 -50.752434 -111.15542 -50.706421 -110.4665 -0.36091727 172.72185
1400000000 -2.592473 115.69484 -50.718006 -112.26276 -50.685459 -111.97186 -0.36122164 172.67059
1410000000 -2.5909042 115.14232 -50.708603 -113.50297 -50.694859 -113.30965 -0.36160144 172.61792
1420000000 -2.5891612 114.60454 -50.697227 -114.73785 -50.664539 -114.79485 -0.36270666 172.56511
1430000000 -2.5860202 114.03979 -50.722118 -115.93159 -50.696823 -116.26104 -0.36332524 172.51022
1440000000 -2.5835385 113.44839 -50.804688 -116.70087 -50.783928 -117.04984 -0.3640745 172.45378
1450000000 -2.5839834 112.87113 -50.92054 -117.22292 -50.930313 -117.16357 -0.36465752 172.40117
1460000000 -2.5860548 112.28476 -50.961338 -116.1497 -50.948601 -117.09522 -0.36502802 172.34639
1470000000 -2.5923884 111.74117 -50.772476 -115.5443 -50.826126 -116.25243 -0.36496019 172.2932
1480000000 -2.5910518 111.22883 -50.595531 -116.26184 -50.587017 -116.45202 -0.36468935 172.23923
1490000000 -2.5926182 110.69784 -50.4785 -117.62184 -50.478317 -117.245 -0.36491233 172.18994
1500000000 -2.5939076 110.16466 -50.342464 -118.65517 -50.309368 -118.21497 -0.36520317 172.13914
1510000000 -2.5903087 109.62595 -50.21122 -120.05785 -50.222973 -120.01484 -0.36597642 172.08762
1520000000 -2.5902781 109.06053 -50.166897 -121.22647 -50.174946 -121.05795 -0.36795977 172.03549
1530000000 -2.5929334 108.46753 -50.11256 -121.51015 -50.120014 -121.53513 -0.36872336 171.98279
1540000000 -2.5999999 107.94338 -49.937847 -121.97771 -49.890106 -121.90115 -0.37011427 171.93028
1550000000 -2.5946789 107.41171 -49.728958 -123.4675 -49.741703 -123.48592 -0.37047538 171.87866
1560000000 -2.5886817 106.84589 -49.600765 -124.42449 -49.627724 -125.28127 -0.37019092 171.82506
1570000000 -2.583981 106.27953 -49.472015 -125.72171 -49.477585 -126.39119 -0.36969906 171.77209
1580000000 -2.5803051 105.68584 -49.452446 -127.33287 -49.404526 -127.4983 -0.3699939 171.71349
1590000000 -2.5810444 105.06595 -49.40786 -128.92389 -49.398628 -128.55367 -0.37005478 171.66231
1600000000 -2.5888946 104.4779 -49.361099 -130.26961 -49.315922 -129.45763 -0.37056616 171.60486
1610000000 -2.5959151 103.89192 -49.238945 -131.24777 -49.237129 -131.01704 -0.37189588 171.55617
1620000000 -2.6011975 103.29747 -49.182537 -132.62167 -49.164665 -132.52545 -0.37256992 171.50369
1630000000 -2.6047158 102.70602 -49.131866 -133.9696 -49.07283 -133.72983 -0.37373379 171.4509
1640000000 -2.606734 102.08402 -49.048855 -135.28961 -48.989925 -135.26442 -0.37462625 171.39708
1650000000 -2.6070011 101.45857 -48.984749 -136.43307 -48.929405 -136.82957 -0.37500438 171.33994
1660000000 -2.6064053 100.77808 -48.931499 -137.26549 -48.940201 -137.8972 -0.375047 171.28557
1670000000 -2.6115417 100.09621 -48.905388 -137.97638 -48.88517 -138.6346 -0.37492847 171.22858
1680000000 -2.6196797 99.397263 -48.817127 -139.32181 -48.840096 -139.40889 -0.37549573 171.17155
1690000000 -2.6254511 98.677711 -48.811787 -141.07454 -48.793686 -140.59628 -0.37582341 171.12035
1700000000 -2.6395571 97.922562 -48.855042 -142.38225 -48.814053 -141.6725 -0.37649974 171.06787
1710000000 -2.6582661 97.16449 -48.870255 -142.98114 -48.861515 -142.91568 -0.37781408 171.0206
1720000000 -2.6803591 96.37928 -48.849831 -143.71581 -48.811584 -143.58997 -0.37896439 170.96823
1730000000 -2.7047098 95.582054 -48.808384 -143.96217 -48.745472 -144.01236 -0.38008335 170.91629
1740000000 -2.7347915 94.75573 -48.671616 -144.46971 -48.697479 -144.46193 -0.38115233 170.86122
1750000000 -2.7664266 93.932243 -48.571686 -144.69562 -48.550041 -144.7861 -0.38190103 170.80814
1760000000 -2.7993898 93.108719 -48.372417 -144.72778 -48.365349 -145.60023 -0.38281521 170.75165
1770000000 -2.8389661 92.206764 -48.254467 -145.10231 -48.2537 -146.06367 -0.38360009 170.69293
1780000000 -2.8901639 91.272636 -48.055225 -145.98557 -48.057999 -146.30424 -0.3834047 170.63666
1790000000 -2.9484136 90.343765 -47.928024 -146.95642 -47.909401 -146.75842 -0.38355938 170.58617
1800000000 -3.0113313 89.440895 -47.68409 -148.30815 -47.645771 -147.84805 -0.38454264 170.53532
1810000000 -3.0785329 88.491959 -47.471882 -149.81029 -47.43248 -149.54271 -0.38558668 170.48486
1820000000 -3.159097 87.48275 -47.276031 -151.27185 -47.248962 -151.43999 -0.38715845 170.43845
1830000000 -3.2595088 86.423187 -47.102203 -152.84663 -47.067368 -153.09561 -0.38839248 170.38425
1840000000 -3.3796203 85.357361 -46.886932 -154.3376 -46.877228 -154.70169 -0.38933691 170.3307
1850000000 -3.5099771 84.307739 -46.714279 -155.89503 -46.669853 -156.46841 -0.3903484 170.27647
1860000000 -3.6677072 83.258713 -46.56081 -157.25864 -46.487789 -158.47559 -0.39166495 170.21933
1870000000 -3.8540523 82.278931 -46.397575 -158.67314 -46.348907 -160.17224 -0.39265543 170.1633
1880000000 -4.0650105 81.396446 -46.274105 -160.48032 -46.236256 -161.97475 -0.39216214 170.10657
1890000000 -4.2792716 80.641037 -46.135941 -162.70757 -46.105839 -163.78174 -0.3931689 170.0513
1900000000 -4.5381818 80.009476 -46.007668 -165.16296 -46.008183 -166.39107 -0.3936674 170.00386
1910000000 -4.8262992 79.622482 -45.921394 -167.6981 -45.924625 -169.29652 -0.39485908 169.95694
1920000000 -5.1616077 79.596062 -45.846909 -170.36638 -45.86618 -172.5334 -0.39622492 169.91129
1930000000 -5.4990234 79.93116 -45.849037 -172.80913 -45.903011 -175.25783 -0.39720026 169.86424
1940000000 -5.8275185 80.693558 -45.850761 -175.25873 -45.989342 -177.97757 -0.39883158 169.81537
1950000000 -6.1076884 81.724525 -45.922817 -177.39828 -46.156269 179.86948 -0.40043452 169.76375
1960000000 -6.3504157 83.087234 -46.03775 -179.08922 -46.352951 178.41389 -0.40207472 169.71408
1970000000 -6.5705857 84.869408 -46.224987 -179.97809 -46.486965 178.08467 -0.40254441 169.66228
1980000000 -6.7648811 87.193268 -46.41531 179.40633 -46.483086 178.63799 -0.40328544 169.60834
1990000000 -6.9104223 89.657097 -46.463326 178.80418 -46.25235 178.80716 -0.40394932 169.55772
2000000000 -6.9938598 92.292221 -46.298748 178.29602 -45.856728 177.229 -0.40462238 169.51344
2010000000 -7.0106888 94.633316 -46.000492 177.34915 -45.432098 173.6351 -0.40564427 169.47102
2020000000 -6.9536772 97.157547 -45.531326 175.19788 -45.097198 169.29373 -0.40554079 169.42741
