!Keysight Technologies,N5222B,MY61257109,A.17.25.03
!Date: Wednesday, July 22, 2026 17:30:31
!Correction: S11(C  2-Port  ) 
!S21(C  2-Port  ) 
!S12(C  2-Port  ) 
!S22(C  2-Port  ) 
!S2P File: Measurements: S11, S21, S12, S22:
# Hz S  dB   R 50
10000000 -1.9741555 -53.097263 -51.624619 54.409184 -51.143864 53.968834 -0.34831461 179.87009
20000000 -3.2550318 -87.407028 -48.496647 43.926926 -47.982437 42.473759 -0.33584014 179.92163
30000000 -4.0443287 -109.68152 -47.119812 37.933441 -46.772102 36.616913 -0.33513179 179.86714
40000000 -4.484489 -124.57067 -46.376057 35.333523 -46.129204 34.106266 -0.33608317 179.80804
50000000 -4.7291393 -135.11617 -45.64402 34.560623 -45.491726 33.559532 -0.3345077 179.76605
60000000 -4.8713536 -142.84943 -45.1464 33.710514 -45.089436 33.628265 -0.33062962 179.75728
70000000 -4.954401 -148.49152 -44.620358 34.53672 -44.556087 34.176819 -0.33042404 179.67546
80000000 -4.9985638 -152.80006 -44.166092 34.263084 -44.070927 34.211544 -0.33200082 179.5878
90000000 -5.0349479 -156.11217 -43.683792 34.558514 -43.594032 34.384911 -0.3346349 179.53996
100000000 -5.0534582 -158.80855 -43.248211 34.868271 -43.117851 34.457069 -0.33587229 179.48767
110000000 -5.0631266 -161.07927 -42.793304 34.666527 -42.674164 34.234947 -0.3352797 179.43657
120000000 -5.0657272 -162.96889 -42.36813 34.337055 -42.254555 33.988605 -0.33422923 179.38817
130000000 -5.0614576 -164.63379 -41.907963 34.453316 -41.836372 33.885399 -0.33387086 179.33076
140000000 -5.0418935 -166.13885 -41.500019 33.321594 -41.405724 32.964802 -0.33372131 179.27423
150000000 -5.0229287 -167.43835 -41.107616 32.436817 -41.039871 32.063126 -0.33398435 179.22153
160000000 -4.9952021 -168.63924 -40.7967 31.590384 -40.712696 31.070709 -0.3333663 179.17345
170000000 -4.9878731 -169.75632 -40.433556 31.069811 -40.394348 30.624104 -0.33342946 179.12291
180000000 -4.9769053 -170.66692 -40.09639 29.893314 -39.999432 29.393532 -0.33510298 179.07727
190000000 -4.9561434 -171.45828 -39.720978 28.481821 -39.673595 28.058868 -0.33565918 179.02655
200000000 -4.9186931 -172.30801 -39.448212 27.094822 -39.383869 26.52877 -0.33583173 178.96902
210000000 -4.8931675 -173.04172 -39.18325 25.456373 -39.130077 24.939276 -0.33492124 178.91049
220000000 -4.8500271 -173.78699 -38.93071 23.860226 -38.900887 23.417089 -0.33481443 178.85814
230000000 -4.8109832 -174.47115 -38.698715 22.313675 -38.670845 21.619081 -0.33315918 178.79289
240000000 -4.7684698 -175.15324 -38.499283 20.342125 -38.482998 19.887112 -0.33294761 178.74178
250000000 -4.7260923 -175.76488 -38.368462 18.703411 -38.3419 18.06361 -0.33406487 178.68745
260000000 -4.6891527 -176.38129 -38.235905 16.931707 -38.210262 16.435322 -0.33194801 178.65477
270000000 -4.6397867 -177.05283 -38.122631 15.279057 -38.07283 14.803277 -0.33431283 178.60762
280000000 -4.6041484 -177.60696 -37.972645 13.487127 -37.94841 12.879695 -0.33502442 178.56461
290000000 -4.5552387 -178.20496 -37.864483 11.427454 -37.858501 10.900901 -0.33570394 178.51521
300000000 -4.5071487 -178.815 -37.855297 9.424324 -37.835228 8.980382 -0.33626804 178.46272
310000000 -4.4558311 -179.40364 -37.860085 7.492568 -37.855206 7.1364579 -0.33587343 178.40324
320000000 -4.4143524 -179.96674 -37.872826 6.1118698 -37.863518 5.7161121 -0.33687869 178.34991
330000000 -4.3687067 179.43428 -37.874741 4.8957152 -37.855698 4.5925307 -0.33594361 178.29453
340000000 -4.3173118 178.94244 -37.811138 3.6645973 -37.828369 3.2932024 -0.33438218 178.2468
350000000 -4.2679343 178.35405 -37.773701 1.7674664 -37.785698 1.3734876 -0.33572769 178.18755
360000000 -4.2140989 177.74713 -37.782539 0.043183263 -37.797314 -0.36406615 -0.33430779 178.13164
370000000 -4.1591129 177.11841 -37.860001 -1.78054 -37.874176 -2.1721568 -0.33371878 178.08629
380000000 -4.1086855 176.53517 -37.937347 -3.4354777 -37.957741 -3.7561216 -0.33196282 178.03436
390000000 -4.0562172 175.90678 -38.058723 -4.9574642 -38.058125 -5.1991959 -0.33287719 177.98488
400000000 -3.9981606 175.2424 -38.192352 -6.2936325 -38.186768 -6.5539365 -0.33278355 177.93428
410000000 -3.946712 174.62093 -38.30714 -7.52069 -38.322369 -7.7337813 -0.33165964 177.87546
420000000 -3.8928096 173.99066 -38.424179 -8.5084362 -38.437576 -8.6860495 -0.33090562 177.82578
430000000 -3.8385816 173.29489 -38.550964 -9.4764557 -38.551479 -9.7247744 -0.33011454 177.76846
440000000 -3.785742 172.64917 -38.672531 -10.524331 -38.69096 -10.740117 -0.32906422 177.72005
450000000 -3.7330401 171.98392 -38.820251 -11.376422 -38.82275 -11.713172 -0.32772326 177.67358
460000000 -3.6800804 171.28354 -38.972851 -12.185408 -38.971752 -12.458254 -0.3286733 177.60902
470000000 -3.6253426 170.58954 -39.122696 -12.88924 -39.125008 -13.118195 -0.33059442 177.56073
480000000 -3.5789781 169.91245 -39.289543 -13.65838 -39.285465 -13.925304 -0.33052376 177.51881
490000000 -3.5334618 169.20633 -39.444374 -14.244275 -39.449364 -14.431777 -0.33052683 177.45998
500000000 -3.4868572 168.4588 -39.623112 -14.617266 -39.605362 -14.847918 -0.33170268 177.40384
510000000 -3.4514308 167.78679 -39.769489 -15.063851 -39.77977 -15.252995 -0.3289704 177.34853
520000000 -3.41187 167.08424 -39.922554 -15.455667 -39.935966 -15.550523 -0.32927841 177.28172
530000000 -3.3722742 166.3578 -40.110046 -15.650301 -40.10416 -15.85086 -0.32984167 177.23825
540000000 -3.3432972 165.61502 -40.289036 -15.736113 -40.292023 -15.954949 -0.32907119 177.17728
550000000 -3.3076546 164.89182 -40.451828 -15.549791 -40.43811 -15.919619 -0.32823384 177.13737
560000000 -3.2743151 164.15068 -40.579224 -15.619418 -40.584179 -15.780818 -0.32900754 177.09174
570000000 -3.2524486 163.41054 -40.762115 -15.32174 -40.738579 -15.435137 -0.32765597 177.02977
580000000 -3.2215643 162.68571 -40.858955 -15.226419 -40.843964 -15.310576 -0.32835615 176.97447
590000000 -3.1959143 161.97334 -41.019352 -14.972972 -41.007511 -15.115852 -0.33033213 176.91942
600000000 -3.1782253 161.27431 -41.158329 -14.791055 -41.148907 -14.709352 -0.33071035 176.8674
610000000 -3.1518505 160.53592 -41.248619 -14.166335 -41.265423 -14.262785 -0.33126041 176.80859
620000000 -3.1354926 159.83598 -41.367458 -13.724577 -41.380081 -13.84757 -0.33102378 176.74602
630000000 -3.1176178 159.13777 -41.446114 -13.148178 -41.43858 -13.262562 -0.33089221 176.69939
640000000 -3.0984752 158.39716 -41.524132 -12.704878 -41.500053 -12.683405 -0.33242753 176.64128
650000000 -3.078819 157.69693 -41.569271 -12.306423 -41.56926 -12.400896 -0.33076817 176.59105
660000000 -3.0636113 156.95671 -41.648811 -11.874867 -41.64233 -11.957606 -0.33205783 176.53749
670000000 -3.0499084 156.24846 -41.718105 -11.179101 -41.706726 -11.497231 -0.33106148 176.4807
680000000 -3.0350597 155.5486 -41.768898 -10.626346 -41.776569 -10.724435 -0.3303732 176.43959
690000000 -3.0235724 154.86945 -41.824154 -9.8622169 -41.811108 -9.9720383 -0.33197847 176.38177
700000000 -3.0134902 154.21217 -41.849873 -9.2520447 -41.848927 -9.1186867 -0.3319723 176.3308
710000000 -3.0027022 153.53143 -41.852901 -8.4246969 -41.857193 -8.5688229 -0.33246329 176.27879
720000000 -2.9967506 152.8461 -41.84576 -7.7285018 -41.818584 -7.9105802 -0.33380654 176.22269
730000000 -2.9874825 152.16656 -41.82029 -7.1177516 -41.812664 -7.1013331 -0.33390355 176.16736
740000000 -2.9820073 151.49982 -41.731781 -6.5962229 -41.749928 -6.6130261 -0.33663809 176.1203
750000000 -2.9754126 150.82266 -41.661747 -6.0844173 -41.667625 -6.2324958 -0.33709437 176.05547
760000000 -2.9706204 150.17148 -41.579655 -5.8188086 -41.591118 -5.8517842 -0.33591062 176.00677
770000000 -2.9698942 149.49466 -41.490059 -5.5560827 -41.503269 -5.7860241 -0.33641294 175.94557
780000000 -2.9768016 148.90503 -41.43721 -5.5751891 -41.404354 -5.7116237 -0.33432654 175.91023
790000000 -2.9777453 148.3564 -41.349499 -5.7199469 -41.325947 -5.8611417 -0.3342368 175.86278
800000000 -2.9794753 147.81728 -41.309757 -6.2927246 -41.279812 -6.1126628 -0.33542007 175.81282
810000000 -2.9827156 147.27876 -41.23904 -6.7162275 -41.236996 -6.6843624 -0.33503363 175.75841
820000000 -2.9743979 146.77805 -41.25909 -7.18332 -41.250099 -7.2879519 -0.33672175 175.70032
830000000 -2.964895 146.20369 -41.276257 -7.1560183 -41.269943 -7.1898165 -0.33791998 175.64165
840000000 -2.9594932 145.57288 -41.249634 -6.937963 -41.244129 -6.9576707 -0.33822611 175.59354
850000000 -2.970011 144.96828 -41.122692 -6.9113989 -41.108006 -6.9919357 -0.34071475 175.53474
860000000 -2.9775002 144.45714 -40.992085 -7.7113647 -40.989311 -7.8439898 -0.33847097 175.48067
870000000 -2.9780846 144.02238 -40.928268 -8.7039986 -40.946808 -8.9018831 -0.33925936 175.43361
880000000 -2.9718535 143.563 -40.911961 -9.7942924 -40.917416 -10.012905 -0.33869147 175.38847
890000000 -2.9582791 143.12537 -40.945618 -11.082291 -40.932159 -11.141016 -0.33767739 175.34909
900000000 -2.9466512 142.67769 -41.056297 -12.666561 -41.03294 -12.687977 -0.33793342 175.30438
910000000 -2.9284945 142.23355 -41.249344 -13.950143 -41.218754 -14.08315 -0.33738363 175.25047
920000000 -2.9057019 141.78372 -41.480785 -15.166405 -41.469254 -15.337021 -0.33756408 175.20018
930000000 -2.867094 141.30151 -41.867199 -15.921134 -41.839523 -16.077662 -0.33883783 175.13895
940000000 -2.8255045 140.70381 -42.282249 -15.37468 -42.27636 -15.468547 -0.33789873 175.08655
950000000 -2.7919345 140.03432 -42.62529 -13.881372 -42.633308 -13.873224 -0.34042329 175.03906
960000000 -2.7594492 139.3253 -42.819283 -11.428323 -42.830814 -11.401544 -0.34033063 174.97737
970000000 -2.7375753 138.60539 -42.869732 -9.2921228 -42.879417 -9.2683353 -0.33940628 174.92632
980000000 -2.7266774 137.82716 -42.80814 -6.8092356 -42.809441 -6.8107195 -0.33957198 174.8786
990000000 -2.7298722 137.05847 -42.615959 -5.132966 -42.586327 -5.2136207 -0.33789873 174.82698
1000000000 -2.7418506 136.36116 -42.358482 -4.4500203 -42.356903 -4.6415143 -0.33695394 174.77832
1010000000 -2.7629313 135.74034 -42.164352 -4.5051088 -42.148762 -4.5839033 -0.33624232 174.72237
1020000000 -2.7751367 135.1897 -42.077023 -5.0758238 -42.069443 -5.2388792 -0.33656567 174.65921
1030000000 -2.7799993 134.62602 -42.031868 -5.0762558 -42.01403 -5.3003511 -0.33830139 174.60042
1040000000 -2.7906005 134.08487 -41.978764 -5.5055819 -41.948444 -5.431592 -0.34037682 174.54834
1050000000 -2.7971945 133.56541 -41.912727 -5.756568 -41.894833 -5.8445592 -0.34200624 174.50117
1060000000 -2.7991405 133.09209 -41.886486 -6.1472497 -41.893543 -6.380022 -0.34311992 174.4516
1070000000 -2.8028367 132.6174 -41.898075 -6.3812718 -41.896965 -6.4648299 -0.34366679 174.40164
1080000000 -2.7990186 132.13823 -41.913937 -6.4351988 -41.89278 -6.4670143 -0.34385902 174.35432
1090000000 -2.8041952 131.66328 -41.854324 -6.4532652 -41.820503 -6.5205522 -0.34280282 174.30269
1100000000 -2.8067648 131.2198 -41.820847 -7.1319838 -41.796635 -7.1929464 -0.34215495 174.24455
1110000000 -2.8032632 130.79556 -41.869339 -7.9760184 -41.837433 -8.0893812 -0.34133327 174.19107
1120000000 -2.7938571 130.36795 -41.914982 -8.5852051 -41.91497 -8.7306547 -0.34204713 174.133
1130000000 -2.7814498 129.88219 -42.064224 -8.9401779 -42.053631 -9.0351715 -0.34232384 174.08104
1140000000 -2.7687659 129.39124 -42.210361 -9.0110407 -42.198997 -9.0828524 -0.34323144 174.02498
1150000000 -2.759268 128.85622 -42.303474 -8.8880796 -42.311001 -8.8172979 -0.34354043 173.97693
1160000000 -2.7438357 128.33965 -42.394772 -8.2294683 -42.375172 -8.2917452 -0.34420112 173.92642
1170000000 -2.7297039 127.84641 -42.467697 -8.0382271 -42.445728 -8.070715 -0.34575236 173.88087
1180000000 -2.7125537 127.28773 -42.569271 -7.403183 -42.544849 -7.4436316 -0.34580562 173.83221
1190000000 -2.70556 126.70658 -42.554344 -6.367209 -42.527252 -6.61237 -0.34632537 173.78148
1200000000 -2.707691 126.19042 -42.512836 -6.367949 -42.494957 -6.526206 -0.34585777 173.72974
1210000000 -2.697506 125.6797 -42.569859 -6.4382839 -42.553387 -6.5038204 -0.3450298 173.67622
1220000000 -2.6876366 125.15224 -42.618198 -5.9601483 -42.604912 -6.0543909 -0.34446454 173.6156
1230000000 -2.6796916 124.60001 -42.65358 -5.5377145 -42.624714 -5.604826 -0.34478036 173.55328
1240000000 -2.6699636 124.06863 -42.671131 -5.2230611 -42.659958 -5.2109504 -0.34453514 173.49623
1250000000 -2.657552 123.54094 -42.674763 -4.5622602 -42.649696 -4.6644235 -0.34550121 173.44339
1260000000 -2.6439452 122.98989 -42.616268 -4.1503282 -42.606403 -4.1151314 -0.34647113 173.39879
1270000000 -2.6361659 122.45595 -42.611561 -3.8712649 -42.600613 -3.9445214 -0.34796599 173.35406
1280000000 -2.6268315 121.89186 -42.591076 -3.3976364 -42.574337 -3.5340891 -0.34910086 173.30923
1290000000 -2.625154 121.34506 -42.51857 -3.0290661 -42.495968 -3.1506264 -0.34908906 173.25894
1300000000 -2.6237226 120.82918 -42.467464 -3.2187567 -42.440693 -3.3880658 -0.34890559 173.20361
1310000000 -2.6207719 120.30451 -42.457767 -3.3998199 -42.435059 -3.4833322 -0.34754589 173.15144
1320000000 -2.614403 119.78632 -42.45755 -3.6414483 -42.435249 -3.7145185 -0.34669682 173.09395
1330000000 -2.6095021 119.24146 -42.479103 -3.5896332 -42.456062 -3.6966782 -0.34642208 173.03664
1340000000 -2.5984166 118.7095 -42.509335 -3.4901135 -42.498375 -3.6265926 -0.34722173 172.97749
1350000000 -2.5879254 118.16639 -42.554764 -3.3622215 -42.531109 -3.4448209 -0.34890559 172.927
1360000000 -2.57847 117.59851 -42.557453 -3.0175078 -42.53223 -3.0980628 -0.35028595 172.88181
1370000000 -2.5733187 117.04237 -42.542091 -2.8235538 -42.505356 -3.0049267 -0.3514756 172.83638
1380000000 -2.5723684 116.48984 -42.535069 -2.8643482 -42.524235 -2.8562877 -0.35175517 172.79205
1390000000 -2.572329 115.9588 -42.540371 -2.6581016 -42.517315 -2.7787495 -0.35178661 172.74036
1400000000 -2.5695245 115.42292 -42.562737 -2.51388 -42.537949 -2.6115561 -0.35071781 172.68762
1410000000 -2.5674944 114.86406 -42.562401 -2.3596404 -42.547321 -2.3673327 -0.34939346 172.63063
1420000000 -2.5668015 114.32107 -42.538292 -2.0518291 -42.534328 -2.2212822 -0.34890223 172.57253
1430000000 -2.5648317 113.75422 -42.585434 -1.8700614 -42.554657 -1.9593031 -0.34949753 172.51683
1440000000 -2.562942 113.16776 -42.555573 -1.5954634 -42.520466 -1.6264429 -0.35030729 172.45885
1450000000 -2.5637791 112.59909 -42.48597 -1.2086791 -42.484509 -1.282676 -0.35205412 172.40907
1460000000 -2.5647175 112.02292 -42.423679 -1.1836001 -42.395435 -1.2091202 -0.35301399 172.35744
1470000000 -2.56935 111.4777 -42.379375 -1.4868044 -42.352287 -1.5720023 -0.3532024 172.30734
1480000000 -2.5668049 110.95828 -42.36097 -1.7813615 -42.353882 -1.890473 -0.35362783 172.25821
1490000000 -2.568784 110.4213 -42.365562 -1.9902858 -42.348942 -2.0953956 -0.3535023 172.20792
1500000000 -2.5692158 109.88129 -42.381332 -2.185971 -42.362793 -2.257215 -0.35259172 172.1537
1510000000 -2.566889 109.3332 -42.403011 -2.3606293 -42.384918 -2.408016 -0.35224247 172.09863
1520000000 -2.5676682 108.77088 -42.427563 -2.3837259 -42.407043 -2.4941299 -0.35272002 172.04431
1530000000 -2.5702045 108.18584 -42.418255 -2.4765909 -42.383488 -2.6191761 -0.35413727 171.99028
1540000000 -2.5754535 107.65858 -42.420429 -2.8899791 -42.410252 -3.0639498 -0.35534903 171.93823
1550000000 -2.5698042 107.11746 -42.513756 -3.0850558 -42.488533 -3.2947636 -0.35626581 171.88589
1560000000 -2.5639048 106.54377 -42.559727 -3.0390971 -42.556072 -3.2327867 -0.35685396 171.83665
1570000000 -2.5603797 105.96577 -42.61816 -3.1075859 -42.620403 -3.272717 -0.35603708 171.78471
1580000000 -2.558434 105.37205 -42.672123 -2.9317555 -42.651413 -3.0380011 -0.35639226 171.73154
1590000000 -2.5598037 104.7551 -42.700371 -2.8068092 -42.686672 -2.9410198 -0.35633689 171.67764
1600000000 -2.5674345 104.16996 -42.732548 -2.9761567 -42.70652 -3.0190334 -0.35583141 171.62299
1610000000 -2.5747983 103.57475 -42.763813 -2.94858 -42.738857 -3.0724473 -0.35604775 171.57112
1620000000 -2.5808969 102.98196 -42.803795 -3.0506556 -42.790726 -3.1112316 -0.35630429 171.51614
1630000000 -2.5850625 102.39381 -42.855576 -3.0062003 -42.843742 -3.2248979 -0.35710099 171.46245
1640000000 -2.586971 101.77206 -42.91917 -3.0170519 -42.882847 -3.2121818 -0.35801533 171.40825
1650000000 -2.5864034 101.14812 -42.971268 -3.1315284 -42.950626 -3.2117453 -0.35844797 171.3521
1660000000 -2.5857403 100.4735 -43.041656 -2.9400275 -43.002853 -3.1197565 -0.35828069 171.29601
1670000000 -2.5914776 99.781448 -43.083263 -2.9873488 -43.048103 -3.0822744 -0.35860118 171.24541
1680000000 -2.6004207 99.085297 -43.146034 -3.1198981 -43.111378 -3.1747143 -0.35962522 171.19061
1690000000 -2.6073754 98.365746 -43.217583 -3.0862014 -43.18758 -3.0604172 -0.35947984 171.13908
1700000000 -2.6213248 97.620544 -43.252422 -3.1438658 -43.241161 -3.2371554 -0.35987607 171.09003
1710000000 -2.6390386 96.865303 -43.294628 -3.3381698 -43.301289 -3.3934569 -0.36077467 171.04001
1720000000 -2.6602809 96.083839 -43.367645 -3.5382047 -43.352066 -3.6022828 -0.36109337 170.98415
1730000000 -2.6839814 95.278488 -43.424061 -3.9782131 -43.422665 -4.0802956 -0.3610132 170.93323
1740000000 -2.713845 94.453697 -43.529434 -4.5696788 -43.522915 -4.6450033 -0.36180511 170.87784
1750000000 -2.7434793 93.636162 -43.690975 -5.0194983 -43.676899 -5.2574196 -0.36235687 170.82269
1760000000 -2.7764287 92.806396 -43.891846 -5.7218809 -43.86985 -5.7520623 -0.36306068 170.76729
1770000000 -2.8167295 91.897453 -44.098484 -6.1172934 -44.067673 -6.3356166 -0.36445877 170.71309
1780000000 -2.8680985 90.967018 -44.384544 -6.6483464 -44.330219 -6.7526312 -0.36433038 170.65843
1790000000 -2.9260087 90.038368 -44.680439 -7.3315082 -44.663815 -7.3781524 -0.36456996 170.60608
1800000000 -2.9850924 89.141998 -45.020897 -8.0486565 -45.052231 -8.1733046 -0.36475211 170.5573
1810000000 -3.0517941 88.174904 -45.433643 -8.448143 -45.527615 -8.500412 -0.36491317 170.5072
1820000000 -3.1321857 87.153709 -45.96067 -8.4357004 -46.016762 -8.6115475 -0.36615694 170.46034
1830000000 -3.2327454 86.088814 -46.530491 -8.5156384 -46.601757 -8.6493444 -0.36641043 170.41055
1840000000 -3.3521359 85.018272 -47.225815 -8.0681238 -47.388283 -8.2894068 -0.36714756 170.35924
1850000000 -3.4797902 83.978546 -48.081799 -7.0663171 -48.331059 -7.1469493 -0.36795187 170.30365
1860000000 -3.6393661 82.919701 -49.191338 -4.7214198 -49.516605 -4.6015568 -0.36936393 170.24283
1870000000 -3.82653 81.929283 -50.453857 -0.43585971 -50.843956 -0.001520535 -0.36979461 170.18535
1880000000 -4.0373383 81.026741 -51.775646 6.6131525 -52.499657 9.9010935 -0.36949161 170.13086
1890000000 -4.2558527 80.256645 -53.009525 16.817526 -53.914127 28.366898 -0.36993751 170.07507
1900000000 -4.5055032 79.62191 -53.952263 31.549713 -53.728863 53.52927 -0.36991468 170.02634
1910000000 -4.7989893 79.228348 -53.63623 53.299763 -51.708832 72.956093 -0.37121066 169.98407
1920000000 -5.1362085 79.182152 -51.765774 71.041061 -49.331062 82.583473 -0.37275013 169.94075
1930000000 -5.4766593 79.511703 -49.419685 80.917679 -47.017426 86.311874 -0.37424785 169.89871
1940000000 -5.80725 80.276215 -47.252995 84.938774 -45.013454 86.696953 -0.37536955 169.85081
1950000000 -6.0852265 81.311653 -45.446384 85.995476 -43.3419 85.081863 -0.37606078 169.79671
1960000000 -6.3280916 82.727402 -43.894714 84.790253 -41.942848 82.283333 -0.37717593 169.74065
1970000000 -6.5461774 84.566833 -42.466652 82.460434 -40.836464 78.91172 -0.37666351 169.6893
1980000000 -6.7371349 86.889053 -41.138054 79.129005 -39.856045 74.872528 -0.37676203 169.63724
1990000000 -6.8761091 89.313347 -40.0564 75.283661 -39.039356 70.564186 -0.37714911 169.58824
2000000000 -6.9596963 91.795784 -39.151497 71.159531 -38.359306 66.21241 -0.37813854 169.54204
2010000000 -6.9781671 94.152824 -38.470676 67.192032 -37.877872 62.564514 -0.37921664 169.49696
2020000000 -6.9272099 96.624939 -37.915932 63.074886 -37.500538 58.921646 -0.37984803 169.45314
2030000000 -6.803246 99.025467 -37.473751 59.086704 -37.18782 55.523102 -0.38059732 169.40622
