!Keysight Technologies,N5222B,MY61257109,A.17.25.03
!Date: Tuesday, July 21, 2026 12:19:00
!Correction: S11(C  2-Port  ) 
!S21(C  2-Port  ) 
!S12(C  2-Port  ) 
!S22(C  2-Port  ) 
!S2P File: Measurements: S11, S21, S12, S22:
# Hz S  dB   R 50
10000000 -0.39527696 -179.48335 -54.937538 13.818298 -55.394321 12.441456 -2.1797402 -46.7873
20000000 -0.33812538 -179.80531 -37.884659 26.323753 -37.9403 26.507961 -3.3744254 -109.17241
30000000 -0.34235325 -179.98665 -38.304283 24.313869 -38.28603 24.42832 -3.269114 -123.79868
40000000 -0.3433491 179.89828 -35.18745 13.546601 -35.155903 13.634373 -3.2029855 -145.85443
50000000 -0.33539772 179.80719 -30.388706 -25.105103 -30.387373 -25.546179 -5.2403526 173.6012
60000000 -0.33826023 179.70865 -36.529301 -65.060379 -36.509342 -65.227814 -9.3366938 -148.42773
70000000 -0.33716848 179.70322 -40.438152 -59.646683 -40.446106 -59.910446 -7.0758586 -148.63995
80000000 -0.33171359 179.64265 -42.360977 -54.833675 -42.338379 -55.091438 -6.3612633 -152.02068
90000000 -0.33666998 179.65584 -43.897602 -48.719707 -43.883457 -49.441303 -5.9175348 -154.96515
100000000 -0.33600625 179.63826 -44.556862 -42.822975 -44.634949 -42.605202 -5.6260505 -157.89685
110000000 -0.33658272 179.55374 -45.305443 -39.042778 -45.228874 -38.682457 -5.4595823 -160.24727
120000000 -0.33668342 179.52777 -44.484371 -33.959778 -44.705803 -32.527798 -5.277133 -163.12602
130000000 -0.3356922 179.46313 -41.848595 -32.510899 -41.635666 -35.25938 -5.3007836 -168.58385
140000000 -0.33711925 179.3795 -44.902954 -49.066429 -44.895531 -49.50106 -5.5563388 -166.53078
150000000 -0.33627868 179.34387 -45.997086 -46.782475 -46.06131 -47.318054 -5.444828 -167.32005
160000000 -0.33484295 179.30283 -46.813396 -46.471478 -46.85762 -46.853863 -5.3723559 -168.37123
170000000 -0.33712459 179.23489 -47.839653 -46.185162 -47.843952 -45.909718 -5.3452096 -169.31511
180000000 -0.34016544 179.21152 -48.625587 -43.514652 -48.641319 -42.900154 -5.3240218 -170.0663
190000000 -0.34140217 179.18225 -49.662209 -41.44416 -49.613762 -40.37719 -5.2800608 -170.56068
200000000 -0.33221486 179.14552 -50.437172 -35.838127 -50.549232 -34.769814 -5.2086296 -171.09776
210000000 -0.33826053 179.082 -51.74733 -30.71578 -51.229298 -30.346376 -5.1455307 -171.68413
220000000 -0.33420828 179.03743 -52.337803 -22.489258 -52.39006 -23.778173 -5.1003408 -172.13908
230000000 -0.33562815 178.98923 -50.345116 -13.865343 -50.552837 -13.799786 -4.9671144 -173.15511
240000000 -0.33565387 178.93275 -51.166523 -29.480078 -51.351284 -28.143427 -5.0493774 -174.02426
250000000 -0.33683196 178.88745 -54.493206 -14.541137 -54.2444 -12.826695 -4.9996157 -173.97134
260000000 -0.34718722 178.84982 -54.109882 12.927442 -54.143986 12.411921 -4.9121675 -173.98831
270000000 -0.34560466 178.79495 -48.662376 16.513762 -48.703403 17.710043 -4.6621943 -174.7491
280000000 -0.34283224 178.74463 -49.021381 -4.416532 -49.209457 -2.5869002 -4.6807232 -176.32907
290000000 -0.34184659 178.68391 -50.81913 -16.721859 -50.653214 -15.996233 -4.7455816 -177.0311
300000000 -0.34353903 178.65683 -54.394688 -15.381634 -54.077648 -15.200945 -4.7632356 -177.16737
310000000 -0.3432261 178.60922 -56.15551 25.976814 -55.91991 22.315973 -4.6769705 -176.97855
320000000 -0.34545916 178.59125 -52.245251 41.631321 -52.760925 40.349445 -4.561635 -177.34526
330000000 -0.34674871 178.54042 -49.518337 43.209629 -49.603924 45.91729 -4.4519005 -177.72499
340000000 -0.34825122 178.51941 -45.575901 23.672178 -45.302219 23.935989 -4.1907921 -179.47179
350000000 -0.34685215 178.43324 -47.643314 7.4624701 -47.628941 6.5465736 -4.3575339 179.33917
360000000 -0.34461781 178.375 -49.207344 3.1900949 -49.198814 3.5983686 -4.4068165 179.01921
370000000 -0.34278768 178.30612 -52.091774 6.2970848 -51.807312 6.1783442 -4.4381084 178.86143
380000000 -0.34352586 178.25562 -52.899036 24.709389 -53.100449 24.278189 -4.4109368 178.98984
390000000 -0.34399489 178.21529 -51.898289 46.534019 -51.965282 48.412548 -4.343101 179.27367
400000000 -0.34440148 178.19522 -48.702431 52.081417 -48.156998 53.233452 -4.1505036 179.23192
410000000 -0.34430003 178.15031 -46.516411 44.925125 -46.334641 41.955711 -3.9762862 178.23363
420000000 -0.34296361 178.11447 -45.521801 35.430634 -45.905106 32.347141 -3.8962729 177.15399
430000000 -0.34251317 178.07118 -45.366673 24.667442 -45.799355 26.603367 -3.8398588 176.20154
440000000 -0.34274596 178.01967 -46.513378 18.093185 -46.552223 20.931711 -3.8362815 175.22797
450000000 -0.34317932 177.94217 -47.637417 21.321299 -47.33149 21.941292 -3.8420308 174.74982
460000000 -0.34283841 177.91048 -46.641182 26.349848 -46.634136 26.250626 -3.762886 174.42009
470000000 -0.34146237 177.86276 -46.823463 18.695765 -46.815121 18.418957 -3.7232001 173.34633
480000000 -0.34288293 177.80463 -47.482731 20.185568 -47.404171 20.6483 -3.706702 172.92128
490000000 -0.34147048 177.74921 -47.988144 20.202646 -47.689793 19.577662 -3.671752 172.24661
500000000 -0.33870772 177.70528 -48.058647 21.185131 -47.91692 20.35269 -3.6365507 171.59012
510000000 -0.34183231 177.65756 -48.447575 22.122543 -48.57542 21.671494 -3.6202183 171.04062
520000000 -0.34133384 177.61855 -49.235695 25.89699 -49.280029 25.456476 -3.6068153 170.53192
530000000 -0.34051651 177.56766 -49.106953 35.523418 -49.2131 36.016861 -3.5800052 170.24588
540000000 -0.34484035 177.50247 -47.824989 38.157707 -47.955059 38.644077 -3.5036209 169.80696
550000000 -0.34214011 177.48376 -47.376026 35.436974 -47.345863 37.875965 -3.4412959 169.19499
560000000 -0.33995521 177.44102 -47.130749 36.245121 -46.892078 35.778145 -3.3746548 168.50455
570000000 -0.34802181 177.3782 -47.000793 33.196079 -46.963264 32.260468 -3.3323624 167.59454
580000000 -0.34531593 177.31914 -47.36602 32.849918 -47.318695 32.47427 -3.311197 166.86848
590000000 -0.3453165 177.26982 -47.646591 35.598873 -47.716362 35.772427 -3.296345 166.24275
600000000 -0.35069004 177.25055 -47.267677 41.836708 -47.281746 42.449402 -3.2671785 165.86731
610000000 -0.34423727 177.18742 -46.094677 40.468147 -46.041359 40.283554 -3.1736541 165.33238
620000000 -0.34722987 177.17268 -46.162178 35.918869 -46.085663 35.810333 -3.1301436 164.3817
630000000 -0.35062942 177.13783 -46.258152 34.087223 -46.219807 33.879211 -3.1078215 163.59253
640000000 -0.34823075 177.05388 -46.671032 31.411787 -46.667183 31.705309 -3.0930045 162.72014
650000000 -0.34895974 177.02179 -47.354008 34.099953 -47.269825 33.806061 -3.1035581 161.99544
660000000 -0.35108295 176.96294 -47.641998 38.804771 -47.556087 38.824989 -3.1097763 161.40694
670000000 -0.35424173 176.92035 -47.092873 42.594139 -47.095711 42.709133 -3.0919008 160.89566
680000000 -0.35212514 176.87547 -46.862293 43.184921 -46.806721 43.257305 -3.063659 160.2238
690000000 -0.3526445 176.8282 -46.730423 44.603252 -46.671848 44.741489 -3.0473602 159.53197
700000000 -0.35261139 176.80814 -46.620934 48.133564 -46.568108 47.853107 -3.0514894 158.90874
710000000 -0.35300219 176.76974 -46.063061 50.412399 -46.028694 50.609917 -3.0455754 158.44609
720000000 -0.35402435 176.72411 -45.486504 52.252392 -45.444069 51.98698 -3.0357509 158.0034
730000000 -0.35286912 176.68784 -44.958378 52.904728 -44.964329 52.95153 -3.0263958 157.49271
740000000 -0.354583 176.6347 -43.945213 52.38662 -43.87727 52.513081 -3.0000885 157.25386
750000000 -0.35214704 176.57666 -43.345657 48.072926 -43.311672 47.718548 -2.9319744 156.71034
760000000 -0.35136193 176.54575 -43.048203 43.847965 -43.005066 43.8708 -2.8816006 156.08714
770000000 -0.3505719 176.47496 -42.93932 40.018623 -42.947292 39.999199 -2.8315282 155.34401
780000000 -0.35201034 176.4319 -42.966324 36.539906 -42.929947 36.776737 -2.7909324 154.52065
790000000 -0.35159376 176.41429 -43.106247 33.480061 -43.054325 33.549465 -2.7623215 153.63405
800000000 -0.3514812 176.37076 -43.489021 30.883022 -43.395084 30.874659 -2.7539215 152.76527
810000000 -0.35011899 176.32454 -43.818047 30.236551 -43.791862 30.144726 -2.7619095 151.96948
820000000 -0.35146803 176.28273 -44.091927 30.143452 -44.055176 30.138262 -2.7805736 151.2858
830000000 -0.35193592 176.24104 -44.301804 30.748039 -44.300159 30.935505 -2.8031926 150.67262
840000000 -0.35314345 176.20033 -44.251011 31.702522 -44.21003 31.641975 -2.8087275 150.21027
850000000 -0.35569909 176.13641 -44.250496 31.963831 -44.156136 31.397434 -2.8043799 149.63788
860000000 -0.3545889 176.09741 -44.09996 31.157887 -44.10342 30.883762 -2.8045092 149.04858
870000000 -0.35333213 176.06718 -44.075706 30.03479 -44.053658 29.805603 -2.8097477 148.46223
880000000 -0.35381681 176.02292 -43.946442 28.288176 -43.948463 28.055908 -2.8178399 147.93121
890000000 -0.35242692 175.99446 -44.116184 25.114204 -44.085289 24.944872 -2.8147504 147.50352
900000000 -0.35281745 175.93788 -44.48967 23.147501 -44.464626 23.219751 -2.7926888 147.05458
910000000 -0.35342425 175.89745 -44.953876 21.490082 -44.960255 21.861769 -2.7686512 146.57561
920000000 -0.35447007 175.84381 -45.550888 21.33585 -45.530121 21.487595 -2.7400079 146.00378
930000000 -0.3534919 175.79672 -46.223454 22.721226 -46.254906 22.648481 -2.7233701 145.34557
940000000 -0.35520884 175.74525 -46.856102 26.446178 -46.825207 26.700258 -2.7204604 144.69557
950000000 -0.35535997 175.681 -47.028397 31.61198 -46.979511 31.813427 -2.7200875 144.07837
960000000 -0.35457456 175.64699 -46.827358 36.434483 -46.774998 36.228989 -2.7260931 143.49101
970000000 -0.35373595 175.60861 -46.477196 38.777954 -46.379593 38.498798 -2.723105 142.95155
980000000 -0.35597134 175.5575 -46.066921 39.654385 -46.068359 38.895428 -2.721724 142.37068
990000000 -0.3566519 175.50853 -45.725754 40.133892 -45.765835 39.789108 -2.7211719 141.84729
1000000000 -0.35586709 175.45557 -45.403561 38.921185 -45.475063 38.520428 -2.7158606 141.36023
1010000000 -0.36063626 175.41716 -45.383907 37.075722 -45.403435 37.651474 -2.7040048 140.91577
1020000000 -0.35963365 175.36469 -45.558167 36.265781 -45.528042 36.90733 -2.6886559 140.41006
1030000000 -0.36187544 175.33366 -45.645756 37.180752 -45.592007 37.265392 -2.6758058 139.88232
1040000000 -0.36243594 175.27995 -45.588787 36.9772 -45.584839 36.776047 -2.6559532 139.33008
1050000000 -0.3634488 175.23219 -45.691864 36.594219 -45.638054 36.653114 -2.6401277 138.72008
1060000000 -0.36269933 175.1936 -45.921658 36.751221 -45.847649 36.858997 -2.627789 138.06273
1070000000 -0.3634696 175.15617 -45.997562 38.431618 -45.924858 37.867992 -2.6194289 137.41417
1080000000 -0.36156091 175.1153 -45.959251 39.560349 -45.913635 39.035984 -2.6188772 136.75847
1090000000 -0.36108547 175.07509 -45.797024 40.156204 -45.798973 39.663273 -2.6275918 136.18788
1100000000 -0.35973066 175.02989 -45.672836 39.815205 -45.682396 39.739986 -2.6346738 135.70837
1110000000 -0.3599157 174.9787 -45.650837 39.341431 -45.624893 39.288811 -2.6327963 135.24387
1120000000 -0.36005718 174.9509 -45.576847 38.056049 -45.60656 38.144638 -2.61924 134.78523
1130000000 -0.36242834 174.90298 -45.807098 37.032871 -45.838623 37.378132 -2.6022701 134.23552
1140000000 -0.36349776 174.85995 -46.14101 37.365887 -46.132504 37.544159 -2.5895944 133.64383
1150000000 -0.36571649 174.80243 -46.31863 39.176994 -46.314972 38.871372 -2.5792875 133.03261
1160000000 -0.36461502 174.76468 -46.330826 39.566204 -46.288555 39.171169 -2.5697961 132.37621
1170000000 -0.36360809 174.7213 -46.548103 39.42939 -46.547382 38.936817 -2.5696254 131.70782
1180000000 -0.36468285 174.66647 -46.826199 41.005482 -46.833202 40.416687 -2.5722728 131.1227
1190000000 -0.3648456 174.62457 -46.856327 42.472672 -46.848198 42.466915 -2.5711558 130.53001
1200000000 -0.36648393 174.58101 -46.912258 43.435215 -46.938835 43.248943 -2.5784504 129.91911
1210000000 -0.36638507 174.52943 -47.054588 45.038647 -46.947552 45.047989 -2.5895107 129.40146
1220000000 -0.36665097 174.49333 -46.995338 46.672939 -46.943073 46.904583 -2.5919027 128.87796
1230000000 -0.36659011 174.45715 -46.918213 47.992332 -46.966484 47.797058 -2.5889361 128.33066
1240000000 -0.36860782 174.40535 -46.855652 48.966156 -46.881241 48.870987 -2.5891409 127.74307
1250000000 -0.36767802 174.36931 -46.866669 49.682941 -46.882645 49.734764 -2.5944691 127.10833
1260000000 -0.36698642 174.31216 -46.85408 50.211868 -46.855694 50.576565 -2.6114616 126.51851
1270000000 -0.36724305 174.27046 -46.936005 51.178043 -46.896412 51.110775 -2.6163094 125.95775
1280000000 -0.3655681 174.20486 -46.986137 52.852047 -46.957138 52.145794 -2.6250772 125.35593
1290000000 -0.3663969 174.16093 -46.943874 53.86937 -46.971466 53.447075 -2.6462593 124.79404
1300000000 -0.36574128 174.11797 -46.89209 54.740444 -46.889256 55.017002 -2.6722097 124.34218
1310000000 -0.36640027 174.07158 -46.847809 55.858406 -46.790287 56.223232 -2.6852772 123.94267
1320000000 -0.36578465 174.03786 -46.840313 57.423702 -46.777157 57.397079 -2.6955333 123.48008
1330000000 -0.36730561 173.99196 -46.655849 58.955025 -46.661198 59.008217 -2.7151423 123.03819
1340000000 -0.36549461 173.94226 -46.412785 60.090919 -46.427238 60.089012 -2.7333508 122.71483
1350000000 -0.36774564 173.89966 -46.258396 60.104778 -46.23497 60.20647 -2.7269504 122.40508
1360000000 -0.36791468 173.85353 -46.069721 60.198605 -46.1175 59.861084 -2.7107968 122.0014
1370000000 -0.36957026 173.80458 -46.034725 59.66901 -46.07663 59.320454 -2.6943574 121.54341
1380000000 -0.37045929 173.74788 -46.078339 59.32634 -46.156776 59.064308 -2.6718314 121.04046
1390000000 -0.369495 173.70448 -46.13987 59.030785 -46.161766 59.209003 -2.6554508 120.53143
1400000000 -0.3683517 173.65051 -46.233868 59.478584 -46.207211 59.500736 -2.6434927 119.99757
1410000000 -0.36884481 173.60619 -46.317059 59.58931 -46.287224 59.583954 -2.6367085 119.44262
1420000000 -0.36920807 173.57672 -46.45974 60.645893 -46.429592 60.827923 -2.6366837 118.88839
1430000000 -0.37023914 173.53082 -46.492027 62.543987 -46.476181 62.392803 -2.6353812 118.35474
1440000000 -0.3707009 173.49123 -46.395241 64.120293 -46.385948 63.765862 -2.6361797 117.81423
1450000000 -0.37329623 173.44688 -46.229317 64.917465 -46.252213 64.532646 -2.6342764 117.27406
1460000000 -0.37465954 173.40218 -46.147408 65.168549 -46.176254 64.870239 -2.6332591 116.71999
1470000000 -0.37646446 173.34566 -46.108879 64.958054 -46.105167 64.776436 -2.6327512 116.16773
1480000000 -0.37569696 173.29805 -46.174942 64.806541 -46.210274 64.813934 -2.628835 115.63612
1490000000 -0.37708303 173.24535 -46.284573 65.235176 -46.280075 64.793678 -2.625509 115.11419
1500000000 -0.37669143 173.1907 -46.379955 65.3983 -46.382496 65.056999 -2.6229904 114.58654
1510000000 -0.37640491 173.15738 -46.6031 66.022278 -46.555389 66.23922 -2.6234336 114.03901
1520000000 -0.3758378 173.11494 -46.729828 67.800224 -46.710045 68.095299 -2.6276307 113.48286
1530000000 -0.3766762 173.07878 -46.747337 69.66787 -46.732216 69.761902 -2.6331298 112.92681
1540000000 -0.37848932 173.03517 -46.767063 71.431984 -46.756584 71.255936 -2.6404548 112.38051
1550000000 -0.37875313 172.99025 -46.787971 73.389992 -46.747288 73.518112 -2.6460688 111.85553
1560000000 -0.38177976 172.93771 -46.638794 75.583817 -46.654449 75.319725 -2.6467369 111.3321
1570000000 -0.3829594 172.89069 -46.596157 77.066574 -46.618351 76.622269 -2.643779 110.77987
1580000000 -0.38323393 172.83144 -46.457539 78.514381 -46.592773 78.180344 -2.6393044 110.2234
1590000000 -0.38173285 172.77756 -46.405014 80.245247 -46.511028 80.321648 -2.6402552 109.65408
1600000000 -0.38094068 172.73329 -46.216911 81.984985 -46.198193 82.16468 -2.646095 109.09867
1610000000 -0.38040265 172.69028 -46.00996 82.741554 -45.909298 83.052513 -2.6550024 108.5618
1620000000 -0.37963331 172.64685 -45.767605 83.608536 -45.653831 83.803078 -2.6620839 108.02921
1630000000 -0.38044757 172.61903 -45.554501 83.842781 -45.476093 83.703735 -2.6660473 107.48547
1640000000 -0.38020486 172.57864 -45.377384 84.344757 -45.382412 83.927895 -2.6716452 106.92133
1650000000 -0.38196433 172.53558 -45.289005 84.565994 -45.32526 84.40287 -2.6755061 106.35951
1660000000 -0.38427088 172.47844 -45.213295 85.077072 -45.239105 85.073929 -2.6797426 105.7937
1670000000 -0.3855018 172.43503 -45.15411 85.195053 -45.176468 85.232079 -2.6804636 105.21765
1680000000 -0.387189 172.37869 -45.125145 85.906654 -45.210136 85.676186 -2.6804118 104.62525
1690000000 -0.38677585 172.32962 -45.091694 86.373375 -45.160553 86.317299 -2.6867688 104.03366
1700000000 -0.3846162 172.27556 -45.115025 87.213707 -45.120365 87.30896 -2.6977046 103.44871
1710000000 -0.38511825 172.23463 -45.068253 87.997826 -44.999802 88.168396 -2.7128148 102.88142
1720000000 -0.38481727 172.18245 -44.973061 88.907799 -44.897972 88.873787 -2.7262723 102.32378
1730000000 -0.38518924 172.14857 -44.917721 89.56411 -44.918922 89.445984 -2.7348828 101.7476
1740000000 -0.38738003 172.11484 -44.89349 90.777771 -44.936615 90.788536 -2.74314 101.14146
1750000000 -0.38932419 172.06708 -44.83736 92.465057 -44.853329 92.534637 -2.7545488 100.52577
1760000000 -0.39128959 172.02628 -44.680367 94.064056 -44.69772 93.988548 -2.7671554 99.912048
1770000000 -0.39359203 171.97339 -44.508339 95.014908 -44.558804 95.261902 -2.7794635 99.292664
1780000000 -0.39619115 171.92648 -44.390411 96.08223 -44.45948 96.054306 -2.7888329 98.668739
1790000000 -0.39692372 171.87341 -44.276142 97.452202 -44.358395 97.379089 -2.8026125 98.046783
1800000000 -0.39647192 171.82985 -44.137104 98.642685 -44.16132 98.735649 -2.8240814 97.422424
1810000000 -0.39451522 171.76566 -43.985016 99.897591 -43.903908 99.747063 -2.8518951 96.818077
1820000000 -0.3949101 171.73286 -43.666019 100.95144 -43.593758 100.6907 -2.8795822 96.230652
1830000000 -0.39448515 171.68869 -43.344009 101.24766 -43.302822 101.04746 -2.9027705 95.647652
1840000000 -0.39450076 171.64732 -43.062885 100.91327 -43.067947 100.92086 -2.9246931 95.084419
1850000000 -0.39550862 171.61072 -42.930737 100.95414 -42.936039 100.92354 -2.938668 94.499306
1860000000 -0.39625809 171.56967 -42.746815 101.28808 -42.752411 101.34129 -2.9540613 93.873489
1870000000 -0.39922062 171.52325 -42.56588 101.22723 -42.607658 101.26218 -2.9674118 93.251015
1880000000 -0.40132624 171.479 -42.460499 101.22108 -42.538624 101.29028 -2.9759848 92.601746
1890000000 -0.40039933 171.43391 -42.3624 101.37355 -42.474586 101.46758 -2.9892416 91.934235
1900000000 -0.40158886 171.37558 -42.340618 101.65971 -42.379993 101.74937 -3.0069294 91.223854
1910000000 -0.39904949 171.31966 -42.291222 102.14314 -42.242489 102.24202 -3.0334301 90.501343
1920000000 -0.39957082 171.26746 -42.151264 102.7551 -42.050526 102.60896 -3.064059 89.756767
1930000000 -0.39918402 171.22903 -41.95047 103.05228 -41.88866 103.0226 -3.0923994 88.997955
1940000000 -0.40055916 171.18904 -41.698666 102.97802 -41.71711 103.03998 -3.1232021 88.209343
1950000000 -0.40214032 171.15187 -41.576538 102.90756 -41.608265 102.96333 -3.1544702 87.394997
1960000000 -0.40337151 171.11774 -41.507328 103.00376 -41.537663 103.05479 -3.1877251 86.518181
1970000000 -0.40664276 171.07506 -41.429718 103.28341 -41.468697 103.47063 -3.2295709 85.581833
1980000000 -0.40748629 171.02892 -41.339657 103.80095 -41.440746 104.05637 -3.2840524 84.633171
1990000000 -0.40947187 170.9744 -41.267113 104.34151 -41.411667 104.76244 -3.3474064 83.695015
2000000000 -0.40892833 170.91594 -41.240795 105.41747 -41.275261 105.60629 -3.4212196 82.721832
2010000000 -0.4095524 170.864 -41.111446 106.34206 -41.002724 106.13631 -3.5094361 81.721634
2020000000 -0.41035065 170.82016 -40.828701 106.73238 -40.775612 106.52583 -3.6082661 80.732964
2030000000 -0.41102472 170.76901 -40.560738 106.85738 -40.561871 106.7895 -3.7119553 79.706909
2040000000 -0.41321406 170.72078 -40.308586 106.99152 -40.336483 107.14078 -3.8355954 78.624168
2050000000 -0.41415283 170.68648 -40.072346 106.67112 -40.071774 106.74231 -3.9808342 77.551781
