!Keysight Technologies,N5222B,MY61257109,A.17.25.03
!Date: Wednesday, July 22, 2026 17:29:22
!Correction: S11(C  2-Port  ) 
!S21(C  2-Port  ) 
!S12(C  2-Port  ) 
!S22(C  2-Port  ) 
!S2P File: Measurements: S11, S21, S12, S22:
# Hz S  dB   R 50
10000000 -1.9771183 -53.119049 -52.011742 56.131348 -51.121178 53.345982 -0.33686915 179.96947
20000000 -3.2549496 -87.440224 -48.492813 44.065639 -48.02116 42.910622 -0.33672285 179.91458
30000000 -4.0447898 -109.69724 -47.140659 37.997501 -46.787292 36.380226 -0.33630162 179.86855
40000000 -4.4848652 -124.57883 -46.371593 35.375526 -46.148289 34.01722 -0.33582669 179.81355
50000000 -4.7296023 -135.12143 -45.628815 34.757545 -45.512501 33.7131 -0.33452865 179.77278
60000000 -4.8707929 -142.85925 -45.166218 33.807575 -45.03986 33.827488 -0.33560997 179.75807
70000000 -4.955555 -148.4938 -44.66256 34.264011 -44.567013 33.985359 -0.33543545 179.69551
80000000 -4.9984584 -152.79959 -44.116657 34.094612 -44.068195 34.454708 -0.33517987 179.60716
90000000 -5.0351872 -156.11237 -43.662384 34.478859 -43.600033 34.273014 -0.33620483 179.54398
100000000 -5.053843 -158.80571 -43.244282 34.847282 -43.112846 34.530396 -0.33467376 179.48943
110000000 -5.0633783 -161.07964 -42.784096 34.671562 -42.677322 34.377876 -0.33512226 179.43565
120000000 -5.0664773 -162.9713 -42.361027 34.429207 -42.266403 33.951973 -0.33501685 179.38527
130000000 -5.0618787 -164.63391 -41.916706 34.466419 -41.836838 33.911713 -0.33385351 179.3268
140000000 -5.0426068 -166.14128 -41.499664 33.367222 -41.406994 33.0173 -0.33345574 179.27292
150000000 -5.0234818 -167.43794 -41.107338 32.571796 -41.044857 32.128075 -0.33291996 179.22263
160000000 -4.9984231 -168.61868 -40.801849 31.415575 -40.729603 30.961206 -0.33413559 179.18208
170000000 -4.9851499 -169.78122 -40.46714 31.07468 -40.399807 30.558588 -0.33352059 179.12212
180000000 -4.9800711 -170.65442 -40.051842 29.919128 -40.024651 29.493536 -0.33450854 179.07469
190000000 -4.9556704 -171.48274 -39.738758 28.626551 -39.671154 27.888866 -0.33344233 179.0229
200000000 -4.9225202 -172.28342 -39.445732 27.058119 -39.397816 26.606409 -0.33398771 178.97009
210000000 -4.891479 -173.07271 -39.171139 25.495079 -39.130878 24.842209 -0.33366764 178.91161
220000000 -4.8531246 -173.76074 -38.931961 23.873476 -38.887249 23.387796 -0.33251917 178.86288
230000000 -4.8102608 -174.50005 -38.703484 22.086823 -38.67012 21.749416 -0.33272851 178.80168
240000000 -4.7693324 -175.13539 -38.495312 20.281866 -38.489521 19.820303 -0.33225399 178.74088
250000000 -4.7267942 -175.77971 -38.37896 18.638416 -38.344425 18.303799 -0.33198965 178.69986
260000000 -4.6896811 -176.37273 -38.251545 16.894892 -38.227459 16.429071 -0.33236128 178.65337
270000000 -4.6440296 -177.02211 -38.102257 15.520079 -38.081081 14.857677 -0.3341876 178.60506
280000000 -4.603199 -177.64236 -37.960308 13.415415 -37.951263 13.005244 -0.33456782 178.5609
290000000 -4.5548568 -178.20511 -37.875149 11.401955 -37.855209 10.911778 -0.33394995 178.50787
300000000 -4.5105009 -178.7758 -37.833004 9.3957376 -37.831268 8.9674292 -0.33313069 178.45975
310000000 -4.4563184 -179.43298 -37.858875 7.604773 -37.840733 7.0950971 -0.33358124 178.40039
320000000 -4.4130788 -179.98126 -37.877724 6.1486988 -37.877556 5.6969414 -0.3331522 178.34322
330000000 -4.3702164 179.46776 -37.874603 4.866724 -37.865807 4.6079922 -0.33211008 178.28963
340000000 -4.3198705 178.93147 -37.810711 3.7057905 -37.810051 3.1901712 -0.33115229 178.23857
350000000 -4.2655568 178.32379 -37.786732 1.7275985 -37.791275 1.3806082 -0.33086398 178.18695
360000000 -4.2143788 177.76311 -37.800243 0.0021669075 -37.801193 -0.37750801 -0.33172169 178.13388
370000000 -4.1627874 177.14214 -37.851841 -1.7566265 -37.863884 -2.1475685 -0.33338726 178.09235
380000000 -4.1067042 176.49332 -37.955284 -3.4168541 -37.968906 -3.6932945 -0.33246496 178.0419
390000000 -4.0553932 175.90739 -38.067326 -4.9534597 -38.069069 -5.2451687 -0.33354267 177.9915
400000000 -4.0015116 175.28061 -38.173401 -6.2577658 -38.194252 -6.6062355 -0.33320194 177.94167
410000000 -3.9462874 174.58611 -38.329948 -7.4531665 -38.304386 -7.6097608 -0.33280143 177.88736
420000000 -3.8923724 173.97655 -38.428272 -8.524086 -38.44516 -8.6554794 -0.33269608 177.8373
430000000 -3.8402972 173.33632 -38.542576 -9.5204391 -38.565662 -9.70294 -0.33167559 177.77797
440000000 -3.7871079 172.63266 -38.685188 -10.511695 -38.673878 -10.697174 -0.33138222 177.729
450000000 -3.7319841 171.95673 -38.821526 -11.364206 -38.842907 -11.710614 -0.32945937 177.67487
460000000 -3.6803713 171.30695 -38.969471 -12.21036 -38.990204 -12.406231 -0.3297984 177.61696
470000000 -3.6287866 170.60164 -39.105049 -12.901605 -39.118603 -13.161138 -0.33078074 177.57025
480000000 -3.5780237 169.87965 -39.294327 -13.774972 -39.305389 -13.883751 -0.33008912 177.52838
490000000 -3.5332475 169.20705 -39.443375 -14.277331 -39.455879 -14.39453 -0.32951549 177.47249
500000000 -3.4895043 168.49547 -39.599457 -14.681422 -39.620445 -14.85071 -0.33099473 177.41298
510000000 -3.4502079 167.74458 -39.784813 -15.14631 -39.761646 -15.08395 -0.33078185 177.36711
520000000 -3.4100175 167.05003 -39.936653 -15.416286 -39.933277 -15.40477 -0.33114445 177.3035
530000000 -3.3723328 166.34508 -40.109718 -15.710168 -40.128178 -15.823711 -0.33183932 177.25269
540000000 -3.3431833 165.60677 -40.297638 -15.719491 -40.324821 -15.700505 -0.33143166 177.19707
550000000 -3.3070433 164.8996 -40.429134 -15.46249 -40.44965 -15.913188 -0.33117968 177.14728
560000000 -3.2739198 164.1714 -40.598442 -15.720055 -40.592239 -15.722826 -0.33142775 177.09744
570000000 -3.2528977 163.45525 -40.725746 -15.446445 -40.706955 -15.408585 -0.33007768 177.04225
580000000 -3.2241418 162.72357 -40.833393 -15.250834 -40.852306 -15.375123 -0.33051789 176.98407
590000000 -3.1985772 161.98447 -40.978378 -14.971292 -40.974346 -15.392282 -0.33157501 176.93372
600000000 -3.1795759 161.24629 -41.154808 -14.731837 -41.147186 -14.867451 -0.3327623 176.8877
610000000 -3.1522632 160.50092 -41.265388 -14.262406 -41.252346 -14.188864 -0.33190972 176.82571
620000000 -3.1357777 159.80196 -41.382545 -13.578786 -41.362289 -13.621498 -0.33252031 176.77138
630000000 -3.118161 159.12297 -41.436569 -12.988108 -41.470863 -12.992243 -0.33196953 176.71941
640000000 -3.0983877 158.38708 -41.528694 -12.524641 -41.513905 -12.778356 -0.33153364 176.66176
650000000 -3.0789135 157.69298 -41.586601 -12.31134 -41.567043 -12.174861 -0.33168676 176.60915
660000000 -3.0638309 156.97481 -41.670143 -11.715724 -41.667542 -11.817062 -0.33280507 176.55026
670000000 -3.0513935 156.28656 -41.706108 -11.228494 -41.727772 -11.631588 -0.33227104 176.50381
680000000 -3.036865 155.5834 -41.769253 -10.796424 -41.774162 -10.803441 -0.33305019 176.45801
690000000 -3.0260766 154.87976 -41.830235 -9.9715137 -41.824173 -10.090023 -0.33364359 176.40422
700000000 -3.0149894 154.19151 -41.844334 -9.180665 -41.846798 -9.1655741 -0.33362514 176.34831
710000000 -3.003751 153.49435 -41.855083 -8.3942642 -41.849995 -8.4396334 -0.33332074 176.29318
720000000 -2.9964797 152.81067 -41.849998 -7.6305842 -41.840313 -7.7590466 -0.33346775 176.24004
730000000 -2.987823 152.15746 -41.805576 -7.0226493 -41.795242 -7.0326324 -0.33390999 176.18721
740000000 -2.9824913 151.49162 -41.77142 -6.5474072 -41.748833 -6.4383917 -0.33438385 176.13292
750000000 -2.9754245 150.81879 -41.659077 -6.0204248 -41.653454 -6.108439 -0.33462679 176.07994
760000000 -2.9708796 150.19093 -41.594074 -5.820694 -41.583508 -5.9693608 -0.33537954 176.03307
770000000 -2.9719703 149.53297 -41.510578 -5.7210631 -41.491314 -5.6750445 -0.33544442 175.98016
780000000 -2.9786339 148.94383 -41.433235 -5.7819629 -41.414459 -5.6554818 -0.33647558 175.92874
790000000 -2.9787419 148.3728 -41.32642 -5.9746284 -41.327953 -5.9903541 -0.33588403 175.87871
800000000 -2.9805822 147.79381 -41.247532 -6.0616827 -41.292801 -6.3341498 -0.33648425 175.82899
810000000 -2.9828925 147.24173 -41.210304 -6.5616417 -41.214977 -6.5989718 -0.33620065 175.77197
820000000 -2.9757073 146.74191 -41.245277 -7.0044708 -41.251972 -7.0537591 -0.33630303 175.71422
830000000 -2.9648736 146.18466 -41.273876 -7.1512828 -41.259308 -6.9552794 -0.33670244 175.66116
840000000 -2.9597082 145.56511 -41.239964 -6.8462429 -41.221382 -6.8485222 -0.33605102 175.60597
850000000 -2.9704244 144.95792 -41.122486 -6.8663087 -41.103188 -6.8414478 -0.3368037 175.55321
860000000 -2.9786215 144.47232 -41.002899 -7.8785062 -40.973293 -7.8663478 -0.33722416 175.50253
870000000 -2.9770811 144.05632 -40.968384 -8.9032516 -40.960213 -9.0208445 -0.33729944 175.45789
880000000 -2.9711668 143.59921 -40.966015 -9.9537621 -40.975723 -10.120654 -0.33860248 175.4117
890000000 -2.9588132 143.13919 -40.965961 -11.160338 -40.995716 -11.158348 -0.33945388 175.36397
900000000 -2.9488273 142.66168 -41.056503 -12.557336 -41.075802 -12.682026 -0.33878496 175.32002
910000000 -2.9309103 142.20409 -41.211643 -13.904245 -41.218838 -13.919992 -0.33798155 175.26898
920000000 -2.9072399 141.7563 -41.46236 -14.997009 -41.434082 -15.166122 -0.33777282 175.21547
930000000 -2.8686719 141.28644 -41.844254 -15.842935 -41.830803 -15.95725 -0.33753219 175.15883
940000000 -2.8273776 140.69986 -42.26783 -15.44918 -42.23988 -15.450407 -0.33708206 175.10208
950000000 -2.7922394 140.0338 -42.618565 -13.827829 -42.646233 -13.877539 -0.33808842 175.04749
960000000 -2.7594731 139.3264 -42.832962 -11.346869 -42.83374 -11.450426 -0.33833998 174.99673
970000000 -2.7376437 138.60875 -42.902878 -9.2485991 -42.89933 -9.0986853 -0.33788976 174.94476
980000000 -2.7276256 137.84245 -42.810062 -6.7892575 -42.799679 -6.8886914 -0.33839428 174.89746
990000000 -2.7307868 137.07004 -42.620068 -4.9820857 -42.62151 -5.2540493 -0.33872002 174.84311
1000000000 -2.7421446 136.3508 -42.361626 -4.4386644 -42.356644 -4.5044441 -0.33839905 174.79115
1010000000 -2.7634015 135.72122 -42.159065 -4.4292059 -42.137341 -4.8407717 -0.33748716 174.7341
1020000000 -2.7756596 135.17638 -42.066372 -5.1979318 -42.058968 -5.1953444 -0.33802518 174.67436
1030000000 -2.7809203 134.62299 -42.044998 -5.0311823 -42.016052 -5.379231 -0.33911407 174.61293
1040000000 -2.7911012 134.07381 -41.97908 -5.4762344 -41.973133 -5.344605 -0.3406201 174.56314
1050000000 -2.7984495 133.57527 -41.897232 -5.8615017 -41.905022 -5.8698206 -0.341692 174.51045
1060000000 -2.7991927 133.10233 -41.924641 -6.203042 -41.891708 -6.195909 -0.34197766 174.46172
1070000000 -2.8043566 132.63884 -41.914551 -6.4044509 -41.877861 -6.4111161 -0.34202445 174.40964
1080000000 -2.7990127 132.15382 -41.93 -6.2630081 -41.923317 -6.4476643 -0.34240732 174.3623
1090000000 -2.8034132 131.65495 -41.851059 -6.4882774 -41.855743 -6.5276294 -0.34135681 174.31044
1100000000 -2.80515 131.19421 -41.799492 -7.0115328 -41.82148 -7.1433625 -0.34192166 174.2552
1110000000 -2.8037202 130.76527 -41.829342 -7.9779983 -41.809689 -8.0696974 -0.34244287 174.20166
1120000000 -2.7962368 130.34727 -41.914974 -8.6196041 -41.901489 -8.6903963 -0.34318885 174.14627
1130000000 -2.7837937 129.88374 -42.075474 -9.0503197 -42.077229 -9.0758209 -0.34373012 174.09343
1140000000 -2.7692664 129.39348 -42.232761 -9.0104771 -42.205616 -9.2462177 -0.34372592 174.03899
1150000000 -2.7598388 128.85446 -42.362621 -8.7596502 -42.320316 -8.8173475 -0.34302554 173.99174
1160000000 -2.7458203 128.34245 -42.396553 -8.2216225 -42.387726 -8.2248735 -0.34322947 173.9395
1170000000 -2.7314138 127.85918 -42.484108 -7.8780694 -42.45433 -8.0244865 -0.34353343 173.88988
1180000000 -2.7135167 127.29663 -42.57663 -7.2754083 -42.553925 -7.4038038 -0.34386685 173.84177
1190000000 -2.7045972 126.70966 -42.547649 -6.6347356 -42.541218 -6.6008697 -0.34462285 173.7924
1200000000 -2.7046232 126.18266 -42.51432 -6.4158511 -42.487251 -6.7754302 -0.34487593 173.7404
1210000000 -2.6953483 125.65874 -42.561085 -6.4030051 -42.568573 -6.4907055 -0.34526324 173.68765
1220000000 -2.6870291 125.13121 -42.631207 -5.9979229 -42.620888 -6.0933471 -0.34579861 173.62881
1230000000 -2.6808102 124.59692 -42.628559 -5.5954876 -42.637676 -5.6546922 -0.34607923 173.57143
1240000000 -2.6710863 124.06215 -42.66032 -5.1994896 -42.663609 -5.3058028 -0.3453308 173.51497
1250000000 -2.6596701 123.53915 -42.671089 -4.6042266 -42.670372 -4.5891466 -0.34536639 173.46019
1260000000 -2.6472068 122.98798 -42.628578 -4.0136085 -42.633781 -4.177722 -0.3458373 173.41022
1270000000 -2.6404016 122.4603 -42.595703 -3.8601592 -42.592396 -3.8251903 -0.34637609 173.35913
1280000000 -2.6290646 121.90289 -42.594788 -3.4637737 -42.588791 -3.5641544 -0.34658945 173.31322
1290000000 -2.6230681 121.35517 -42.512341 -3.1460426 -42.49501 -3.1491838 -0.34691104 173.26428
1300000000 -2.6200085 120.82272 -42.458565 -3.3513927 -42.431908 -3.2608492 -0.34743175 173.21451
1310000000 -2.6174662 120.29869 -42.44949 -3.5121486 -42.439442 -3.4389117 -0.3476572 173.16281
1320000000 -2.6123269 119.76752 -42.457882 -3.4169662 -42.447624 -3.6507092 -0.34844333 173.11098
1330000000 -2.6088166 119.23087 -42.459652 -3.4974215 -42.45005 -3.6369658 -0.34856564 173.05606
1340000000 -2.5998507 118.69773 -42.499943 -3.4765003 -42.475296 -3.5771089 -0.34925374 172.99696
1350000000 -2.590867 118.15926 -42.53764 -3.4137733 -42.528034 -3.5472159 -0.3497102 172.94647
1360000000 -2.5836957 117.59673 -42.546471 -3.1018775 -42.545837 -3.2200656 -0.34986928 172.89615
1370000000 -2.5782311 117.05007 -42.52755 -2.8942804 -42.548729 -2.9883029 -0.3505674 172.84428
1380000000 -2.5745313 116.50068 -42.54623 -2.7238343 -42.537674 -2.9574232 -0.34991193 172.79843
1390000000 -2.5707226 115.96777 -42.547848 -2.7095842 -42.533051 -2.6995709 -0.34996131 172.74879
1400000000 -2.5658209 115.41473 -42.548653 -2.4497509 -42.538754 -2.5420818 -0.35043833 172.69975
1410000000 -2.5647593 114.84895 -42.541599 -2.3420486 -42.541969 -2.2827349 -0.35062549 172.64561
1420000000 -2.5653732 114.31107 -42.555214 -2.2092607 -42.552055 -2.2300389 -0.35187614 172.59091
1430000000 -2.5644059 113.75201 -42.563175 -1.9282589 -42.563236 -2.0558858 -0.35223153 172.53636
1440000000 -2.5623274 113.16181 -42.542992 -1.3244199 -42.557091 -1.5168113 -0.35296598 172.48137
1450000000 -2.5657251 112.58475 -42.491516 -1.1966617 -42.473915 -1.172289 -0.35322711 172.42677
1460000000 -2.5691278 112.01513 -42.417622 -1.0830542 -42.416359 -1.2477171 -0.3532055 172.37314
1470000000 -2.5752184 111.48048 -42.362103 -1.5217443 -42.352474 -1.5243989 -0.35322991 172.32062
1480000000 -2.5703926 110.96969 -42.375805 -1.8092331 -42.34787 -1.9542153 -0.35372275 172.27054
1490000000 -2.5680499 110.43758 -42.36364 -1.9614629 -42.358173 -2.0068836 -0.35364777 172.22102
1500000000 -2.564775 109.88133 -42.385403 -2.1694336 -42.362728 -2.2374036 -0.35378256 172.16853
1510000000 -2.562871 109.3246 -42.412254 -2.2240672 -42.393711 -2.3681946 -0.35426757 172.11772
1520000000 -2.5643079 108.75919 -42.432499 -2.4581666 -42.414188 -2.555547 -0.35539201 172.06459
1530000000 -2.5682349 108.17772 -42.427101 -2.3716178 -42.411278 -2.5073798 -0.3559542 172.01341
1540000000 -2.5749102 107.65144 -42.43483 -2.865401 -42.433624 -3.0740638 -0.35707429 171.96146
1550000000 -2.5712512 107.09915 -42.504917 -3.138654 -42.503273 -3.2238419 -0.35756052 171.90932
1560000000 -2.5696282 106.52926 -42.569286 -3.1023154 -42.546581 -3.2407618 -0.35697705 171.85692
1570000000 -2.5675952 105.96655 -42.617138 -3.0800612 -42.615738 -3.311506 -0.35646194 171.80428
1580000000 -2.5621667 105.39149 -42.676907 -2.8866246 -42.667984 -3.1388688 -0.35643497 171.74797
1590000000 -2.5585382 104.77616 -42.714283 -2.8752878 -42.681049 -2.9396436 -0.35694724 171.69635
1600000000 -2.5628827 104.17178 -42.736176 -2.8163435 -42.714134 -2.8876612 -0.35701132 171.64175
1610000000 -2.5709035 103.56611 -42.780144 -2.9029214 -42.755672 -3.097533 -0.35780394 171.59044
1620000000 -2.5776455 102.96793 -42.817497 -2.8727598 -42.80175 -2.9926488 -0.35872573 171.53896
1630000000 -2.5831363 102.3817 -42.855129 -3.0412755 -42.848621 -3.0577567 -0.35956392 171.48547
1640000000 -2.5859525 101.76186 -42.913063 -3.1016088 -42.922897 -3.0974836 -0.36009991 171.43019
1650000000 -2.589498 101.12241 -42.979027 -3.1889124 -42.964851 -3.2556529 -0.35993204 171.37643
1660000000 -2.5918064 100.45255 -43.035206 -3.041657 -43.023792 -3.0859561 -0.35953411 171.31847
1670000000 -2.5990014 99.780022 -43.064411 -2.9376307 -43.038643 -3.1642489 -0.35962185 171.26555
1680000000 -2.6043484 99.113922 -43.142872 -3.1304147 -43.135307 -3.2705662 -0.36004648 171.21042
1690000000 -2.6052709 98.404915 -43.193172 -3.0567677 -43.186028 -3.215353 -0.36051309 171.15895
1700000000 -2.6147268 97.637009 -43.257065 -3.0432682 -43.226639 -3.1173263 -0.36100334 171.10728
1710000000 -2.6339226 96.846527 -43.327156 -3.140326 -43.278461 -3.3078337 -0.36158934 171.06062
1720000000 -2.6572056 96.05304 -43.383671 -3.5402927 -43.366791 -3.5141587 -0.36234564 171.0081
1730000000 -2.6837332 95.25798 -43.454185 -3.9872651 -43.446358 -3.8676279 -0.36297289 170.95605
1740000000 -2.7135153 94.442268 -43.538025 -4.5366807 -43.549519 -4.5295267 -0.36403003 170.9021
1750000000 -2.7467196 93.595367 -43.697552 -5.1014519 -43.697582 -5.1952643 -0.36450663 170.8483
1760000000 -2.7822871 92.770317 -43.887344 -5.6358185 -43.884811 -5.6839542 -0.36507168 170.79245
1770000000 -2.8233225 91.884727 -44.085274 -6.2332244 -44.071075 -6.3028722 -0.36586377 170.73732
1780000000 -2.8665056 91.021637 -44.352482 -6.8831549 -44.365498 -6.8862176 -0.36557907 170.67967
1790000000 -2.9171135 90.115761 -44.624668 -7.3228126 -44.613987 -7.4696989 -0.36582887 170.63011
1800000000 -2.9782083 89.182243 -45.009712 -7.8478875 -44.970676 -8.0984364 -0.36646366 170.57889
1810000000 -3.0527639 88.156876 -45.486958 -8.2471752 -45.463139 -8.3884344 -0.36723039 170.52907
1820000000 -3.1355698 87.133629 -46.000824 -8.3988352 -46.045826 -8.530735 -0.36801302 170.4799
1830000000 -3.2394042 86.05014 -46.583351 -8.2944307 -46.715267 -8.2812662 -0.36849117 170.42711
1840000000 -3.3535328 85.005325 -47.288166 -8.0228996 -47.470913 -7.9727569 -0.36952966 170.37474
1850000000 -3.4909811 83.918144 -48.171082 -6.9727759 -48.399426 -6.8141513 -0.37046185 170.31889
1860000000 -3.6501963 82.849388 -49.196316 -4.9489365 -49.567142 -4.5188112 -0.37097806 170.26259
1870000000 -3.8288627 81.852791 -50.419971 -1.2993801 -50.967667 0.27437112 -0.37203714 170.20692
1880000000 -4.0113611 80.998795 -51.63208 4.9218702 -52.614002 9.6285248 -0.37221456 170.15025
1890000000 -4.2195082 80.270943 -52.848877 14.300103 -54.052086 27.002708 -0.37283587 170.09778
1900000000 -4.4861488 79.708817 -53.819283 31.969473 -54.062508 50.058563 -0.37303305 170.04933
1910000000 -4.8130751 79.371811 -53.380585 55.005142 -52.080486 70.691841 -0.37413752 170.00179
1920000000 -5.1534085 79.35199 -51.415028 72.010689 -49.385033 81.997429 -0.37454215 169.95419
1930000000 -5.5079932 79.690269 -49.134136 81.311378 -46.840031 86.039841 -0.37518218 169.90674
1940000000 -5.8134685 80.353279 -47.158455 84.983704 -44.853275 86.390846 -0.37683401 169.85876
1950000000 -6.1048789 81.438812 -45.337837 85.854973 -43.241096 84.941612 -0.3779965 169.8102
1960000000 -6.3525991 82.754051 -43.84235 84.891533 -41.930965 82.318245 -0.37967202 169.75949
1970000000 -6.5720944 84.390068 -42.517227 82.848671 -40.761024 78.725983 -0.3797271 169.71062
1980000000 -6.7534771 86.41127 -41.30962 79.844536 -39.810688 74.810303 -0.38036421 169.65881
1990000000 -6.8804946 88.864952 -40.186089 75.857513 -39.038658 70.875526 -0.38063094 169.60883
2000000000 -6.9367433 91.572746 -39.213623 71.448471 -38.434048 66.947029 -0.3807615 169.56238
2010000000 -6.9403086 94.431297 -38.419632 66.639008 -37.923618 62.717339 -0.38063434 169.51355
2020000000 -6.8974872 96.956459 -37.867313 62.487545 -37.499889 58.649986 -0.38004607 169.46751
