!Keysight Technologies,N5222B,MY61257109,A.17.25.03
!Date: Wednesday, July 22, 2026 17:46:19
!Correction: S11(C  2-Port  ) 
!S21(C  2-Port  ) 
!S12(C  2-Port  ) 
!S22(C  2-Port  ) 
!S2P File: Measurements: S11, S21, S12, S22:
# Hz S  dB   R 50
10000000 -1.9151648 -50.382008 -53.037998 47.944942 -51.522938 46.773174 -0.33774093 179.98866
20000000 -3.1320102 -83.436211 -49.353878 32.267616 -48.624744 27.834848 -0.33154118 179.91963
30000000 -3.9378896 -105.90901 -48.141823 19.784842 -47.668976 14.073204 -0.33201757 179.86797
40000000 -4.4114766 -121.38136 -47.703049 10.760849 -47.463936 4.8730769 -0.33078074 179.8174
50000000 -4.6889839 -132.76677 -47.191586 3.5964792 -47.249466 -1.6601955 -0.32954425 179.77429
60000000 -4.8561115 -141.14014 -47.281277 -3.7154522 -47.489594 -7.5369225 -0.32984781 179.73352
70000000 -4.9513578 -147.35286 -47.353573 -9.4796925 -47.553959 -11.752894 -0.32952917 179.65445
80000000 -5.0057845 -151.99345 -47.495785 -14.342556 -47.629009 -17.009912 -0.32978666 179.59859
90000000 -5.0491576 -155.48645 -47.575687 -19.106979 -47.747368 -20.914576 -0.33080924 179.54611
100000000 -5.0738549 -158.27365 -47.837864 -23.150738 -47.989799 -25.240839 -0.32918876 179.49155
110000000 -5.0895767 -160.58838 -48.026272 -26.728807 -48.227982 -28.620995 -0.32958335 179.43001
120000000 -5.0962014 -162.51903 -48.259815 -30.075607 -48.477825 -32.137333 -0.32946718 179.38371
130000000 -5.0906858 -164.25287 -48.534058 -33.016029 -48.787708 -35.139145 -0.3285256 179.32611
140000000 -5.0750742 -165.8409 -48.802784 -36.657093 -49.068455 -38.456581 -0.32751837 179.26624
150000000 -5.0540509 -167.19865 -49.151047 -40.076061 -49.400051 -41.190701 -0.3271541 179.21318
160000000 -5.0267844 -168.42435 -49.529617 -43.69722 -49.787411 -44.618893 -0.32861215 179.16455
170000000 -5.0139174 -169.58553 -50.119255 -45.630322 -50.443588 -46.601276 -0.32782152 179.11659
180000000 -5.0091949 -170.50787 -50.38826 -46.830257 -50.567341 -47.917923 -0.32838237 179.06787
190000000 -4.9916973 -171.31023 -50.665089 -48.722046 -50.948082 -49.370255 -0.3281543 179.01767
200000000 -4.9605904 -172.1367 -51.004929 -50.210125 -51.312714 -51.186214 -0.32807359 178.95782
210000000 -4.9341655 -172.91057 -51.370312 -52.288464 -51.705456 -52.429161 -0.32819897 178.89638
220000000 -4.8906336 -173.64226 -51.727093 -54.288944 -52.047523 -54.839523 -0.32726464 178.85008
230000000 -4.8452034 -174.40067 -52.20438 -55.338451 -52.497738 -55.57877 -0.32727972 178.78233
240000000 -4.8037801 -175.04668 -52.491776 -57.248386 -52.811039 -57.060154 -0.32610729 178.73309
250000000 -4.7598114 -175.69153 -52.948444 -58.498646 -53.189655 -57.940216 -0.32656077 178.67743
260000000 -4.7288904 -176.27197 -53.444359 -60.066216 -53.60817 -60.241764 -0.32710248 178.63715
270000000 -4.6901245 -176.92546 -53.860191 -59.304688 -54.148094 -58.765652 -0.3285591 178.58366
280000000 -4.6547246 -177.48978 -54.029636 -59.779526 -54.270126 -60.095856 -0.32828635 178.53751
290000000 -4.6069436 -178.04721 -54.275547 -60.494987 -54.492722 -60.470165 -0.32864147 178.48436
300000000 -4.5536942 -178.63281 -54.743374 -62.29789 -54.864223 -61.904232 -0.32788545 178.42476
310000000 -4.4887471 -179.29381 -55.249519 -64.299187 -55.412525 -64.470863 -0.32829499 178.37045
320000000 -4.4400301 -179.86581 -55.878807 -66.071625 -56.203964 -64.68351 -0.32790163 178.31873
330000000 -4.3963614 179.54387 -56.774185 -63.949619 -56.891815 -63.361206 -0.32794297 178.26398
340000000 -4.3528976 178.99799 -57.216049 -60.222652 -57.555519 -59.349113 -0.32730147 178.20699
350000000 -4.3104906 178.45601 -57.314533 -58.587505 -57.396542 -57.87981 -0.32706285 178.15015
360000000 -4.2624607 177.91254 -57.359707 -57.42627 -57.526573 -57.321011 -0.32835725 178.09584
370000000 -4.2058468 177.28549 -57.527039 -57.158081 -57.776295 -56.668354 -0.32941326 178.05309
380000000 -4.1431341 176.64615 -57.883282 -57.167816 -57.911076 -56.650032 -0.32945824 178.00172
390000000 -4.0838318 176.02406 -58.087017 -56.822208 -58.015327 -56.481178 -0.33003998 177.95056
400000000 -4.0238218 175.36635 -58.430077 -56.272682 -58.573059 -55.137505 -0.33007908 177.90085
410000000 -3.9659941 174.67577 -58.726063 -55.341278 -58.769676 -54.77422 -0.32950571 177.84444
420000000 -3.9155927 174.08176 -59.108322 -53.881149 -59.280193 -53.478317 -0.33073547 177.79245
430000000 -3.868067 173.44957 -59.352772 -53.220131 -59.461857 -51.43177 -0.32934877 177.73492
440000000 -3.8180256 172.77446 -59.662846 -51.090721 -59.624058 -49.851021 -0.33018801 177.6851
450000000 -3.7642758 172.11891 -59.809299 -48.863659 -59.842545 -48.47102 -0.32806551 177.62932
460000000 -3.7062778 171.43011 -59.975872 -47.698475 -60.027931 -46.282356 -0.32857838 177.57428
470000000 -3.6472185 170.67839 -60.093773 -44.759743 -60.152325 -45.288643 -0.32986403 177.52394
480000000 -3.5936255 169.96565 -60.246761 -44.056217 -60.413738 -42.919033 -0.33043408 177.4836
490000000 -3.5471609 169.27423 -60.460316 -40.913334 -60.400799 -41.302113 -0.32969394 177.42072
500000000 -3.5037987 168.54964 -60.393539 -39.237713 -60.614697 -39.027287 -0.33159652 177.36621
510000000 -3.4660256 167.8284 -60.38427 -37.237507 -60.419773 -35.904133 -0.33183903 177.31729
520000000 -3.4287274 167.15688 -60.391354 -36.427013 -60.254993 -35.753838 -0.33229116 177.25745
530000000 -3.3889029 166.42564 -60.356609 -34.549965 -60.386578 -33.138344 -0.33244345 177.20879
540000000 -3.3553655 165.65797 -60.446861 -32.210697 -60.721382 -31.629982 -0.33289731 177.15109
550000000 -3.318002 164.92755 -60.323635 -30.452065 -60.527649 -30.535536 -0.3328006 177.10448
560000000 -3.2832129 164.19588 -60.255806 -28.244146 -60.423466 -28.219572 -0.33236521 177.05498
570000000 -3.2631128 163.47253 -60.26297 -25.41321 -60.188236 -25.860262 -0.33228362 176.99573
580000000 -3.2328904 162.72586 -59.99099 -23.83378 -60.013966 -24.621992 -0.3333593 176.94127
590000000 -3.2081931 161.99098 -59.872456 -23.49649 -60.022011 -23.300898 -0.33469054 176.89305
600000000 -3.1900094 161.27449 -59.741043 -22.219322 -59.823494 -22.765959 -0.33538792 176.8416
610000000 -3.1621108 160.52695 -59.726154 -20.429125 -59.728722 -19.640785 -0.33497632 176.78687
620000000 -3.1451628 159.83334 -59.598629 -18.026581 -59.645374 -17.699923 -0.33498469 176.731
630000000 -3.1279473 159.12837 -59.157524 -15.34994 -59.129162 -14.825854 -0.3351824 176.68112
640000000 -3.1081581 158.379 -58.719959 -14.812237 -58.618641 -14.651451 -0.33517876 176.62434
650000000 -3.0885551 157.68279 -58.399055 -14.901023 -58.230606 -14.218983 -0.33557138 176.5737
660000000 -3.0742576 156.96594 -58.123993 -14.03543 -58.197739 -14.624986 -0.33664453 176.51701
670000000 -3.0604029 156.27829 -58.028934 -14.56212 -57.915447 -13.01712 -0.33632621 176.46947
680000000 -3.0461812 155.56711 -57.757244 -12.775879 -57.656162 -13.239876 -0.33632174 176.4201
690000000 -3.0358603 154.85136 -57.515709 -11.779422 -57.385891 -11.577933 -0.3374933 176.36696
700000000 -3.0238633 154.16219 -57.091877 -10.326876 -56.987438 -10.744122 -0.33708903 176.31717
710000000 -3.014286 153.47202 -56.730553 -9.2393084 -56.61842 -10.600287 -0.33733019 176.2662
720000000 -3.0077329 152.79253 -56.294853 -9.2266016 -56.317513 -8.8969612 -0.33718276 176.21016
730000000 -2.9991088 152.11926 -55.77338 -8.1846685 -55.718105 -8.9882689 -0.33789313 176.15344
740000000 -2.9948478 151.44142 -55.329235 -8.9533873 -55.280384 -8.7588139 -0.33796504 176.10231
750000000 -2.9884317 150.76738 -54.798462 -9.64184 -54.753834 -9.9907904 -0.33825913 176.05069
760000000 -2.9847584 150.13225 -54.277065 -11.187939 -54.311462 -11.33518 -0.33880287 176.00035
770000000 -2.9852033 149.47336 -53.769371 -11.977413 -53.762486 -12.764766 -0.33969179 175.95041
780000000 -2.9929831 148.86967 -53.344009 -13.955896 -53.332664 -13.6959 -0.34093845 175.90363
790000000 -2.9969809 148.29402 -52.900967 -15.910766 -52.908787 -15.664021 -0.34055236 175.85037
800000000 -2.9999399 147.71959 -52.548553 -17.835819 -52.440536 -17.928043 -0.34125376 175.79955
810000000 -3.0045033 147.1806 -52.143448 -20.615337 -52.108112 -20.870804 -0.34130862 175.74522
820000000 -2.9992244 146.68578 -51.959522 -24.026588 -51.929283 -23.907385 -0.34026846 175.68762
830000000 -2.9898119 146.12273 -51.871464 -25.787415 -51.845505 -25.687969 -0.34123975 175.63437
840000000 -2.9876962 145.49329 -51.712875 -26.479702 -51.699284 -26.660419 -0.34065846 175.58411
850000000 -2.9999874 144.88129 -51.149437 -27.117378 -51.1987 -27.225363 -0.34125683 175.52702
860000000 -3.0120776 144.40321 -50.538773 -30.345253 -50.631557 -30.83823 -0.34185582 175.4791
870000000 -3.0145726 144.00899 -50.20533 -34.030376 -50.271702 -34.128414 -0.34217399 175.4294
880000000 -3.0114717 143.56416 -49.877056 -37.954388 -49.876892 -37.793404 -0.34353596 175.38785
890000000 -3.0006728 143.11073 -49.648689 -41.390255 -49.617142 -41.697155 -0.34443259 175.33946
900000000 -2.9964988 142.65396 -49.35112 -45.926586 -49.362263 -46.540543 -0.3438946 175.29626
910000000 -2.9813495 142.26482 -49.173748 -51.569588 -49.164703 -51.913109 -0.34351662 175.24272
920000000 -2.9563422 141.86264 -49.206455 -57.896973 -49.166943 -57.872379 -0.34312412 175.1913
930000000 -2.9135551 141.43573 -49.516968 -64.951256 -49.457085 -64.517273 -0.34359649 175.13538
940000000 -2.8684037 140.87663 -50.111229 -70.508369 -50.059006 -70.542564 -0.34296334 175.08134
950000000 -2.8267486 140.22369 -50.926098 -75.015526 -50.934132 -75.19101 -0.34408343 175.0266
960000000 -2.7871051 139.50975 -51.944355 -76.696533 -51.989262 -76.950363 -0.34389767 174.97298
970000000 -2.7625425 138.7784 -52.907757 -76.640862 -52.874851 -76.611969 -0.34358835 174.92278
980000000 -2.7500098 137.99213 -53.769531 -72.88942 -53.744659 -72.866829 -0.34426948 174.87776
990000000 -2.752208 137.19568 -54.138954 -66.910446 -54.295612 -67.361443 -0.34372339 174.82291
1000000000 -2.7649913 136.46033 -53.867348 -61.038471 -53.962929 -61.808254 -0.34364101 174.77002
1010000000 -2.787251 135.83363 -53.35294 -58.868233 -53.318317 -58.435589 -0.3429608 174.71043
1020000000 -2.8019874 135.28836 -52.795277 -59.262047 -52.726307 -59.155087 -0.34317175 174.65189
1030000000 -2.8087013 134.73767 -52.599716 -59.925171 -52.550842 -59.542358 -0.34479186 174.59468
1040000000 -2.817142 134.19432 -52.273808 -60.09631 -52.270508 -59.786346 -0.34690517 174.54312
1050000000 -2.8259239 133.6869 -51.866665 -61.297855 -51.846176 -60.819618 -0.34791243 174.49174
1060000000 -2.8281996 133.21989 -51.645618 -63.06554 -51.556988 -63.080891 -0.34885624 174.44327
1070000000 -2.8334682 132.7532 -51.408249 -64.362434 -51.288654 -64.31131 -0.3485617 174.39319
1080000000 -2.8299141 132.26718 -51.317532 -65.461067 -51.297943 -66.113922 -0.34879872 174.34633
1090000000 -2.8377018 131.77037 -50.991299 -65.523926 -51.076542 -66.024979 -0.34897742 174.29082
1100000000 -2.842212 131.33804 -50.609905 -67.215691 -50.622795 -67.322029 -0.34940159 174.23566
1110000000 -2.8422203 130.93222 -50.254414 -70.471123 -50.213249 -70.357147 -0.34886661 174.18463
1120000000 -2.8336487 130.54626 -50.04071 -73.746429 -50.024017 -73.857597 -0.34958619 174.1266
1130000000 -2.8186135 130.08694 -50.003204 -77.650436 -50.020714 -77.655052 -0.35054159 174.07515
1140000000 -2.8029621 129.60493 -50.07893 -80.933868 -50.08046 -80.944725 -0.35095328 174.02359
1150000000 -2.7913532 129.07217 -50.209553 -83.73658 -50.223465 -83.504196 -0.35053319 173.97281
1160000000 -2.7768874 128.56387 -50.316116 -85.437943 -50.327042 -85.599388 -0.35153371 173.92297
1170000000 -2.7621157 128.08722 -50.365002 -87.524071 -50.342781 -87.537865 -0.35190985 173.87518
1180000000 -2.7423942 127.53419 -50.555202 -89.539543 -50.570629 -89.83152 -0.35203362 173.82332
1190000000 -2.7328863 126.9358 -50.764221 -89.60302 -50.790421 -90.006371 -0.3529233 173.77618
1200000000 -2.7345448 126.41936 -50.657551 -90.235672 -50.675247 -90.632484 -0.35307801 173.72247
1210000000 -2.7240167 125.90843 -50.624428 -92.368988 -50.64436 -92.184097 -0.35311031 173.66972
1220000000 -2.713891 125.38733 -50.729095 -94.363213 -50.711014 -94.039291 -0.3533195 173.61243
1230000000 -2.7052679 124.84041 -50.802685 -95.749153 -50.743042 -95.265625 -0.35361183 173.55373
1240000000 -2.6939425 124.30104 -50.852932 -97.708733 -50.870255 -97.268517 -0.35333353 173.49973
1250000000 -2.6824636 123.77544 -51.036713 -98.80172 -50.938831 -98.669464 -0.35327148 173.44589
1260000000 -2.6712773 123.22771 -51.110649 -99.116295 -51.119347 -99.198807 -0.35353488 173.39407
1270000000 -2.6627719 122.71186 -51.139465 -99.996857 -51.126373 -99.955986 -0.35413587 173.34457
1280000000 -2.6507249 122.14655 -51.24379 -100.39529 -51.265224 -101.03533 -0.35461697 173.29756
1290000000 -2.6455042 121.5892 -51.315395 -100.13708 -51.401932 -100.519 -0.35547349 173.24762
1300000000 -2.6443219 121.05643 -51.190632 -99.910843 -51.22702 -100.1011 -0.35556591 173.19907
1310000000 -2.6425464 120.53157 -51.070503 -100.89782 -51.084824 -100.9173 -0.35557294 173.14735
1320000000 -2.6382883 120.01991 -50.91333 -102.22116 -50.872631 -101.39902 -0.35672581 173.09286
1330000000 -2.6331513 119.48376 -50.830112 -103.51491 -50.8027 -103.16922 -0.35701808 173.04071
1340000000 -2.6231742 118.9581 -50.756157 -105.31794 -50.712227 -105.00154 -0.35719737 172.98486
1350000000 -2.6139352 118.42912 -50.706886 -106.82034 -50.703003 -106.79292 -0.35853314 172.93042
1360000000 -2.6054571 117.87285 -50.771065 -108.40465 -50.711205 -108.50536 -0.35915956 172.87805
1370000000 -2.5986493 117.32952 -50.794075 -108.97884 -50.788433 -109.2777 -0.35961312 172.82719
1380000000 -2.5945425 116.77334 -50.758533 -109.86126 -50.77306 -110.45753 -0.35945198 172.77997
1390000000 -2.5902162 116.24055 -50.693237 -110.53629 -50.751137 -111.24834 -0.36007881 172.72876
1400000000 -2.5861907 115.6868 -50.681515 -111.73107 -50.719097 -112.32768 -0.35979 172.68205
1410000000 -2.5833409 115.12127 -50.721626 -113.18649 -50.703979 -112.97469 -0.36010498 172.62486
1420000000 -2.5849333 114.5812 -50.708347 -114.46714 -50.654869 -113.84238 -0.36132461 172.57179
1430000000 -2.5828047 114.02126 -50.741928 -115.96029 -50.703686 -115.7312 -0.36166388 172.51999
1440000000 -2.5809155 113.43029 -50.818035 -116.94459 -50.797508 -116.93166 -0.36273 172.463
1450000000 -2.5843456 112.85417 -50.913353 -117.46835 -50.940559 -117.58315 -0.36359176 172.40889
1460000000 -2.5883975 112.27648 -50.988144 -116.98061 -50.918201 -116.81258 -0.36365849 172.35231
1470000000 -2.5952322 111.74496 -50.833675 -116.53113 -50.836018 -116.41955 -0.36397037 172.30005
1480000000 -2.5901606 111.23786 -50.60297 -116.80055 -50.584854 -117.25099 -0.36391208 172.24883
1490000000 -2.5866113 110.70529 -50.48085 -117.33916 -50.459442 -118.18652 -0.36475945 172.19821
1500000000 -2.5852418 110.14573 -50.340435 -118.10247 -50.391994 -118.86774 -0.36472905 172.14667
1510000000 -2.5834854 109.59503 -50.233017 -119.38326 -50.221367 -119.51125 -0.36504269 172.09277
1520000000 -2.5862513 109.03011 -50.198898 -120.63145 -50.128021 -120.01029 -0.36634791 172.04219
1530000000 -2.5907006 108.45855 -50.089256 -121.3738 -50.061142 -120.73844 -0.36688334 171.99063
1540000000 -2.5972781 107.94046 -49.895794 -122.09229 -49.870262 -121.74904 -0.36815557 171.93878
1550000000 -2.5931408 107.39809 -49.68359 -123.69929 -49.685455 -123.81225 -0.36919767 171.8858
1560000000 -2.5901346 106.82742 -49.629978 -125.28159 -49.590439 -125.32707 -0.36918947 171.83514
1570000000 -2.5862858 106.27416 -49.480446 -126.64748 -49.486404 -126.68426 -0.3683717 171.78101
1580000000 -2.5791867 105.69258 -49.462826 -127.87173 -49.451469 -128.3078 -0.36900207 171.72346
1590000000 -2.5758283 105.07996 -49.42551 -128.67683 -49.43504 -129.18616 -0.36998516 171.67215
1600000000 -2.5810366 104.47143 -49.344658 -129.22914 -49.326614 -129.82997 -0.36964944 171.61487
1610000000 -2.5883181 103.87529 -49.240993 -130.61145 -49.241714 -130.70038 -0.37063211 171.56468
1620000000 -2.5962944 103.27322 -49.170475 -132.15408 -49.177856 -131.52126 -0.37092984 171.51172
1630000000 -2.600862 102.69841 -49.0732 -133.74106 -49.057892 -133.03345 -0.37201178 171.46077
1640000000 -2.6032853 102.07867 -49.00285 -135.08888 -49.003742 -134.67871 -0.37312445 171.40643
1650000000 -2.605725 101.44736 -48.959267 -136.56612 -48.929565 -136.60191 -0.37321049 171.35048
1660000000 -2.6075792 100.77366 -48.923321 -137.99336 -48.923946 -137.92722 -0.37393522 171.2942
1670000000 -2.6141312 100.10538 -48.914837 -138.99597 -48.886139 -139.04816 -0.37401226 171.23824
1680000000 -2.6173522 99.438072 -48.860325 -139.78931 -48.846134 -140.32465 -0.37450942 171.18317
1690000000 -2.6181989 98.724632 -48.856468 -140.61781 -48.814636 -141.46278 -0.37519008 171.13147
1700000000 -2.631011 97.941849 -48.868332 -141.14526 -48.876408 -142.07292 -0.37565434 171.0788
1710000000 -2.6504419 97.184616 -48.853134 -142.09187 -48.828281 -142.08711 -0.37669566 171.02884
1720000000 -2.6730106 96.40773 -48.811409 -143.05852 -48.808556 -142.51373 -0.37718073 170.97554
1730000000 -2.6965961 95.637383 -48.785797 -143.88174 -48.754627 -143.1465 -0.37832269 170.92273
1740000000 -2.7258286 94.823814 -48.690987 -144.2574 -48.661602 -143.85294 -0.37889546 170.86978
1750000000 -2.7592807 93.989906 -48.573513 -144.56084 -48.54665 -144.67137 -0.38061795 170.81509
1760000000 -2.7941127 93.183945 -48.422672 -145.19048 -48.389977 -145.44682 -0.38121873 170.7601
1770000000 -2.8306196 92.326042 -48.287064 -145.99484 -48.243977 -146.10655 -0.38228714 170.70554
1780000000 -2.8689184 91.501236 -48.126148 -146.28883 -48.051666 -147.15123 -0.38241887 170.64828
1790000000 -2.9129047 90.668922 -47.95145 -146.37741 -47.90419 -147.86967 -0.38286185 170.59679
1800000000 -2.9608939 89.84314 -47.728146 -146.75481 -47.662323 -148.45576 -0.38413256 170.54605
1810000000 -3.0122666 88.985519 -47.537987 -148.2663 -47.428268 -149.43153 -0.38436505 170.49341
1820000000 -3.0748048 88.067131 -47.383846 -149.78815 -47.27039 -150.43912 -0.38531539 170.44414
1830000000 -3.1529677 87.111816 -47.207687 -151.39156 -47.063797 -152.01552 -0.38640377 170.39175
1840000000 -3.2456229 86.117859 -47.021809 -152.78459 -46.871723 -154.10561 -0.38782269 170.33916
1850000000 -3.3461118 85.113632 -46.832325 -154.49014 -46.672268 -156.27718 -0.38923416 170.28676
1860000000 -3.4490905 84.15667 -46.649792 -155.91484 -46.519032 -158.3667 -0.39011732 170.22798
1870000000 -3.5422511 83.31102 -46.497032 -157.18648 -46.379852 -160.5284 -0.391325 170.17519
1880000000 -3.616014 82.609451 -46.375717 -158.15924 -46.24234 -162.84088 -0.3918063 170.12125
1890000000 -3.7059252 81.896423 -46.237354 -158.73851 -46.121155 -164.9223 -0.39306065 170.06522
1900000000 -3.8428972 81.104813 -46.06459 -159.98145 -46.020435 -167.05116 -0.39300823 170.01671
1910000000 -4.0299726 80.207924 -45.928791 -162.20828 -45.929348 -168.98798 -0.39414471 169.96707
1920000000 -4.2498426 79.374817 -45.845928 -164.67473 -45.900723 -171.4501 -0.39452371 169.91747
1930000000 -4.4673576 78.655121 -45.758381 -167.24413 -45.936646 -174.35194 -0.39542696 169.87111
1940000000 -4.6873689 78.128151 -45.697361 -169.10376 -46.015224 -177.24901 -0.39713192 169.82144
1950000000 -4.8829136 77.727669 -45.655052 -170.86826 -46.198574 -179.89777 -0.39922515 169.77446
1960000000 -5.0520654 77.413162 -45.665199 -172.28596 -46.379921 178.74754 -0.40056369 169.72395
1970000000 -5.2492843 77.236893 -45.662994 -173.34538 -46.519608 178.24287 -0.40159056 169.6723
1980000000 -5.5234132 77.475899 -45.661926 -174.26752 -46.46188 178.48273 -0.40268642 169.62195
1990000000 -5.8982615 78.569908 -45.634232 -175.58905 -46.205532 178.05658 -0.40414137 169.57314
2000000000 -6.2625909 80.45282 -45.667114 -177.4637 -45.838833 176.77928 -0.40475196 169.52782
2010000000 -6.5648885 82.597992 -45.731457 -179.95958 -45.489727 174.35989 -0.40389305 169.4771
2020000000 -6.7614245 84.476791 -45.760147 178.06998 -45.168732 169.67351 -0.40383029 169.43298
