!Keysight Technologies,N5222B,MY61257109,A.17.25.03
!Date: Wednesday, July 22, 2026 17:37:06
!Correction: S11(C  2-Port  ) 
!S21(C  2-Port  ) 
!S12(C  2-Port  ) 
!S22(C  2-Port  ) 
!S2P File: Measurements: S11, S21, S12, S22:
# Hz S  dB   R 50
10000000 -1.9722551 -53.091354 -51.649872 50.771564 -51.201881 49.512371 -0.35322121 179.80652
20000000 -3.2562149 -87.367592 -48.70557 35.746544 -48.212196 33.165009 -0.33023605 179.91745
30000000 -4.0449104 -109.64587 -47.459763 26.08836 -47.198856 23.287193 -0.33009806 179.86641
40000000 -4.4818034 -124.52633 -46.984566 19.720205 -46.805038 17.421333 -0.33123416 179.80804
50000000 -4.7219319 -135.15958 -46.391205 15.563711 -46.336979 13.34253 -0.32979617 179.76506
60000000 -4.8695102 -142.89963 -46.221367 11.421428 -46.261936 10.214769 -0.32554197 179.76555
70000000 -4.9507246 -148.53838 -46.142895 8.0901794 -46.069527 7.3738832 -0.32636681 179.73349
80000000 -4.9956369 -152.81886 -45.931404 5.3141303 -45.94416 4.8652396 -0.32909968 179.59903
90000000 -5.0321174 -156.10358 -45.714523 2.8842654 -45.783516 2.150615 -0.33028075 179.54828
100000000 -5.0507417 -158.79068 -45.714603 0.3298623 -45.693031 0.068654224 -0.3295314 179.49265
110000000 -5.0613813 -161.06348 -45.615524 -1.6170695 -45.580631 -2.3176908 -0.33008412 179.44319
120000000 -5.063777 -162.95143 -45.540615 -3.8708231 -45.53125 -4.7154984 -0.33110172 179.39101
130000000 -5.0555778 -164.61516 -45.457279 -5.5826468 -45.51548 -6.5170021 -0.32987353 179.33223
140000000 -5.039813 -166.13707 -45.442619 -8.3319912 -45.445656 -9.1878357 -0.32885844 179.27728
150000000 -5.0209913 -167.43475 -45.429562 -11.035345 -45.455036 -11.605945 -0.32891652 179.22272
160000000 -4.9939713 -168.60391 -45.480209 -13.773779 -45.51302 -13.999355 -0.327407 179.1657
170000000 -4.9810481 -169.74991 -45.656715 -15.040963 -45.670883 -15.779613 -0.32787988 179.11465
180000000 -4.9724545 -170.64583 -45.671173 -16.911068 -45.677132 -17.310297 -0.32959649 179.07065
190000000 -4.949687 -171.47978 -45.696651 -19.082605 -45.690285 -19.438234 -0.33018494 179.02261
200000000 -4.9125051 -172.30531 -45.745831 -21.143656 -45.778778 -21.657827 -0.33173314 178.95512
210000000 -4.8880596 -173.0627 -45.833916 -23.339605 -45.901924 -23.801811 -0.33177587 178.90395
220000000 -4.8442054 -173.80798 -45.980934 -25.434555 -46.015125 -25.879042 -0.33208632 178.84822
230000000 -4.8064775 -174.495 -46.083092 -27.227369 -46.153042 -27.56653 -0.32901815 178.77574
240000000 -4.7630692 -175.20074 -46.258293 -29.320313 -46.298122 -29.671301 -0.32803899 178.73256
250000000 -4.7241602 -175.77869 -46.440765 -31.183208 -46.517128 -31.536615 -0.3294602 178.67366
260000000 -4.6826005 -176.44275 -46.742939 -32.869007 -46.766796 -33.352039 -0.32704023 178.64484
270000000 -4.6396961 -177.0732 -46.898705 -33.648792 -46.98798 -33.873974 -0.32974255 178.59816
280000000 -4.6060696 -177.63596 -47.063431 -35.337166 -47.115368 -35.721546 -0.33076176 178.55147
290000000 -4.5552406 -178.25316 -47.240211 -37.041851 -47.264584 -37.419601 -0.33095032 178.50693
300000000 -4.5088105 -178.79701 -47.520851 -39.058426 -47.5606 -39.345062 -0.33182478 178.44727
310000000 -4.4571328 -179.38689 -47.824898 -41.111584 -47.891724 -41.292496 -0.33180019 178.3911
320000000 -4.4097962 -179.99365 -48.312592 -42.304142 -48.325272 -42.380207 -0.33380878 178.33757
330000000 -4.3614359 179.40497 -48.656311 -42.102718 -48.72393 -42.190716 -0.3328537 178.27632
340000000 -4.3181982 178.90193 -48.960732 -41.282005 -49.015022 -41.449657 -0.33025002 178.22928
350000000 -4.2701626 178.30191 -49.057976 -41.931602 -49.127956 -41.837193 -0.33263767 178.16986
360000000 -4.2139087 177.68657 -49.297894 -42.115345 -49.299473 -42.344669 -0.32872134 178.10573
370000000 -4.1642976 177.12894 -49.466316 -43.415333 -49.541878 -43.220875 -0.32605511 178.05913
380000000 -4.1123743 176.5206 -49.805111 -43.637699 -49.831268 -43.613979 -0.32412931 178.00142
390000000 -4.0563173 175.86081 -50.098503 -43.975018 -50.07523 -44.221786 -0.32588378 177.95375
400000000 -4.0004725 175.25905 -50.362305 -44.246235 -50.364632 -44.57354 -0.32610783 177.90134
410000000 -3.9496329 174.6196 -50.679111 -44.525345 -50.677982 -44.615837 -0.32385346 177.83669
420000000 -3.8951857 173.94334 -50.939556 -43.982201 -50.999367 -44.235043 -0.32302046 177.79146
430000000 -3.8408105 173.29425 -51.257328 -43.566738 -51.241806 -43.551834 -0.32350791 177.72783
440000000 -3.7900584 172.65416 -51.540562 -43.312744 -51.530869 -43.215401 -0.32136917 177.68199
450000000 -3.7364855 171.95584 -51.750908 -42.705357 -51.776443 -42.624886 -0.32152528 177.64236
460000000 -3.6814198 171.25752 -51.984238 -42.019672 -52.015717 -41.881794 -0.32411256 177.56808
470000000 -3.6298466 170.60255 -52.201572 -40.959492 -52.196476 -40.863293 -0.32568902 177.51997
480000000 -3.582655 169.90393 -52.459435 -40.412479 -52.432285 -40.271709 -0.32600933 177.47542
490000000 -3.5345533 169.15776 -52.635563 -39.188755 -52.658604 -39.309402 -0.3268058 177.41621
500000000 -3.4906816 168.48682 -52.844555 -38.118324 -52.838524 -38.010105 -0.32766911 177.36145
510000000 -3.4542227 167.78145 -52.964775 -37.748032 -52.912182 -37.297165 -0.32579839 177.29524
520000000 -3.4160669 167.07956 -53.065983 -35.3615 -53.11985 -35.832714 -0.32429218 177.22058
530000000 -3.3762128 166.34103 -53.253742 -34.797131 -53.249565 -35.103016 -0.32592732 177.17993
540000000 -3.3454878 165.5629 -53.450367 -33.371986 -53.426769 -33.420906 -0.3253397 177.11998
550000000 -3.3082421 164.84795 -53.563354 -32.197517 -53.48748 -31.938818 -0.32493377 177.08784
560000000 -3.27584 164.13707 -53.617542 -30.595091 -53.585583 -30.633574 -0.32632077 177.0434
570000000 -3.2554584 163.43958 -53.638371 -28.390602 -53.641178 -28.556341 -0.32354251 176.98688
580000000 -3.2255912 162.71115 -53.735718 -27.481777 -53.615223 -27.813925 -0.32478258 176.93301
590000000 -3.2006414 161.99185 -53.688618 -26.954554 -53.677273 -26.014978 -0.32732716 176.87225
600000000 -3.1825662 161.28278 -53.699528 -24.768343 -53.671642 -25.13026 -0.32818472 176.82089
610000000 -3.1548834 160.5356 -53.743996 -23.087543 -53.7747 -22.980618 -0.32961881 176.75748
620000000 -3.1400902 159.83386 -53.673107 -21.470507 -53.728676 -21.508783 -0.32963446 176.68936
630000000 -3.1222105 159.11253 -53.585484 -19.917393 -53.624134 -19.751163 -0.3301461 176.64661
640000000 -3.102788 158.34729 -53.429298 -18.349548 -53.432148 -18.039057 -0.33290401 176.58611
650000000 -3.0821567 157.64207 -53.182293 -17.330486 -53.302898 -17.387049 -0.32992491 176.54065
660000000 -3.0668509 156.93431 -53.180317 -15.705291 -53.114307 -16.436501 -0.33236268 176.48752
670000000 -3.0546012 156.26199 -53.020683 -15.749061 -53.046478 -15.621807 -0.33031398 176.42625
680000000 -3.0397093 155.56458 -53.008976 -14.497313 -52.916142 -14.491109 -0.32822993 176.39485
690000000 -3.0299351 154.8744 -52.827499 -13.303267 -52.815186 -13.191849 -0.33129644 176.33977
700000000 -3.0186031 154.20206 -52.570213 -11.730171 -52.622856 -11.906022 -0.33032319 176.28522
710000000 -3.0086069 153.51337 -52.390907 -10.740614 -52.374462 -10.563389 -0.33194464 176.23639
720000000 -3.0023944 152.82724 -52.169548 -9.4600658 -52.11097 -9.7929611 -0.33488739 176.17531
730000000 -2.9929373 152.13377 -51.816418 -8.3039007 -51.804604 -8.7779951 -0.33439922 176.1268
740000000 -2.9884672 151.43733 -51.465435 -7.9709888 -51.488098 -8.1414394 -0.33860555 176.08749
750000000 -2.9811947 150.75677 -51.122196 -7.3002906 -51.106918 -8.1315994 -0.3373884 176.0137
760000000 -2.9767666 150.1235 -50.779839 -7.8609171 -50.724789 -8.3847446 -0.33522406 175.97346
770000000 -2.9784992 149.48633 -50.415058 -8.6221571 -50.385288 -9.0431652 -0.33725858 175.90158
780000000 -2.9862287 148.8999 -50.114532 -9.7648382 -50.022278 -9.755126 -0.33304179 175.86797
790000000 -2.9887068 148.34389 -49.737953 -11.321718 -49.693428 -10.844728 -0.33424044 175.82706
800000000 -2.991251 147.78885 -49.413414 -12.327166 -49.407528 -12.195793 -0.33538288 175.77216
810000000 -2.9952815 147.2442 -49.183384 -14.14051 -49.151527 -14.072165 -0.33546147 175.71852
820000000 -2.9887912 146.73805 -49.085098 -16.433641 -49.065296 -16.371698 -0.33857003 175.66321
830000000 -2.979296 146.14461 -49.010281 -17.055706 -49.010876 -17.425425 -0.33934528 175.6042
840000000 -2.9762282 145.50636 -48.853699 -17.512241 -48.855011 -17.742611 -0.33777562 175.56339
850000000 -2.9869537 144.89053 -48.529106 -17.810869 -48.505199 -18.219021 -0.34303197 175.50066
860000000 -2.996666 144.40422 -48.080315 -19.798805 -48.112541 -20.328169 -0.33835649 175.44516
870000000 -2.9975681 144.01352 -47.854527 -22.812988 -47.867256 -22.969492 -0.33992776 175.40118
880000000 -2.9937356 143.57083 -47.601284 -25.924656 -47.573864 -25.617311 -0.33941582 175.35126
890000000 -2.9822125 143.1264 -47.487228 -28.954313 -47.376781 -28.928368 -0.33813545 175.31689
900000000 -2.9762616 142.68402 -47.359207 -32.973793 -47.295868 -33.059719 -0.33850119 175.27104
910000000 -2.9591908 142.27403 -47.375275 -37.636276 -47.354153 -37.577019 -0.33811724 175.21254
920000000 -2.9352858 141.8466 -47.523003 -41.997345 -47.542015 -41.965717 -0.33873206 175.16278
930000000 -2.8969686 141.38403 -47.933285 -46.49984 -47.939323 -46.617332 -0.34020799 175.10287
940000000 -2.8531938 140.81136 -48.600758 -50.174328 -48.649029 -50.25407 -0.33754927 175.05719
950000000 -2.8131447 140.13817 -49.46418 -51.869438 -49.498375 -52.247211 -0.34144136 175.01656
960000000 -2.7767348 139.42569 -50.379032 -50.817825 -50.368484 -51.122967 -0.34222525 174.95259
970000000 -2.7531495 138.70699 -51.036934 -48.499706 -50.998135 -48.67812 -0.33970326 174.90652
980000000 -2.741962 137.93248 -51.473377 -43.514019 -51.462738 -43.818901 -0.34135231 174.85446
990000000 -2.7439501 137.15457 -51.461178 -38.325062 -51.412769 -38.640629 -0.33804256 174.79974
1000000000 -2.7558341 136.43571 -51.059746 -35.240765 -51.002441 -35.118198 -0.33692622 174.74898
1010000000 -2.7774012 135.80267 -50.563541 -34.042732 -50.483677 -34.144917 -0.33649656 174.69353
1020000000 -2.7902536 135.24387 -50.148262 -34.923729 -50.122852 -35.077965 -0.33686441 174.6284
1030000000 -2.7962191 134.6685 -49.971786 -35.26503 -49.980198 -35.185131 -0.33912081 174.56708
1040000000 -2.8066165 134.11894 -49.760563 -36.054699 -49.72015 -36.123894 -0.34167185 174.51527
1050000000 -2.8142655 133.62039 -49.47121 -37.203632 -49.51125 -37.590382 -0.34247172 174.4689
1060000000 -2.8160682 133.15842 -49.473297 -38.75164 -49.388443 -38.791264 -0.34459597 174.42346
1070000000 -2.8215282 132.69473 -49.333496 -39.718956 -49.267918 -39.703201 -0.34473047 174.37486
1080000000 -2.81826 132.2137 -49.261925 -40.743042 -49.226753 -40.735466 -0.34596318 174.32957
1090000000 -2.8248155 131.72765 -49.074257 -41.112724 -49.01503 -41.077679 -0.34465173 174.27913
1100000000 -2.8297796 131.29152 -48.821884 -42.625595 -48.772785 -42.801373 -0.34332752 174.2197
1110000000 -2.828124 130.88129 -48.675583 -45.483601 -48.641121 -45.464985 -0.34287706 174.16711
1120000000 -2.8189831 130.47369 -48.593197 -48.437984 -48.569111 -48.313484 -0.34333116 174.10632
1130000000 -2.8037672 130.00151 -48.721951 -51.303047 -48.735523 -51.222275 -0.34313673 174.0472
1140000000 -2.7892389 129.50259 -48.949036 -53.060909 -48.935223 -53.316181 -0.34424484 173.9866
1150000000 -2.7794743 128.97237 -49.148144 -54.703785 -49.139938 -54.9575 -0.34399098 173.93713
1160000000 -2.7644031 128.46872 -49.359398 -55.783939 -49.34164 -56.001328 -0.34453964 173.89326
1170000000 -2.7499585 127.99048 -49.522804 -57.001102 -49.496056 -57.412933 -0.34730276 173.85013
1180000000 -2.731281 127.43378 -49.851452 -58.309353 -49.810165 -58.46106 -0.34822121 173.80508
1190000000 -2.7224286 126.84208 -50.05381 -57.135201 -50.015831 -57.643745 -0.34873646 173.75543
1200000000 -2.7243011 126.31356 -49.985371 -57.480625 -49.940483 -57.605721 -0.34771106 173.70369
1210000000 -2.7149153 125.80532 -50.046726 -59.045708 -50.00935 -58.828545 -0.34624013 173.6492
1220000000 -2.7045841 125.282 -50.179447 -59.712952 -50.17255 -59.862164 -0.34512535 173.58501
1230000000 -2.6953738 124.73351 -50.25668 -60.298946 -50.289635 -60.298359 -0.34437206 173.5173
1240000000 -2.6843948 124.19244 -50.430916 -61.033337 -50.421898 -61.27998 -0.34437317 173.45615
1250000000 -2.6728842 123.66592 -50.664688 -61.426445 -50.632221 -61.439888 -0.34520385 173.40199
1260000000 -2.6612544 123.11559 -50.776989 -61.008911 -50.720791 -61.072903 -0.34726071 173.36433
1270000000 -2.6544776 122.59467 -50.825157 -61.450981 -50.790024 -61.398632 -0.3496179 173.32761
1280000000 -2.643832 122.03517 -50.943501 -61.100235 -50.91116 -61.267185 -0.3517229 173.28761
1290000000 -2.6401563 121.48148 -50.98225 -60.364647 -50.927776 -60.509174 -0.35182729 173.23422
1300000000 -2.6395545 120.95939 -50.795326 -60.332058 -50.774464 -60.308228 -0.35056263 173.17873
1310000000 -2.6366129 120.44124 -50.820679 -61.363758 -50.724907 -61.19355 -0.34859228 173.12384
1320000000 -2.6289289 119.92083 -50.709145 -62.343418 -50.672817 -62.302719 -0.34679469 173.06204
1330000000 -2.6223426 119.37704 -50.700935 -63.121346 -50.703758 -63.331276 -0.3455385 172.9978
1340000000 -2.6114483 118.84495 -50.729687 -64.755081 -50.722626 -64.572784 -0.34711462 172.9355
1350000000 -2.6021395 118.30598 -50.811642 -65.907295 -50.848656 -65.867706 -0.3498272 172.88504
1360000000 -2.5950127 117.73405 -51.054123 -66.341179 -51.052979 -66.564064 -0.35178688 172.84378
1370000000 -2.5914872 117.19383 -51.112785 -66.59774 -51.106583 -66.641212 -0.35388592 172.80446
1380000000 -2.5885108 116.641 -51.167618 -66.958603 -51.141262 -67.050407 -0.35498017 172.76471
1390000000 -2.5868573 116.1078 -51.236706 -67.689735 -51.189705 -67.518295 -0.35484338 172.71202
1400000000 -2.5841992 115.56475 -51.316254 -67.806969 -51.259033 -68.088737 -0.35207489 172.65535
1410000000 -2.5821242 115.00824 -51.347763 -68.540108 -51.320213 -68.604385 -0.34895498 172.59691
1420000000 -2.5793509 114.48013 -51.424534 -69.00753 -51.376057 -69.278664 -0.34781593 172.53917
1430000000 -2.5732663 113.91142 -51.584408 -69.669373 -51.569088 -70.053246 -0.34830534 172.4772
1440000000 -2.5696006 113.309 -51.769939 -69.980621 -51.756966 -69.874832 -0.35027725 172.41614
1450000000 -2.5731196 112.72122 -51.861958 -68.919762 -51.835213 -69.010231 -0.35298592 172.36597
1460000000 -2.5793161 112.14088 -51.765469 -67.828064 -51.769348 -68.112373 -0.35515407 172.31621
1470000000 -2.5877676 111.61395 -51.566269 -67.94622 -51.549252 -68.059883 -0.3559216 172.27075
1480000000 -2.5848963 111.10355 -51.45348 -69.14399 -51.39249 -69.210732 -0.35701922 172.22438
1490000000 -2.5851507 110.57127 -51.393028 -69.548637 -51.357559 -70.055252 -0.35622647 172.1707
1500000000 -2.5848126 110.02669 -51.320335 -70.684784 -51.31636 -70.746948 -0.35378173 172.1165
1510000000 -2.5812213 109.48701 -51.331211 -71.953079 -51.314762 -72.14859 -0.35230395 172.05847
1520000000 -2.5785756 108.93099 -51.414627 -72.715202 -51.372784 -72.831566 -0.35130131 172.0024
1530000000 -2.5782962 108.333 -51.401569 -72.956604 -51.373787 -72.989708 -0.35328355 171.94736
1540000000 -2.5833175 107.79547 -51.236675 -73.813751 -51.219681 -73.901367 -0.35526502 171.89191
1550000000 -2.5804448 107.24092 -51.183952 -75.89492 -51.194134 -75.862732 -0.35691831 171.83763
1560000000 -2.5801268 106.6688 -51.247871 -77.13147 -51.257366 -77.163689 -0.35854298 171.79128
1570000000 -2.5797882 106.116 -51.313358 -78.739868 -51.297707 -78.804314 -0.35852104 171.74194
1580000000 -2.576375 105.53307 -51.430717 -79.65239 -51.430309 -79.802078 -0.35855564 171.68758
1590000000 -2.5755007 104.92068 -51.544975 -80.209465 -51.526428 -80.545509 -0.35861918 171.63506
1600000000 -2.5817823 104.32305 -51.589329 -80.694931 -51.548008 -81.185974 -0.35743067 171.58171
1610000000 -2.5882769 103.73328 -51.592907 -81.872971 -51.601074 -82.143478 -0.35767969 171.52887
1620000000 -2.5909023 103.15076 -51.679726 -82.802109 -51.603252 -82.940849 -0.35688907 171.47137
1630000000 -2.5916164 102.5554 -51.699196 -83.950813 -51.670986 -84.044472 -0.35785988 171.41754
1640000000 -2.5917959 101.92323 -51.775101 -85.185226 -51.719761 -85.099136 -0.35896191 171.36327
1650000000 -2.5960519 101.26576 -51.84269 -86.089935 -51.808655 -86.243942 -0.35983527 171.3058
1660000000 -2.6003711 100.57916 -51.944958 -87.046562 -51.950832 -87.06945 -0.35947111 171.2493
1670000000 -2.6097195 99.917419 -51.996044 -87.180801 -51.981495 -87.603607 -0.36024955 171.19894
1680000000 -2.6165459 99.245689 -52.065029 -88.620155 -52.043892 -88.546432 -0.36110377 171.14438
1690000000 -2.6208401 98.530563 -52.217373 -89.625404 -52.22694 -89.527596 -0.36143404 171.09329
1700000000 -2.6331332 97.769463 -52.314793 -89.213547 -52.306789 -89.516899 -0.36144811 171.04572
1710000000 -2.6508713 97.005127 -52.360725 -89.427055 -52.332165 -89.442955 -0.36254653 170.99377
1720000000 -2.6691213 96.240852 -52.380711 -89.185753 -52.323746 -89.533463 -0.36259353 170.9352
1730000000 -2.6910257 95.435608 -52.284832 -89.041183 -52.234745 -89.687073 -0.36223757 170.88577
1740000000 -2.719553 94.593231 -52.161491 -89.789558 -52.093616 -89.799133 -0.36267683 170.83029
1750000000 -2.7563269 93.711784 -51.973541 -90.828537 -51.946991 -90.690811 -0.36366186 170.77342
1760000000 -2.7954147 92.870689 -51.84586 -92.276619 -51.789272 -92.043503 -0.36492103 170.71564
1770000000 -2.8367596 91.998161 -51.736633 -93.0923 -51.703445 -92.950958 -0.36620256 170.66406
1780000000 -2.8825934 91.115547 -51.59483 -94.43634 -51.603317 -94.598267 -0.36677855 170.60837
1790000000 -2.9383783 90.194824 -51.40337 -95.626442 -51.460529 -96.139847 -0.36722755 170.55417
1800000000 -2.9990537 89.280884 -51.247581 -97.586052 -51.221222 -98.223557 -0.36687854 170.50513
1810000000 -3.0672593 88.308922 -51.116863 -100.12818 -51.101444 -100.82514 -0.36705208 170.45732
1820000000 -3.1420853 87.329453 -51.046623 -102.20113 -51.034527 -103.06725 -0.36889836 170.41066
1830000000 -3.2416661 86.273529 -51.029179 -104.60509 -50.940582 -105.25617 -0.36912522 170.36301
1840000000 -3.3656898 85.189064 -50.92165 -107.37565 -50.846104 -108.10925 -0.36957166 170.31821
1850000000 -3.5168154 84.055069 -50.871094 -110.47126 -50.816532 -110.8659 -0.37105334 170.25955
1860000000 -3.6829407 82.964928 -50.842144 -113.39776 -50.839443 -114.02033 -0.37237754 170.19356
1870000000 -3.8597145 81.967949 -50.813152 -116.05357 -50.86319 -116.70179 -0.37248868 170.13918
1880000000 -4.0433764 81.117699 -50.879803 -118.19287 -50.972385 -119.6091 -0.37212485 170.08437
1890000000 -4.2559557 80.353775 -50.882576 -120.83154 -51.10741 -121.68478 -0.37260374 170.02545
1900000000 -4.5113392 79.738388 -50.968498 -122.98766 -51.129871 -123.4613 -0.37223712 169.97444
1910000000 -4.8144321 79.35067 -51.125301 -125.28463 -51.06818 -124.48546 -0.37390363 169.93668
1920000000 -5.13624 79.30722 -51.230515 -126.5696 -50.820881 -125.09669 -0.37632641 169.89944
1930000000 -5.4750543 79.708893 -51.27924 -127.16821 -50.350262 -126.06705 -0.37827298 169.85898
1940000000 -5.8128662 80.622452 -51.002312 -127.42078 -49.61795 -128.68767 -0.37926918 169.81004
1950000000 -6.1256514 81.90049 -50.503082 -128.683 -48.853233 -132.97011 -0.37900138 169.75223
1960000000 -6.377459 83.220863 -49.897644 -130.35301 -48.081272 -139.1075 -0.37954658 169.69478
1970000000 -6.6073713 84.780014 -49.097237 -133.80283 -47.398388 -146.21652 -0.37847576 169.63541
1980000000 -6.7872362 86.700348 -48.243973 -139.05347 -46.813038 -155.32304 -0.37831789 169.57785
1990000000 -6.9313936 89.195709 -47.33593 -147.94199 -46.309525 -165.78415 -0.37947512 169.52301
2000000000 -7.0050488 91.784798 -46.611191 -158.3732 -45.947227 -177.74387 -0.38085502 169.47635
2010000000 -7.008842 94.267418 -46.135941 -169.28056 -45.655689 171.70772 -0.38362554 169.43388
2020000000 -6.9307399 96.862579 -45.831425 178.72371 -45.540707 160.54475 -0.38536489 169.39241
