!Keysight Technologies,N5222B,MY61257109,A.17.25.03
!Date: Wednesday, July 22, 2026 17:48:55
!Correction: S11(C  2-Port  ) 
!S21(C  2-Port  ) 
!S12(C  2-Port  ) 
!S22(C  2-Port  ) 
!S2P File: Measurements: S11, S21, S12, S22:
# Hz S  dB   R 50
10000000 -1.8764193 -48.962151 -53.070675 50.850266 -51.420422 45.850044 -0.33781087 179.97488
20000000 -3.0629287 -81.195358 -49.520058 33.624599 -48.585236 28.11911 -0.33170325 179.92543
30000000 -3.8741477 -103.65661 -48.253216 21.28727 -47.622078 14.143297 -0.33143446 179.86707
40000000 -4.3664823 -119.3643 -47.747375 12.250859 -47.443096 4.5535235 -0.33083102 179.817
50000000 -4.6620364 -131.09108 -47.198223 4.9871802 -47.262188 -1.7605852 -0.3294183 179.77672
60000000 -4.8445945 -139.85616 -47.284889 -2.5195816 -47.333733 -7.4117627 -0.33087236 179.7438
70000000 -4.9537921 -146.35995 -47.347565 -8.3753099 -47.483265 -12.406119 -0.32948783 179.69063
80000000 -5.012218 -151.29082 -47.404953 -13.243177 -47.640202 -16.9126 -0.33050114 179.59683
90000000 -5.0599737 -154.9464 -47.483574 -17.896374 -47.755737 -21.184839 -0.33141547 179.54436
100000000 -5.0892911 -157.82097 -47.799603 -22.18017 -47.984634 -24.84808 -0.32922256 179.49193
110000000 -5.1093392 -160.17883 -47.939262 -25.675686 -48.198677 -28.830008 -0.32879308 179.43304
120000000 -5.1221867 -162.15007 -48.14669 -29.145432 -48.484127 -31.979763 -0.32902485 179.38124
130000000 -5.1215658 -163.92964 -48.390224 -32.060707 -48.825142 -35.098557 -0.32802531 179.32497
140000000 -5.1075625 -165.57396 -48.668228 -35.826664 -49.066711 -38.409779 -0.32725376 179.26587
150000000 -5.0860114 -166.97922 -49.008488 -39.368706 -49.411861 -41.626175 -0.32716137 179.21677
160000000 -5.0573354 -168.2368 -49.419746 -42.610371 -49.88773 -44.401485 -0.32819253 179.16393
170000000 -5.0458903 -169.41667 -50.000168 -45.029255 -50.397163 -46.648216 -0.32702124 179.11263
180000000 -5.045938 -170.34064 -50.228935 -46.116302 -50.662979 -47.37711 -0.32782933 179.07251
190000000 -5.0334315 -171.14139 -50.455299 -48.199562 -50.8503 -49.396374 -0.32732242 179.01456
200000000 -5.0069375 -171.96886 -50.775101 -50.068142 -51.300663 -51.202847 -0.32778579 178.95259
210000000 -4.9826908 -172.74776 -51.179474 -51.867508 -51.654266 -52.880531 -0.32764146 178.89693
220000000 -4.9373355 -173.49318 -51.57629 -53.947708 -52.059139 -54.966209 -0.32681751 178.84819
230000000 -4.8885202 -174.26727 -51.968292 -55.427128 -52.496288 -55.608238 -0.32692972 178.7868
240000000 -4.8450155 -174.92203 -52.372475 -57.05257 -52.771999 -56.797985 -0.32590359 178.73238
250000000 -4.8009496 -175.56445 -52.794411 -58.690456 -53.092617 -59.091801 -0.32583773 178.67509
260000000 -4.7732487 -176.12564 -53.2514 -59.657681 -53.676052 -58.904411 -0.32686245 178.63042
270000000 -4.7391162 -176.77078 -53.707165 -59.188171 -54.248737 -59.12373 -0.32797143 178.58403
280000000 -4.7082653 -177.32336 -53.81871 -59.86219 -54.30307 -59.457691 -0.32885647 178.53999
290000000 -4.6604004 -177.87871 -54.052124 -60.868568 -54.616631 -60.28228 -0.3283768 178.48305
300000000 -4.6023345 -178.4839 -54.504589 -62.603008 -54.846653 -62.081432 -0.32825729 178.42805
310000000 -4.5320802 -179.15332 -55.071655 -64.53257 -55.408634 -63.761559 -0.32810041 178.37971
320000000 -4.4801354 -179.7352 -55.777328 -65.663078 -56.061092 -65.464882 -0.32790303 178.3131
330000000 -4.435935 179.67203 -56.577972 -64.194313 -56.953224 -62.774307 -0.32731208 178.26483
340000000 -4.3947239 179.14546 -57.070545 -60.502888 -57.439064 -59.432961 -0.32671314 178.207
350000000 -4.3603635 178.6321 -57.110493 -58.630688 -57.440121 -58.525517 -0.32624626 178.15292
360000000 -4.3152561 178.10481 -57.199177 -58.061554 -57.535416 -56.514221 -0.32754183 178.10025
370000000 -4.2560968 177.48042 -57.371605 -58.148003 -57.6796 -56.675983 -0.32897821 178.05255
380000000 -4.1863275 176.82581 -57.626968 -57.450642 -58.042675 -55.890888 -0.32898518 178.00121
390000000 -4.1193166 176.17178 -57.942303 -57.074986 -58.151058 -56.092743 -0.32986012 177.94878
400000000 -4.0530381 175.49286 -58.301483 -56.551098 -58.457176 -54.988216 -0.32969815 177.90042
410000000 -3.9928696 174.80849 -58.693024 -56.375332 -58.805004 -55.179649 -0.32973024 177.84256
420000000 -3.9458659 174.22966 -59.042763 -55.019386 -59.147419 -54.278214 -0.32984421 177.78839
430000000 -3.9037054 173.63005 -59.277081 -53.417328 -59.511684 -52.366089 -0.32926193 177.73227
440000000 -3.8577297 172.99055 -59.468449 -52.044273 -59.701824 -50.092659 -0.32959145 177.68431
450000000 -3.8037796 172.34016 -59.696487 -50.030087 -59.849884 -48.621777 -0.32785919 177.63159
460000000 -3.7383406 171.62202 -59.916538 -47.877483 -60.095108 -47.312572 -0.32828718 177.57411
470000000 -3.6709216 170.83249 -60.069149 -45.932236 -60.217957 -44.643696 -0.32989725 177.52423
480000000 -3.6116855 170.0905 -60.201324 -43.719696 -60.478424 -43.006584 -0.33004835 177.48322
490000000 -3.5634532 169.38815 -60.429085 -41.458923 -60.331177 -40.389126 -0.32964703 177.42189
500000000 -3.5208802 168.66676 -60.376514 -39.682972 -60.514584 -38.80022 -0.33130342 177.36588
510000000 -3.4854963 167.96152 -60.28846 -37.991814 -60.582134 -37.033669 -0.33097517 177.31889
520000000 -3.4506779 167.31186 -60.386379 -36.383152 -60.331139 -35.19788 -0.33154342 177.25798
530000000 -3.4084437 166.56123 -60.278587 -35.220188 -60.440701 -32.652523 -0.33235681 177.2093
540000000 -3.3702359 165.76361 -60.403133 -32.816875 -60.587276 -29.959286 -0.33251724 177.14882
550000000 -3.3292708 165.00102 -60.405193 -30.013992 -60.386181 -30.838003 -0.33197287 177.10312
560000000 -3.2906182 164.24609 -60.348297 -28.867495 -60.552387 -27.275042 -0.3329778 177.05562
570000000 -3.2681777 163.51915 -60.163399 -26.725838 -60.236027 -26.884684 -0.33223274 176.99521
580000000 -3.2395868 162.7731 -59.972275 -24.814089 -60.140167 -25.978617 -0.33284897 176.94131
590000000 -3.214998 162.05057 -59.834423 -24.221659 -60.111549 -23.29376 -0.33392593 176.89099
600000000 -3.1984606 161.35565 -59.821594 -22.888779 -59.56105 -21.03002 -0.33524671 176.84276
610000000 -3.1703048 160.60175 -59.693966 -20.279575 -59.713516 -20.406689 -0.33492821 176.78696
620000000 -3.1511228 159.88823 -59.490047 -18.07299 -59.537888 -16.766375 -0.33507305 176.72932
630000000 -3.1328027 159.16063 -59.183922 -15.439436 -59.052715 -15.927682 -0.33465952 176.67891
640000000 -3.1107998 158.40121 -58.682812 -14.815471 -58.703236 -14.707349 -0.33514267 176.62177
650000000 -3.0907972 157.70557 -58.463947 -14.523305 -58.432793 -14.495639 -0.33526516 176.57056
660000000 -3.0764914 156.98444 -58.186005 -13.861317 -58.159866 -14.116301 -0.33576909 176.51768
670000000 -3.0618825 156.3053 -57.887276 -13.86554 -57.918804 -12.997791 -0.33660567 176.46729
680000000 -3.0485921 155.60229 -57.728836 -12.780833 -57.658585 -12.552553 -0.33628932 176.42128
690000000 -3.0376396 154.88177 -57.475441 -11.851713 -57.359222 -12.406273 -0.33729804 176.36783
700000000 -3.0255995 154.18431 -57.160385 -10.750846 -57.15707 -10.608977 -0.33728459 176.31905
710000000 -3.0157928 153.47971 -56.741394 -9.9765472 -56.848351 -10.123733 -0.33769166 176.26482
720000000 -3.0080137 152.79601 -56.260853 -9.2523947 -56.316895 -8.4065495 -0.33731145 176.2081
730000000 -2.9996645 152.1181 -55.762192 -9.1034269 -55.778511 -8.6947517 -0.33776078 176.15297
740000000 -2.9952765 151.43808 -55.316105 -9.1317472 -55.389393 -8.6500816 -0.33840883 176.09875
750000000 -2.9875758 150.76846 -54.763168 -10.080317 -54.772209 -9.4709902 -0.33817768 176.05106
760000000 -2.9847245 150.13362 -54.263168 -11.111809 -54.275005 -10.997281 -0.33849812 176.00105
770000000 -2.9847014 149.47659 -53.786247 -12.501491 -53.774258 -12.250848 -0.33926186 175.9491
780000000 -2.9924917 148.86836 -53.328083 -13.797586 -53.423874 -13.86132 -0.3402805 175.90109
790000000 -2.9967709 148.28735 -52.877308 -15.762015 -52.896282 -16.108154 -0.3405109 175.84714
800000000 -3.0001822 147.71359 -52.534294 -17.985964 -52.559387 -18.510494 -0.34144753 175.80087
810000000 -3.0051982 147.17435 -52.149456 -20.796478 -52.193016 -20.856146 -0.34087238 175.74489
820000000 -3.0002508 146.68019 -51.978546 -24.408724 -51.983246 -23.705397 -0.34102079 175.68948
830000000 -2.9895229 146.11429 -51.887768 -26.122663 -51.87344 -25.585768 -0.34161443 175.63397
840000000 -2.9877751 145.48351 -51.704746 -26.616503 -51.716354 -26.260019 -0.34133077 175.57899
850000000 -2.9996951 144.86974 -51.169968 -27.24478 -51.149643 -27.194853 -0.34185892 175.52748
860000000 -3.0113847 144.38612 -50.596664 -30.343477 -50.622448 -30.412653 -0.34226727 175.47954
870000000 -3.0143673 143.99295 -50.203869 -34.311909 -50.230103 -34.16008 -0.34228939 175.43169
880000000 -3.0106566 143.5515 -49.896313 -37.862343 -49.879852 -37.790005 -0.34297258 175.38921
890000000 -3.0011578 143.09717 -49.610275 -41.442257 -49.58469 -42.017029 -0.3438803 175.34154
900000000 -2.9964471 142.64923 -49.348873 -46.194523 -49.377777 -47.037273 -0.34355977 175.29671
910000000 -2.9807703 142.2579 -49.210518 -51.885715 -49.251045 -52.211994 -0.34364858 175.2431
920000000 -2.9563444 141.84949 -49.242336 -57.901466 -49.197117 -57.696671 -0.34287789 175.19165
930000000 -2.9135325 141.42142 -49.478592 -64.723228 -49.397648 -64.222908 -0.34352112 175.13649
940000000 -2.8670244 140.86635 -50.10453 -70.70089 -50.051498 -70.237473 -0.34303561 175.08264
950000000 -2.8255875 140.20639 -50.945431 -74.978073 -50.889458 -75.252953 -0.34407055 175.0257
960000000 -2.784457 139.49254 -51.994846 -77.030373 -52.031925 -77.105507 -0.34447575 174.97566
970000000 -2.7617905 138.76266 -52.941761 -76.499298 -52.919922 -76.752907 -0.34414956 174.92151
980000000 -2.7497895 137.97954 -53.76873 -72.750168 -53.804741 -72.56665 -0.34410641 174.87204
990000000 -2.7513747 137.19518 -54.130688 -67.26004 -54.263741 -67.343987 -0.34410474 174.82239
1000000000 -2.7645905 136.45183 -53.903713 -61.280678 -54.003521 -61.324917 -0.34370968 174.77069
1010000000 -2.7870648 135.83389 -53.39613 -58.753883 -53.3311 -58.576359 -0.34300703 174.71249
1020000000 -2.801327 135.28484 -52.810776 -59.283932 -52.728886 -59.220673 -0.34364831 174.65225
1030000000 -2.8067179 134.72482 -52.53397 -59.977127 -52.434017 -59.561272 -0.3443729 174.59273
1040000000 -2.8156672 134.18375 -52.248146 -60.195393 -52.181576 -59.834896 -0.34680533 174.54073
1050000000 -2.8237784 133.67821 -51.880718 -61.085468 -51.843712 -61.013023 -0.34842399 174.49014
1060000000 -2.8265145 133.20338 -51.638836 -62.716637 -51.628033 -62.730713 -0.34888428 174.44325
1070000000 -2.8326714 132.74541 -51.355991 -64.214355 -51.358692 -64.473358 -0.34946191 174.3924
1080000000 -2.8287034 132.26643 -51.266048 -65.669785 -51.333569 -65.937225 -0.34860098 174.34383
1090000000 -2.8353486 131.76727 -51.021118 -65.621063 -51.050968 -66.444801 -0.34867418 174.29282
1100000000 -2.8405323 131.33675 -50.629757 -67.395142 -50.65731 -67.611282 -0.34880602 174.23656
1110000000 -2.8407056 130.92581 -50.289875 -70.4963 -50.236027 -70.465286 -0.34898245 174.18185
1120000000 -2.8319421 130.53935 -50.031784 -73.896309 -49.964409 -73.777412 -0.35013893 174.12683
1130000000 -2.8155489 130.07739 -50.03627 -78.047516 -50.015873 -77.289902 -0.35043916 174.07315
1140000000 -2.7991745 129.58809 -50.099621 -81.014565 -50.061615 -81.063927 -0.35100323 174.02278
1150000000 -2.7881329 129.05405 -50.222233 -83.557602 -50.190975 -83.873238 -0.35077479 173.97609
1160000000 -2.7735844 128.54819 -50.33997 -85.592247 -50.328926 -85.549126 -0.35118818 173.92281
1170000000 -2.7596989 128.0732 -50.369747 -87.543808 -50.416897 -87.617737 -0.35171136 173.87399
1180000000 -2.7406549 127.52464 -50.537552 -89.723282 -50.582573 -89.590584 -0.3519918 173.82451
1190000000 -2.7317305 126.92833 -50.762672 -89.787819 -50.802387 -90.721291 -0.35241428 173.77391
1200000000 -2.7327847 126.41003 -50.663288 -90.344315 -50.73455 -90.496681 -0.35254934 173.72234
1210000000 -2.7218568 125.89666 -50.634682 -92.386528 -50.658428 -92.205795 -0.35304713 173.66965
1220000000 -2.7111821 125.37328 -50.721684 -94.318626 -50.681248 -93.626251 -0.35347366 173.6138
1230000000 -2.7008631 124.82681 -50.80378 -95.7864 -50.749638 -95.191872 -0.35369495 173.55608
1240000000 -2.6888154 124.287 -50.866886 -97.631607 -50.819523 -97.358704 -0.3531718 173.50044
1250000000 -2.6786616 123.76476 -50.998512 -98.852364 -50.979408 -98.598488 -0.35392943 173.44702
1260000000 -2.6670091 123.21893 -51.138458 -99.410172 -51.074253 -99.053505 -0.35393813 173.3961
1270000000 -2.6595316 122.70004 -51.146019 -100.06678 -51.179089 -100.31184 -0.3542729 173.34445
1280000000 -2.6482906 122.13735 -51.238358 -100.58367 -51.28619 -100.83952 -0.35515827 173.29469
1290000000 -2.6430397 121.57687 -51.321785 -100.12856 -51.364174 -100.83455 -0.35526052 173.24774
1300000000 -2.6422801 121.04594 -51.193279 -100.01131 -51.228745 -100.30626 -0.35579684 173.19754
1310000000 -2.6391816 120.52376 -51.064175 -101.00125 -51.02034 -100.89334 -0.35607332 173.1458
1320000000 -2.6336906 120.00523 -50.920017 -102.20087 -50.874016 -101.69293 -0.35660806 173.09485
1330000000 -2.6283116 119.46645 -50.838112 -103.57538 -50.763882 -103.11492 -0.35668421 173.03914
1340000000 -2.618809 118.94431 -50.741989 -105.4147 -50.627316 -104.59673 -0.35737106 172.98291
1350000000 -2.6104877 118.41637 -50.705124 -106.90106 -50.682129 -106.97673 -0.35848281 172.92874
1360000000 -2.6026957 117.86156 -50.764572 -108.59687 -50.77195 -108.66887 -0.35890847 172.87766
1370000000 -2.596463 117.31863 -50.771278 -109.28836 -50.813728 -109.23975 -0.35941094 172.82539
1380000000 -2.5919454 116.76492 -50.748489 -109.89313 -50.785236 -110.62434 -0.3592099 172.7793
1390000000 -2.5871797 116.23184 -50.705513 -110.71767 -50.752525 -111.38741 -0.35961172 172.72762
1400000000 -2.5833046 115.67432 -50.688702 -111.89735 -50.726665 -112.6364 -0.35995874 172.67908
1410000000 -2.5805929 115.10899 -50.68642 -113.12173 -50.68856 -113.05054 -0.36028582 172.6274
1420000000 -2.5810726 114.5731 -50.679508 -114.51205 -50.651661 -113.83399 -0.36078 172.57137
1430000000 -2.5783927 114.01041 -50.720352 -116.05624 -50.67889 -115.56129 -0.36159468 172.51711
1440000000 -2.5770659 113.41849 -50.842594 -117.23736 -50.77774 -116.49788 -0.36240894 172.46057
1450000000 -2.5813339 112.83953 -50.953114 -117.5192 -50.984749 -117.13303 -0.36334297 172.40834
1460000000 -2.5865264 112.26635 -50.943764 -117.13798 -50.95438 -116.85217 -0.36345723 172.35188
1470000000 -2.5927322 111.73837 -50.848957 -116.53116 -50.831707 -116.69885 -0.3634606 172.30083
1480000000 -2.5875337 111.23147 -50.590359 -116.88277 -50.595814 -117.36862 -0.36383075 172.24809
1490000000 -2.5838027 110.70248 -50.469074 -117.35242 -50.468449 -118.35545 -0.36457953 172.20009
1500000000 -2.5814812 110.13812 -50.33329 -118.1107 -50.384396 -119.13782 -0.36488587 172.14818
1510000000 -2.5799186 109.58574 -50.219887 -119.49412 -50.260002 -119.7543 -0.36501959 172.09589
1520000000 -2.5821688 109.0246 -50.189453 -120.87551 -50.148907 -120.30977 -0.36622539 172.04071
1530000000 -2.5866358 108.4445 -50.091618 -121.56565 -50.025921 -120.64838 -0.36721995 171.98941
1540000000 -2.5939734 107.92696 -49.919807 -122.09571 -49.887836 -121.61033 -0.36814713 171.93719
1550000000 -2.5905931 107.39256 -49.701561 -123.80876 -49.69598 -123.32919 -0.36927685 171.88606
1560000000 -2.5873797 106.82649 -49.598534 -125.20671 -49.610382 -125.36457 -0.36913115 171.83426
1570000000 -2.583179 106.27848 -49.499195 -126.67302 -49.505825 -126.59328 -0.36910155 171.78084
1580000000 -2.5753477 105.69965 -49.46534 -127.90181 -49.461044 -128.53447 -0.36925542 171.72325
1590000000 -2.5708985 105.08539 -49.40741 -128.5623 -49.413731 -129.34769 -0.36962211 171.67122
1600000000 -2.576896 104.47509 -49.338425 -129.4093 -49.365566 -130.52554 -0.36962634 171.61627
1610000000 -2.5836346 103.87732 -49.248241 -130.8653 -49.242596 -131.17401 -0.37089938 171.56422
1620000000 -2.5922356 103.27405 -49.180958 -132.41542 -49.187946 -131.77412 -0.37162882 171.51122
1630000000 -2.596967 102.70376 -49.094776 -133.82056 -49.03878 -133.0117 -0.3720741 171.45796
1640000000 -2.5992916 102.09157 -49.028587 -135.23373 -49.018658 -134.53308 -0.37252027 171.40363
1650000000 -2.6014726 101.46628 -48.937458 -136.65894 -48.938019 -136.3539 -0.37333462 171.34825
1660000000 -2.6026807 100.80178 -48.941151 -138.05324 -48.923733 -137.99849 -0.37392366 171.29352
1670000000 -2.6080415 100.14662 -48.91423 -138.99724 -48.918831 -139.01736 -0.37414458 171.23737
1680000000 -2.6108949 99.485123 -48.859684 -139.73239 -48.828819 -140.25462 -0.37470073 171.18343
1690000000 -2.6113183 98.78051 -48.849018 -140.58974 -48.83556 -141.73856 -0.3750419 171.13147
1700000000 -2.6229112 98.012978 -48.888672 -141.36679 -48.840244 -142.45915 -0.37624174 171.07779
1710000000 -2.6406772 97.267097 -48.87653 -142.20862 -48.856525 -142.7238 -0.37694243 171.02844
1720000000 -2.6628273 96.506645 -48.86805 -143.13437 -48.809395 -142.9068 -0.37781125 170.9751
1730000000 -2.6850135 95.770737 -48.810989 -143.64815 -48.732502 -143.02156 -0.37862855 170.92355
1740000000 -2.7118716 94.988297 -48.722198 -143.99908 -48.670017 -143.6208 -0.37951693 170.8687
1750000000 -2.7417412 94.180115 -48.595642 -144.45534 -48.525307 -144.24803 -0.38049957 170.8139
1760000000 -2.7724519 93.390335 -48.44902 -145.14873 -48.367447 -145.42984 -0.38185945 170.75885
1770000000 -2.8050389 92.570763 -48.321983 -145.70671 -48.263065 -146.14642 -0.38292122 170.70358
1780000000 -2.8365521 91.797371 -48.162563 -146.03433 -48.04842 -147.217 -0.38269025 170.64655
1790000000 -2.8697824 91.049782 -48.037094 -145.97423 -47.891773 -147.94527 -0.3832902 170.59634
1800000000 -2.9038584 90.340881 -47.818478 -146.12546 -47.666939 -148.90346 -0.38389954 170.54639
1810000000 -2.9390047 89.599861 -47.621853 -147.4223 -47.454624 -149.99901 -0.38478786 170.49545
1820000000 -2.9850466 88.774673 -47.463737 -148.97635 -47.2481 -150.86302 -0.38592109 170.44606
1830000000 -3.0467348 87.873955 -47.308887 -150.39233 -47.088425 -151.77458 -0.38634631 170.39233
1840000000 -3.1208239 86.926857 -47.115505 -151.63499 -46.881546 -153.72148 -0.38785976 170.3371
1850000000 -3.1968203 85.987076 -46.93454 -153.17535 -46.673878 -155.97243 -0.38876107 170.28561
1860000000 -3.2687483 85.106354 -46.767071 -154.43584 -46.527119 -158.37874 -0.39008304 170.22908
1870000000 -3.325609 84.351181 -46.613705 -155.63229 -46.346706 -160.51241 -0.39123917 170.1738
1880000000 -3.3639863 83.73497 -46.485352 -156.19339 -46.226776 -162.92699 -0.39162669 170.11848
1890000000 -3.4126515 83.090385 -46.348042 -156.61014 -46.137936 -165.18799 -0.39296573 170.0643
1900000000 -3.503094 82.305511 -46.180439 -157.51895 -46.009556 -167.26022 -0.39324683 170.01797
1910000000 -3.6277709 81.357185 -46.027397 -159.61966 -45.935184 -169.46461 -0.39421785 169.97043
1920000000 -3.7791829 80.379875 -45.899979 -161.9496 -45.873837 -171.76155 -0.39478791 169.91922
1930000000 -3.9266343 79.463928 -45.792294 -164.14195 -45.894981 -174.15758 -0.39555115 169.87001
1940000000 -4.0715995 78.669365 -45.70755 -165.83372 -46.03548 -176.89195 -0.39690045 169.82071
1950000000 -4.1897125 77.979698 -45.66486 -167.43744 -46.223858 -179.52319 -0.39800733 169.77272
1960000000 -4.2850509 77.371101 -45.625145 -168.5722 -46.392666 178.66704 -0.4006727 169.72322
1970000000 -4.401751 76.784554 -45.60519 -169.37631 -46.521774 178.32166 -0.40184215 169.67137
1980000000 -4.5861654 76.254623 -45.560471 -169.94882 -46.477219 178.55652 -0.40298721 169.621
1990000000 -4.8736992 75.931381 -45.469887 -170.8611 -46.219364 178.0567 -0.40366238 169.57317
2000000000 -5.2014675 75.945145 -45.399769 -172.10172 -45.793659 176.54306 -0.40441638 169.52823
2010000000 -5.5113282 76.124641 -45.309593 -174.15665 -45.467045 174.06146 -0.40406778 169.47888
2020000000 -5.7499108 76.394646 -45.169113 -176.1291 -45.19352 170.00407 -0.40376267 169.43456
