!Keysight Technologies,N5222B,MY61257109,A.17.25.03
!Date: Wednesday, July 22, 2026 17:18:58
!Correction: S11(C  2-Port  ) 
!S21(C  2-Port  ) 
!S12(C  2-Port  ) 
!S22(C  2-Port  ) 
!S2P File: Measurements: S11, S21, S12, S22:
# Hz S  dB   R 50
10000000 -0.39469126 179.64871 -57.626389 29.382429 -57.069607 31.157982 -2.0498884 -46.295082
20000000 -0.34176117 179.8954 -37.640339 30.280056 -37.634594 30.445541 -3.14485 -109.34602
30000000 -0.34464389 179.9257 -37.912495 30.135778 -37.966251 29.326159 -3.1628313 -123.58064
40000000 -0.34506622 179.89656 -34.917648 18.985146 -34.879837 18.959728 -3.0488777 -145.26387
50000000 -0.33675671 179.83626 -30.385431 -22.971773 -30.397408 -23.192371 -4.6932454 172.67647
60000000 -0.34250703 179.67908 -37.818691 -64.67054 -37.86319 -64.745842 -9.6561527 -150.47226
70000000 -0.34442866 179.65108 -43.313362 -51.198578 -43.311619 -51.34148 -7.2398114 -149.04893
80000000 -0.34026819 179.56322 -46.045856 -32.12524 -46.084492 -32.709778 -6.4660797 -152.17068
90000000 -0.34640414 179.55176 -46.957123 -8.496376 -46.925213 -8.7889872 -5.9916596 -154.94798
100000000 -0.34660965 179.52716 -45.965668 5.9707165 -46.007465 6.0356646 -5.6860094 -157.91919
110000000 -0.34654376 179.45726 -45.111309 16.549904 -45.115635 16.564028 -5.5108576 -160.10747
120000000 -0.34516656 179.44142 -43.408085 18.80662 -43.406246 19.058027 -5.2958131 -163.07036
130000000 -0.34300733 179.39363 -41.702942 6.3903394 -41.649849 6.3092628 -5.3217616 -168.62201
140000000 -0.34309807 179.33821 -43.969921 17.654367 -43.980495 17.338015 -5.5948114 -166.51599
150000000 -0.34229696 179.31813 -43.169254 23.755962 -43.182133 23.571018 -5.4657383 -167.31302
160000000 -0.34130415 179.29961 -42.545849 26.400188 -42.571594 26.324907 -5.3952851 -168.37938
170000000 -0.34393662 179.23341 -41.965282 29.502621 -41.98859 29.568232 -5.3615422 -169.30608
180000000 -0.34789109 179.20114 -41.27734 30.776754 -41.285797 30.285179 -5.3385806 -169.97453
190000000 -0.34923664 179.15657 -40.678802 31.445679 -40.68961 31.438732 -5.2846475 -170.54211
200000000 -0.34110928 179.10439 -40.029751 31.472065 -40.037849 31.368706 -5.2107248 -171.08682
210000000 -0.3462306 179.03926 -39.554806 31.319231 -39.573654 31.028904 -5.1379457 -171.67586
220000000 -0.34099278 178.99509 -39.082832 30.525789 -39.09296 30.573181 -5.0769472 -172.291
230000000 -0.3402122 178.95021 -38.528019 26.46039 -38.519932 26.400417 -4.9780674 -173.68124
240000000 -0.33868197 178.90656 -38.765926 25.107037 -38.778625 25.180363 -5.0774288 -174.22359
250000000 -0.33872646 178.87169 -38.45142 27.185818 -38.472248 26.925636 -5.0158596 -174.10141
260000000 -0.34807566 178.8476 -37.923988 27.634813 -37.936687 27.584318 -4.909205 -174.17311
270000000 -0.34822008 178.80266 -36.967163 24.407375 -36.978535 24.204315 -4.6828198 -175.04079
280000000 -0.34625947 178.76636 -37.202679 19.129879 -37.207767 19.118925 -4.7174282 -176.60318
290000000 -0.3450368 178.71301 -37.516216 16.446369 -37.507416 16.486761 -4.7810216 -177.15666
300000000 -0.34678459 178.68489 -37.786926 17.057978 -37.786102 17.087906 -4.7929587 -177.18555
310000000 -0.34548861 178.6225 -37.7015 19.318657 -37.679813 19.230207 -4.688343 -177.01527
320000000 -0.3469004 178.59795 -37.236221 20.026745 -37.23867 20.325724 -4.5312972 -177.53163
330000000 -0.34781539 178.54443 -36.838619 18.810562 -36.774353 19.031601 -4.460134 -178.38872
340000000 -0.35129511 178.52246 -35.915134 15.508153 -35.920383 15.118444 -4.2897673 -179.76308
350000000 -0.35144079 178.45282 -36.221622 10.157842 -36.23307 9.9807081 -4.3975697 179.21956
360000000 -0.35070661 178.41356 -36.508316 7.4837222 -36.509594 7.3868651 -4.4539003 178.87384
370000000 -0.35016614 178.35822 -36.994343 6.1108918 -36.979153 6.0512843 -4.4904242 178.88963
380000000 -0.35093758 178.30931 -37.172794 6.5256138 -37.185768 6.5752063 -4.4311113 178.95622
390000000 -0.35277534 178.26161 -37.328552 7.3418198 -37.310455 7.4578838 -4.3534617 178.98576
400000000 -0.3541193 178.22797 -37.258503 8.83389 -37.24065 8.7685843 -4.2260423 178.86398
410000000 -0.35466895 178.17274 -36.883812 9.1609106 -36.874554 9.2110109 -4.0571923 178.28374
420000000 -0.35253388 178.12573 -36.449596 7.0392327 -36.452984 7.002471 -3.9221172 177.21205
430000000 -0.35123336 178.08307 -36.356728 3.5373595 -36.348923 3.5320249 -3.8736212 175.99211
440000000 -0.35040438 178.03473 -36.669632 0.39886642 -36.652386 0.34134376 -3.9029725 175.13585
450000000 -0.34885511 177.97391 -36.971737 -0.37889254 -36.932392 -0.5063675 -3.8907883 174.7903
460000000 -0.34570527 177.95728 -36.950294 -0.15409058 -36.935734 -0.40597105 -3.8079662 174.36552
470000000 -0.34165365 177.92552 -36.95639 -2.779511 -36.956486 -2.9061072 -3.7662616 173.4628
480000000 -0.3414534 177.87453 -37.317059 -3.9503548 -37.301903 -3.9501858 -3.7519429 172.97179
490000000 -0.33898759 177.82164 -37.481544 -4.8978472 -37.456657 -4.9394975 -3.7121429 172.36765
500000000 -0.33579734 177.77226 -37.61903 -5.6225805 -37.619537 -5.6408558 -3.6646459 171.76233
510000000 -0.33899206 177.71611 -37.905338 -6.9069161 -37.908131 -6.88765 -3.6441367 171.08356
520000000 -0.33646581 177.66835 -38.295227 -7.6290865 -38.264297 -7.4927363 -3.6259644 170.57469
530000000 -0.33709437 177.61093 -38.715019 -6.4296045 -38.68734 -6.481885 -3.5935655 170.25415
540000000 -0.34145257 177.5547 -38.754089 -4.4978809 -38.706905 -4.6971893 -3.516818 169.80867
550000000 -0.33887088 177.53723 -38.690811 -4.328918 -38.750031 -4.0163927 -3.4516985 169.20848
560000000 -0.3362661 177.50484 -38.803528 -4.4157419 -38.834171 -4.5519333 -3.4000335 168.4848
570000000 -0.3438929 177.44818 -38.850525 -5.1694179 -38.873596 -5.0660982 -3.3494954 167.68559
580000000 -0.3410303 177.39722 -39.048763 -5.4345469 -39.010021 -5.6852517 -3.3190629 166.95401
590000000 -0.34240422 177.34497 -39.348049 -5.783133 -39.346649 -5.9466977 -3.3034976 166.24513
600000000 -0.3491219 177.31258 -39.631992 -3.7423329 -39.659023 -3.6353161 -3.2772512 165.8042
610000000 -0.34406132 177.24219 -39.487221 -2.8536286 -39.45369 -2.7534981 -3.1988711 165.12074
620000000 -0.34743345 177.22472 -39.550995 -3.448482 -39.541222 -3.3881581 -3.1645212 164.26828
630000000 -0.3515017 177.19029 -39.620342 -3.4971023 -39.619148 -3.5117464 -3.1394293 163.51331
640000000 -0.34863743 177.10901 -39.760193 -4.4453859 -39.745514 -4.4749498 -3.1191576 162.70139
650000000 -0.34751812 177.08339 -40.088684 -4.7719402 -40.053581 -4.9232979 -3.1196287 161.97079
660000000 -0.3483749 177.02826 -40.501808 -3.7601187 -40.495522 -3.9015164 -3.1253102 161.36496
670000000 -0.35036704 176.98596 -40.68531 -1.5684023 -40.699188 -1.834543 -3.1072946 160.84105
680000000 -0.34777078 176.94331 -40.762001 -0.36279389 -40.807411 -0.50177789 -3.0850539 160.17334
690000000 -0.34907138 176.89146 -40.976322 1.0183405 -40.965794 1.0067241 -3.0760829 159.49165
700000000 -0.34992033 176.87315 -41.159077 3.3572981 -41.155712 3.3738809 -3.080287 158.88808
710000000 -0.35085282 176.83142 -41.165714 5.7689242 -41.164047 5.7440286 -3.0713384 158.3566
720000000 -0.35271105 176.78314 -41.131889 8.2757053 -41.122936 8.448287 -3.0618565 157.88335
730000000 -0.34986705 176.73907 -41.050289 10.34077 -41.011677 10.284 -3.0516293 157.34825
740000000 -0.35088733 176.68858 -40.745037 13.826351 -40.72533 13.824143 -3.0396247 157.06662
750000000 -0.34716061 176.63284 -40.149563 14.763749 -40.10519 14.687035 -2.9762642 156.71432
760000000 -0.34425354 176.60258 -39.683971 14.05195 -39.689655 13.680892 -2.9129922 156.15007
770000000 -0.34219247 176.52957 -39.394135 12.424188 -39.420269 12.187669 -2.850899 155.42616
780000000 -0.34308153 176.49249 -39.263397 10.520933 -39.269215 10.414313 -2.8054638 154.55028
790000000 -0.34317344 176.47722 -39.245502 8.695487 -39.244839 8.754015 -2.7822218 153.63184
800000000 -0.34429079 176.44064 -39.35038 7.4169178 -39.340031 7.2603717 -2.7778807 152.75513
810000000 -0.34352165 176.39407 -39.504154 6.5939226 -39.493145 6.5523453 -2.7838948 151.93529
820000000 -0.34506118 176.35399 -39.703968 6.3417549 -39.689629 6.4134722 -2.8012295 151.21249
830000000 -0.34398592 176.31013 -39.833881 6.9014053 -39.811783 6.9064379 -2.823956 150.60078
840000000 -0.34520748 176.26523 -39.825058 7.9002743 -39.794369 7.9087434 -2.8268464 150.12798
850000000 -0.34723854 176.19806 -39.734097 8.3197803 -39.701313 8.228838 -2.8225858 149.55336
860000000 -0.3463307 176.15697 -39.652439 8.0444241 -39.648911 7.9175887 -2.824995 148.97437
870000000 -0.34504801 176.12888 -39.571507 7.713851 -39.578831 7.4349041 -2.8305221 148.41745
880000000 -0.3463949 176.08597 -39.451881 6.9840603 -39.472553 6.6963353 -2.8392937 147.91154
890000000 -0.34625947 176.06448 -39.456646 5.2526808 -39.475193 5.1090078 -2.8372166 147.4561
900000000 -0.34866858 176.01697 -39.605556 3.5235491 -39.587555 3.5520411 -2.8219442 146.98926
910000000 -0.34884697 175.98067 -39.846882 2.2022924 -39.817894 2.0294766 -2.8013744 146.48343
920000000 -0.34950173 175.92902 -40.190147 1.0616503 -40.167755 1.0114626 -2.7773483 145.94043
930000000 -0.34747297 175.87987 -40.707165 0.85009021 -40.673283 0.73724443 -2.7560914 145.32918
940000000 -0.34783193 175.82065 -41.18401 2.4943388 -41.195286 2.4102383 -2.7461023 144.69205
950000000 -0.34809163 175.74931 -41.490559 5.2683616 -41.492542 5.2090874 -2.7390273 144.07074
960000000 -0.34635621 175.71207 -41.58242 8.5989256 -41.588097 8.4793491 -2.7435412 143.46376
970000000 -0.34586504 175.67346 -41.517113 11.078842 -41.523582 10.968494 -2.7454293 142.91364
980000000 -0.34873393 175.62296 -41.340927 12.956644 -41.350796 12.895177 -2.7476928 142.38547
990000000 -0.34990689 175.57791 -41.128887 14.67718 -41.134781 14.524657 -2.7447979 141.89684
1000000000 -0.35015407 175.53139 -40.868011 14.999887 -40.869801 14.890637 -2.7377849 141.401
1010000000 -0.35560131 175.49294 -40.71096 14.659826 -40.691238 14.553983 -2.7182462 140.93398
1020000000 -0.35437009 175.43896 -40.693207 14.244446 -40.697567 14.141899 -2.697058 140.39285
1030000000 -0.35507569 175.40277 -40.705055 14.407554 -40.69355 14.448509 -2.6836386 139.81435
1040000000 -0.35473973 175.33952 -40.658489 14.533676 -40.618046 14.486173 -2.6651168 139.2363
1050000000 -0.35455969 175.28688 -40.637085 14.230936 -40.610695 14.308499 -2.6544027 138.60941
1060000000 -0.35397241 175.24625 -40.708946 14.366467 -40.697426 14.222595 -2.6480489 137.97522
1070000000 -0.35573897 175.21513 -40.722317 15.078312 -40.733765 14.733047 -2.6428013 137.38194
1080000000 -0.35323498 175.18422 -40.702751 15.76213 -40.723728 15.479019 -2.6387041 136.74237
1090000000 -0.35283178 175.15486 -40.609791 15.815631 -40.602146 15.824413 -2.6478505 136.14124
1100000000 -0.35149187 175.12297 -40.597557 15.834165 -40.566875 15.827857 -2.6541667 135.65158
1110000000 -0.35042319 175.07108 -40.571674 15.784726 -40.538357 15.749455 -2.6543517 135.15685
1120000000 -0.34989426 175.03889 -40.53331 15.104259 -40.499561 15.107415 -2.6429164 134.71901
1130000000 -0.35167685 174.98495 -40.625813 14.760781 -40.609215 14.614866 -2.6221902 134.19055
1140000000 -0.35272142 174.93164 -40.795383 14.677975 -40.765381 14.599282 -2.6048691 133.60043
1150000000 -0.35534173 174.86905 -40.91692 15.577362 -40.915646 15.356438 -2.5943153 132.97708
1160000000 -0.35570076 174.83176 -40.871628 16.263199 -40.899242 16.12623 -2.5868413 132.34799
1170000000 -0.35498917 174.79546 -40.894192 16.090061 -40.902569 16.090141 -2.5867822 131.70581
1180000000 -0.35738429 174.75291 -41.013798 16.622746 -41.020264 16.650408 -2.5880804 131.12628
1190000000 -0.35827842 174.72006 -41.063961 17.447302 -41.039715 17.529074 -2.5855796 130.52057
1200000000 -0.36031845 174.68106 -41.092358 17.788157 -41.057011 17.797112 -2.5912178 129.89447
1210000000 -0.35916069 174.62672 -41.14497 18.560476 -41.117409 18.528641 -2.5994146 129.35345
1220000000 -0.35951808 174.57939 -41.165211 19.356237 -41.144665 19.24967 -2.599494 128.80978
1230000000 -0.35867652 174.53174 -41.144878 20.089842 -41.157959 20.052298 -2.5981059 128.24408
1240000000 -0.36083823 174.46979 -41.092552 20.692314 -41.100014 20.602659 -2.5958629 127.6651
1250000000 -0.36018232 174.43129 -41.061272 21.207344 -41.061768 21.014519 -2.601609 127.01424
1260000000 -0.35981306 174.37985 -41.015579 21.387793 -41.020748 21.314077 -2.6191928 126.44899
1270000000 -0.36044332 174.34773 -41.032951 21.364414 -41.046299 21.482834 -2.6246803 125.89423
1280000000 -0.35777414 174.2926 -41.080338 21.975594 -41.067471 21.917688 -2.6357276 125.28497
1290000000 -0.35849068 174.25793 -41.095222 22.590219 -41.058113 22.657791 -2.657903 124.71822
1300000000 -0.35621074 174.22015 -41.049686 23.061243 -41.020489 22.996429 -2.6833332 124.25128
1310000000 -0.35668311 174.16982 -41.03931 23.516241 -41.033382 23.361591 -2.6960528 123.82498
1320000000 -0.35574263 174.12384 -41.079178 23.750032 -41.064632 23.826113 -2.7092228 123.36461
1330000000 -0.35636219 174.06656 -41.081425 24.766506 -41.072796 24.561985 -2.7251709 122.94012
1340000000 -0.35504225 174.0067 -41.024345 25.574945 -41.05127 25.560005 -2.7387874 122.5853
1350000000 -0.35703325 173.96146 -40.936935 26.266443 -40.925014 26.111565 -2.7378435 122.27992
1360000000 -0.35738456 173.92284 -40.844563 26.527536 -40.828087 26.400181 -2.7204037 121.90128
1370000000 -0.35881343 173.88576 -40.750923 26.426958 -40.745777 26.291595 -2.7077386 121.47265
1380000000 -0.35867006 173.83961 -40.729145 26.324419 -40.711876 26.165413 -2.6848245 120.99037
1390000000 -0.35761616 173.80852 -40.690464 26.306116 -40.675289 26.180292 -2.6657939 120.47347
1400000000 -0.35612783 173.76181 -40.681442 26.087574 -40.680706 26.084364 -2.6512148 119.9205
1410000000 -0.35609666 173.71234 -40.70853 26.175159 -40.700016 26.046915 -2.6416836 119.35858
1420000000 -0.35715213 173.67503 -40.744072 26.220284 -40.739315 26.183138 -2.6394184 118.79609
1430000000 -0.35839286 173.62233 -40.808235 26.731382 -40.78046 26.584255 -2.635927 118.24483
1440000000 -0.35966936 173.57138 -40.801144 27.350924 -40.764652 27.330828 -2.6361027 117.6896
1450000000 -0.36338827 173.52808 -40.709522 27.700401 -40.713993 27.744545 -2.6341326 117.14363
1460000000 -0.36497933 173.48726 -40.665787 27.737398 -40.675194 27.759546 -2.6337869 116.59396
1470000000 -0.36673489 173.4391 -40.625492 27.768234 -40.602619 27.71397 -2.636821 116.05378
1480000000 -0.36562949 173.40451 -40.643852 27.366777 -40.626087 27.342369 -2.6346562 115.52044
1490000000 -0.36660281 173.35757 -40.661919 27.501492 -40.636414 27.330263 -2.6326671 114.98833
1500000000 -0.36680278 173.30675 -40.685379 27.168358 -40.673855 27.042358 -2.6297324 114.45174
1510000000 -0.36618426 173.271 -40.772404 27.286095 -40.757355 27.151541 -2.6277342 113.90643
1520000000 -0.36624256 173.21927 -40.836937 27.496059 -40.845169 27.480534 -2.6301444 113.34621
1530000000 -0.36797103 173.17192 -40.904053 27.842354 -40.895264 27.819019 -2.6355071 112.7896
1540000000 -0.37003052 173.12288 -40.94902 28.144331 -40.939468 28.157841 -2.6423907 112.24782
1550000000 -0.37006325 173.07758 -41.048214 28.888594 -41.024231 28.785959 -2.6457899 111.74876
1560000000 -0.37154281 173.03065 -41.072002 29.608398 -41.057129 29.538273 -2.6442063 111.22704
1570000000 -0.37173682 172.99226 -41.089367 30.249105 -41.08551 30.058149 -2.643054 110.68436
1580000000 -0.37036711 172.94232 -41.079273 30.90888 -41.081738 30.857088 -2.6393294 110.1338
1590000000 -0.36764562 172.89627 -41.097744 31.550076 -41.107674 31.531637 -2.6382151 109.55362
1600000000 -0.36679518 172.85687 -41.078239 32.586452 -41.072433 32.535091 -2.6401002 108.98165
1610000000 -0.36668953 172.81146 -41.017727 33.099129 -41.010555 33.143734 -2.6449912 108.41901
1620000000 -0.36700755 172.76218 -40.969784 33.733589 -40.928238 33.605114 -2.6520581 107.87151
1630000000 -0.36779803 172.72705 -40.853973 34.071686 -40.833744 33.853855 -2.6567059 107.32735
1640000000 -0.36771211 172.6808 -40.795006 34.250874 -40.787449 34.157478 -2.6604142 106.77456
1650000000 -0.36939692 172.6367 -40.740669 34.167973 -40.74271 34.1581 -2.6624298 106.22539
1660000000 -0.36978278 172.58015 -40.691109 34.193378 -40.689003 34.091396 -2.6630535 105.6614
1670000000 -0.37007281 172.5415 -40.681629 33.97308 -40.661194 33.874493 -2.6642222 105.07774
1680000000 -0.37000602 172.4929 -40.704437 33.938866 -40.695297 33.783726 -2.6686537 104.4789
1690000000 -0.36909619 172.45103 -40.715618 33.99844 -40.703552 33.878056 -2.6750126 103.87301
1700000000 -0.36851004 172.403 -40.744019 34.066959 -40.744476 34.055977 -2.6835954 103.26978
1710000000 -0.37055206 172.36453 -40.769161 34.26968 -40.762077 34.187267 -2.6963961 102.6869
1720000000 -0.37089628 172.30865 -40.754959 34.299778 -40.747208 34.355015 -2.7084002 102.12386
1730000000 -0.37221003 172.27255 -40.78764 34.096218 -40.792088 34.154163 -2.7173793 101.55267
1740000000 -0.37466827 172.23093 -40.879917 34.022884 -40.882229 34.124062 -2.7230377 100.95043
1750000000 -0.37633434 172.17818 -40.974873 34.343086 -40.969467 34.412971 -2.731499 100.33882
1760000000 -0.37718439 172.13429 -41.042297 34.96846 -41.032475 34.773502 -2.7413547 99.726158
1770000000 -0.37728688 172.08154 -41.074684 35.598679 -41.072556 35.447418 -2.7551444 99.111977
1780000000 -0.37884772 172.03639 -41.119194 35.856052 -41.116169 35.672291 -2.7672074 98.49559
1790000000 -0.37962484 171.99226 -41.195293 36.164223 -41.186207 36.113556 -2.7808914 97.870155
1800000000 -0.37978503 171.95624 -41.281158 36.880363 -41.270519 36.998325 -2.7990305 97.230865
1810000000 -0.3797839 171.9005 -41.352547 37.753094 -41.318947 37.806335 -2.8226225 96.627686
1820000000 -0.38119331 171.86963 -41.342686 38.803196 -41.344704 38.980415 -2.8454077 96.027702
1830000000 -0.38157427 171.82417 -41.301147 39.572979 -41.292515 39.661152 -2.8675425 95.442329
1840000000 -0.3815802 171.77612 -41.284737 40.128708 -41.254894 40.144726 -2.8862386 94.856667
1850000000 -0.38111219 171.73048 -41.236725 40.392139 -41.231758 40.348106 -2.8980896 94.27037
1860000000 -0.38013393 171.68161 -41.279198 40.942497 -41.267498 40.860447 -2.9102659 93.628326
1870000000 -0.38126367 171.63046 -41.254745 41.671577 -41.233459 41.448612 -2.9263077 92.998001
1880000000 -0.38179812 171.58537 -41.237026 41.9743 -41.242832 41.67823 -2.939621 92.356049
1890000000 -0.38045493 171.54858 -41.24197 42.129841 -41.258118 41.956928 -2.9520872 91.69249
1900000000 -0.38166416 171.50343 -41.288902 42.256359 -41.279884 42.286285 -2.9653473 90.981186
1910000000 -0.37983021 171.45932 -41.387714 42.643608 -41.357594 42.699753 -2.986053 90.237732
1920000000 -0.38125321 171.4182 -41.443897 43.52158 -41.401981 43.459965 -3.0134473 89.47097
1930000000 -0.38073042 171.38199 -41.466419 44.169289 -41.44471 44.107052 -3.0422721 88.698906
1940000000 -0.3818832 171.33501 -41.461655 44.934628 -41.433514 44.91328 -3.072813 87.897011
1950000000 -0.38327155 171.28911 -41.448082 45.167042 -41.44133 45.198032 -3.1025541 87.079018
1960000000 -0.38393208 171.24313 -41.504944 45.427303 -41.492371 45.325584 -3.1340823 86.194061
1970000000 -0.38650393 171.19101 -41.619637 45.776596 -41.628231 45.657959 -3.1755385 85.257332
1980000000 -0.38665643 171.14171 -41.760044 46.489254 -41.768436 46.212021 -3.2313511 84.309715
1990000000 -0.38816121 171.09471 -41.956196 47.383747 -41.948746 47.238209 -3.29337 83.378059
2000000000 -0.38779154 171.04716 -42.147923 48.799053 -42.136086 48.872013 -3.364316 82.409828
2010000000 -0.38899916 171.01357 -42.324238 50.730125 -42.277802 50.76646 -3.4474804 81.410889
2020000000 -0.38979593 170.97874 -42.415607 53.085575 -42.404747 53.006935 -3.5418396 80.393028
2030000000 -0.38955012 170.93222 -42.47348 55.540382 -42.49334 55.581326 -3.644505 79.344559
2040000000 -0.39261973 170.88014 -42.465229 58.622742 -42.466606 58.671265 -3.7643445 78.254066
2050000000 -0.39340186 170.83534 -42.318138 61.485268 -42.308388 61.333447 -3.9057674 77.158394
