!Keysight Technologies,N5222B,MY61257109,A.17.25.03
!Date: Tuesday, July 21, 2026 12:08:18
!Correction: S11(C  2-Port  ) 
!S21(C  2-Port  ) 
!S12(C  2-Port  ) 
!S22(C  2-Port  ) 
!S2P File: Measurements: S11, S21, S12, S22:
# Hz S  dB   R 50
10000000 -0.40727192 -179.76762 -55.644241 22.508574 -56.670303 23.389721 -2.1507936 -46.773323
20000000 -0.34764403 -179.91858 -37.728298 29.746225 -37.751244 29.788675 -3.257472 -109.33864
30000000 -0.3523601 179.96819 -37.962547 29.380735 -37.968185 29.136696 -3.2075212 -123.83983
40000000 -0.35254204 179.8808 -34.91581 17.578394 -34.866371 17.794491 -3.1323061 -145.88144
50000000 -0.34403554 179.79541 -30.546925 -22.91271 -30.557453 -23.035635 -4.754549 173.57704
60000000 -0.34624884 179.69069 -37.865788 -64.074791 -37.882896 -63.85746 -9.6204138 -150.84456
70000000 -0.34607136 179.67921 -43.324375 -50.641186 -43.395061 -50.478416 -7.240169 -149.22052
80000000 -0.34050196 179.63145 -45.952221 -31.856928 -46.07346 -32.312855 -6.4733238 -152.32951
90000000 -0.34479073 179.6412 -46.823238 -8.3009806 -46.88232 -8.644311 -5.9889636 -155.07164
100000000 -0.34477532 179.61641 -45.928135 6.594223 -45.965744 6.5141935 -5.682519 -157.98923
110000000 -0.3450326 179.5434 -44.989704 16.946873 -45.000656 16.920132 -5.4959474 -160.17604
120000000 -0.34484088 179.51799 -43.434082 17.437544 -43.358757 18.10331 -5.3044572 -163.28236
130000000 -0.3445273 179.46078 -41.431732 6.0640035 -41.46661 5.6497874 -5.3124647 -168.96028
140000000 -0.34550571 179.39133 -43.964741 17.470776 -43.968666 17.144264 -5.5990629 -166.52393
150000000 -0.34476578 179.36148 -43.140747 23.493 -43.200314 23.501551 -5.4689574 -167.3288
160000000 -0.34289274 179.32672 -42.551605 26.659582 -42.560371 26.982746 -5.3947053 -168.33464
170000000 -0.34598699 179.25731 -41.875015 29.596634 -41.876335 29.495787 -5.3480077 -169.38043
180000000 -0.35006934 179.23901 -41.220638 30.231052 -41.164204 30.515659 -5.3325167 -170.02252
190000000 -0.35132489 179.19608 -40.649532 31.072105 -40.604416 31.01066 -5.2715464 -170.65604
200000000 -0.34205413 179.15543 -39.990723 31.226904 -40.015804 31.020216 -5.2096672 -171.17549
210000000 -0.34886521 179.09688 -39.577019 31.018223 -39.584866 30.777428 -5.1410818 -171.73428
220000000 -0.34518701 179.05995 -39.08625 30.717503 -39.108738 30.390356 -5.0804563 -172.28319
230000000 -0.34617817 179.01866 -38.437531 27.531908 -38.43869 27.498444 -4.9607625 -173.39565
240000000 -0.34698144 178.96724 -38.630028 25.165749 -38.649071 25.151741 -5.0458403 -174.23088
250000000 -0.34843352 178.92491 -38.377579 26.861275 -38.36768 26.844723 -4.9919448 -174.10934
260000000 -0.35769713 178.89137 -37.904869 27.452543 -37.911747 27.161427 -4.8988829 -174.33861
270000000 -0.35656789 178.83003 -36.972214 23.879211 -36.973228 23.987402 -4.6772976 -175.09113
280000000 -0.35476613 178.78662 -37.204617 18.837442 -37.199337 18.938591 -4.7091441 -176.6433
290000000 -0.35347927 178.72572 -37.516102 16.379709 -37.529236 16.360491 -4.7708001 -177.25412
300000000 -0.3551372 178.69978 -37.787354 17.032677 -37.778355 17.011919 -4.7818761 -177.22554
310000000 -0.35451558 178.64705 -37.725681 19.199753 -37.712505 19.27001 -4.6901355 -177.01947
320000000 -0.35561058 178.63205 -37.29496 20.596167 -37.279408 20.190859 -4.5382237 -177.63068
330000000 -0.35644367 178.58714 -36.762653 19.954933 -36.774761 19.923855 -4.4447293 -178.15514
340000000 -0.35893658 178.56322 -35.783676 14.935626 -35.724846 15.173911 -4.2364135 -179.87502
350000000 -0.35789332 178.48511 -36.229939 9.8025389 -36.247566 9.8269691 -4.397315 179.11667
360000000 -0.35396034 178.4353 -36.496834 7.3999557 -36.505413 7.3207583 -4.4439621 178.78967
370000000 -0.35216555 178.3723 -36.934887 6.2934651 -36.935474 6.1503282 -4.4724202 178.84547
380000000 -0.35191038 178.32423 -37.143948 6.3420553 -37.144871 6.373116 -4.421824 178.77354
390000000 -0.35162914 178.27902 -37.340393 7.3786664 -37.375511 7.4284897 -4.3608012 178.88583
400000000 -0.35087946 178.25682 -37.203194 9.2061329 -37.180305 9.3938627 -4.2021065 178.91972
410000000 -0.35133946 178.21213 -36.837818 8.9527845 -36.782066 8.6729946 -4.0401201 178.05975
420000000 -0.35000339 178.18405 -36.485088 6.8905563 -36.523773 6.6318331 -3.9415894 177.05219
430000000 -0.34939849 178.14235 -36.326477 3.837471 -36.387211 3.9374435 -3.874917 176.09395
440000000 -0.3489171 178.09462 -36.558414 0.39673671 -36.566994 0.69522518 -3.8811481 175.18262
450000000 -0.34940073 178.02129 -36.864079 -0.80314022 -36.861874 -0.60580409 -3.8770111 174.5892
460000000 -0.34888962 177.99126 -36.888783 -0.64656919 -36.910927 -0.41649082 -3.8058507 174.27777
470000000 -0.34741941 177.94612 -36.947338 -3.1580429 -36.927109 -3.1059213 -3.7692709 173.40677
480000000 -0.34926298 177.88751 -37.267662 -4.1211019 -37.260937 -4.0394554 -3.7447734 172.83269
490000000 -0.34835893 177.83463 -37.452827 -5.4475203 -37.419083 -5.4928827 -3.7091422 172.15865
500000000 -0.34627154 177.79176 -37.636578 -6.0312552 -37.631107 -6.113903 -3.6721013 171.66301
510000000 -0.34895134 177.74065 -37.927677 -7.0564775 -37.896137 -7.1843824 -3.6490831 171.01468
520000000 -0.34728369 177.70074 -38.301189 -7.6701283 -38.30772 -7.9312363 -3.6341667 170.43452
530000000 -0.34733838 177.64624 -38.670288 -6.5173435 -38.721798 -6.53194 -3.6037004 170.12375
540000000 -0.35223743 177.58484 -38.713795 -5.0866666 -38.760605 -4.8329859 -3.5277245 169.69231
550000000 -0.34952137 177.57092 -38.760948 -4.9407697 -38.774117 -4.641151 -3.4651029 169.11472
560000000 -0.34726378 177.52139 -38.863808 -4.99895 -38.823963 -4.5995994 -3.4055758 168.42918
570000000 -0.35357502 177.46478 -38.919056 -5.3776054 -38.884106 -5.6657295 -3.3642168 167.59558
580000000 -0.35040158 177.40677 -39.107483 -6.0217614 -39.098614 -6.0361614 -3.3359666 166.93497
590000000 -0.34893113 177.35619 -39.464108 -6.0295482 -39.444714 -6.1295538 -3.317282 166.30151
600000000 -0.3545858 177.32945 -39.823124 -3.5514374 -39.873409 -3.5660241 -3.2918639 165.89157
610000000 -0.3478137 177.27075 -39.574692 -1.2683704 -39.553497 -1.2925473 -3.1998479 165.28987
620000000 -0.35043159 177.25433 -39.498974 -2.5926709 -39.489677 -2.4533436 -3.157083 164.2979
630000000 -0.35257208 177.21904 -39.571056 -3.291348 -39.55315 -2.9075415 -3.1346793 163.49277
640000000 -0.34993494 177.13948 -39.71312 -4.582839 -39.699184 -4.45578 -3.1194153 162.63843
650000000 -0.35019615 177.10414 -40.113911 -4.7262077 -40.08284 -4.6318512 -3.126374 161.94122
660000000 -0.35198843 177.0491 -40.505424 -3.4713311 -40.499989 -3.6024852 -3.1312006 161.36646
670000000 -0.35487849 177.00604 -40.671711 -1.3030435 -40.671616 -1.1160052 -3.1116829 160.87177
680000000 -0.35258302 176.96144 -40.707294 -0.017662579 -40.720909 0.12129773 -3.0814857 160.22052
690000000 -0.35304263 176.91354 -40.87241 1.2578449 -40.844257 1.1681222 -3.0669415 159.52415
700000000 -0.35261279 176.89659 -41.047028 3.3513958 -41.063759 2.9624243 -3.0716274 158.89705
710000000 -0.35272762 176.85765 -41.10384 5.8707199 -41.112911 5.8543072 -3.0682769 158.36703
720000000 -0.35401902 176.8127 -41.048767 8.5789948 -41.041134 8.7021828 -3.0617399 157.88268
730000000 -0.35309878 176.76988 -40.954533 10.614561 -40.914921 10.948455 -3.0519624 157.35651
740000000 -0.35569543 176.72141 -40.568066 13.75215 -40.537159 13.906569 -3.0290821 157.10321
750000000 -0.35293201 176.66197 -40.021473 13.810265 -40.001221 13.900311 -2.962986 156.62914
760000000 -0.35270768 176.63417 -39.6348 13.030096 -39.62796 13.0443 -2.9094641 156.03043
770000000 -0.35167179 176.55916 -39.429379 11.415105 -39.40086 11.357695 -2.8584337 155.30533
780000000 -0.35332566 176.52097 -39.280449 10.13973 -39.285431 9.9288759 -2.8178568 154.50252
790000000 -0.35344109 176.49944 -39.209476 8.287097 -39.255943 8.1623945 -2.7906797 153.64272
800000000 -0.35367584 176.46078 -39.302956 6.6993132 -39.348991 6.5737724 -2.7824292 152.77612
810000000 -0.35263103 176.41333 -39.485046 5.9452024 -39.498661 5.7524877 -2.7900248 151.94803
820000000 -0.35399544 176.36998 -39.67667 5.8071485 -39.675777 5.7368102 -2.8068428 151.22247
830000000 -0.354119 176.32985 -39.820057 5.9510541 -39.80127 6.1528745 -2.8310974 150.57184
840000000 -0.35569683 176.28522 -39.881596 6.8205996 -39.823162 7.0953493 -2.8406646 150.11444
850000000 -0.35742787 176.22702 -39.859375 7.174634 -39.78511 7.3614173 -2.8356175 149.59584
860000000 -0.35655269 176.18262 -39.820877 7.0216298 -39.751934 6.7813468 -2.8299241 149.01662
870000000 -0.35412687 176.15314 -39.758339 6.8911304 -39.769844 6.462688 -2.8372102 148.44424
880000000 -0.35458806 176.10609 -39.688793 6.2280412 -39.73703 6.0492177 -2.8452308 147.96149
890000000 -0.35284582 176.07738 -39.718426 4.8076096 -39.746147 4.7294159 -2.8404326 147.56429
900000000 -0.35223827 176.02213 -39.859093 3.6291344 -39.916985 3.4820325 -2.8163998 147.10907
910000000 -0.35253361 175.98418 -40.103699 2.7824593 -40.172123 2.6908381 -2.7924206 146.59511
920000000 -0.35325772 175.92905 -40.429504 2.2117467 -40.442234 2.5606918 -2.7641561 145.99977
930000000 -0.3517285 175.88377 -40.857513 2.4974823 -40.810951 2.7193484 -2.7443023 145.32216
940000000 -0.3530432 175.83104 -41.275612 4.3319564 -41.209667 4.4174218 -2.7397015 144.65404
950000000 -0.35342762 175.76616 -41.484772 7.2268696 -41.440472 7.0303288 -2.7384164 144.03348
960000000 -0.35190731 175.73486 -41.50642 10.026537 -41.506348 10.136627 -2.7465439 143.45299
970000000 -0.35150057 175.69756 -41.384586 12.072475 -41.355572 12.20583 -2.745306 142.93134
980000000 -0.3529233 175.64383 -41.207462 13.495386 -41.164856 13.406197 -2.7426138 142.3858
990000000 -0.35354048 175.59528 -41.001656 14.7687 -40.975765 14.483872 -2.7394211 141.88611
1000000000 -0.35323218 175.54584 -40.765129 14.66527 -40.769413 14.363401 -2.7307789 141.37671
1010000000 -0.35806254 175.50676 -40.653156 14.248502 -40.664898 13.937735 -2.7205141 140.86319
1020000000 -0.35777667 175.45395 -40.688526 13.820021 -40.679176 13.677792 -2.7039535 140.3504
1030000000 -0.35981926 175.42255 -40.698887 13.997639 -40.702152 13.907867 -2.6916981 139.80721
1040000000 -0.36121574 175.36996 -40.682819 14.005525 -40.687965 14.08409 -2.6716528 139.26407
1050000000 -0.36158511 175.32449 -40.708275 13.980584 -40.698494 14.041555 -2.6578758 138.66707
1060000000 -0.36085933 175.28734 -40.798557 13.957756 -40.810204 14.23642 -2.6459355 138.02988
1070000000 -0.36304519 175.25044 -40.856537 14.785046 -40.852879 15.124042 -2.634583 137.41043
1080000000 -0.36135358 175.20818 -40.830444 15.632208 -40.829712 15.741202 -2.6317048 136.74643
1090000000 -0.36083344 175.16531 -40.76445 16.247746 -40.740864 16.348873 -2.6418195 136.13843
1100000000 -0.36012158 175.1232 -40.677784 16.525061 -40.651489 16.546183 -2.6532147 135.63145
1110000000 -0.35945845 175.07144 -40.644066 16.383741 -40.589329 16.193254 -2.6522422 135.16537
1120000000 -0.35948461 175.04344 -40.58823 16.001476 -40.574394 15.835647 -2.6377399 134.72092
1130000000 -0.36161521 174.99646 -40.660759 15.612356 -40.668705 15.402969 -2.6170349 134.17668
1140000000 -0.36214754 174.95091 -40.809845 15.506056 -40.797523 15.646862 -2.6021056 133.58362
1150000000 -0.36354253 174.89751 -40.903538 16.306723 -40.901722 16.241644 -2.5922627 132.96088
1160000000 -0.36284819 174.85883 -40.863941 16.76469 -40.871601 16.883419 -2.5870552 132.31873
1170000000 -0.36127228 174.81482 -40.912403 16.697754 -40.908119 16.539692 -2.5869687 131.68381
1180000000 -0.36247817 174.76083 -41.040722 17.301224 -41.033951 17.301464 -2.5878227 131.10161
1190000000 -0.36237687 174.72127 -41.043346 18.229404 -41.057354 18.295368 -2.5858366 130.49855
1200000000 -0.36389774 174.67905 -41.042233 18.524536 -41.065159 18.548794 -2.5912642 129.87686
1210000000 -0.36220157 174.62695 -41.116821 19.126097 -41.109447 19.198439 -2.5990255 129.31842
1220000000 -0.36223984 174.58939 -41.121544 19.94755 -41.089012 20.043152 -2.6014416 128.77823
1230000000 -0.36224884 174.55212 -41.091007 20.636847 -41.068707 20.63278 -2.5995667 128.23814
1240000000 -0.36404663 174.50079 -41.065292 21.251266 -41.043255 21.100853 -2.5977046 127.66634
1250000000 -0.36291209 174.46881 -41.035618 21.855799 -41.005939 21.588207 -2.6021335 127.03654
1260000000 -0.36209661 174.41289 -40.972923 21.890965 -40.995136 21.858286 -2.6189709 126.43156
1270000000 -0.36274943 174.37177 -40.983814 22.087526 -41.001453 22.109774 -2.6275146 125.87173
1280000000 -0.36099434 174.3055 -40.993721 22.471363 -40.987347 22.593023 -2.6390059 125.27713
1290000000 -0.36236954 174.26216 -41.014668 22.871206 -40.974445 22.92474 -2.6604843 124.72376
1300000000 -0.36158174 174.22029 -40.965736 23.385487 -40.987465 23.22192 -2.6846938 124.2554
1310000000 -0.36320591 174.17416 -40.985695 23.637684 -40.991486 23.691362 -2.6956012 123.83238
1320000000 -0.36198238 174.13756 -41.016987 24.108059 -41.023045 24.306904 -2.7029266 123.36986
1330000000 -0.36351466 174.09319 -41.016064 24.95661 -40.97192 24.999578 -2.7185018 122.9352
1340000000 -0.36199757 174.04257 -40.964073 25.835724 -40.943207 25.644663 -2.7332146 122.57841
1350000000 -0.36383075 174.00087 -40.888226 26.30061 -40.912216 26.046509 -2.732729 122.24436
1360000000 -0.36414996 173.95598 -40.782845 26.632862 -40.808407 26.629351 -2.7243471 121.85399
1370000000 -0.36603838 173.9106 -40.718887 26.589001 -40.69717 26.666216 -2.7115276 121.43825
1380000000 -0.36697122 173.85167 -40.688438 26.412075 -40.663631 26.371309 -2.6886153 120.96294
1390000000 -0.36632875 173.81274 -40.656704 26.543798 -40.637127 26.309923 -2.6699972 120.45159
1400000000 -0.36579058 173.75821 -40.646095 26.359058 -40.639488 26.336046 -2.6553388 119.90572
1410000000 -0.36580211 173.71268 -40.663567 26.338676 -40.666061 26.242754 -2.6442134 119.33138
1420000000 -0.36609301 173.68338 -40.723892 26.534344 -40.736164 26.533524 -2.6397569 118.76357
1430000000 -0.36633325 173.6375 -40.75507 26.974812 -40.769638 27.046986 -2.6360073 118.22316
1440000000 -0.36685884 173.59703 -40.750046 27.719292 -40.74234 27.785727 -2.6370428 117.67496
1450000000 -0.36900321 173.55354 -40.676205 28.04879 -40.653545 28.190546 -2.6383576 117.13167
1460000000 -0.37051034 173.51157 -40.624802 28.20542 -40.609741 28.172083 -2.6391931 116.59192
1470000000 -0.37175459 173.45665 -40.553299 28.090021 -40.561039 28.14879 -2.639967 116.04259
1480000000 -0.37048382 173.41133 -40.548153 27.787073 -40.5415 27.839596 -2.6405661 115.50978
1490000000 -0.37192717 173.35886 -40.567963 27.85141 -40.548389 27.692699 -2.6391423 114.99368
1500000000 -0.37158173 173.30476 -40.579052 27.582741 -40.576336 27.445328 -2.6351666 114.47066
1510000000 -0.37057659 173.27422 -40.652657 27.451864 -40.65567 27.368301 -2.6295595 113.92003
1520000000 -0.37006801 173.23123 -40.73933 27.530308 -40.744949 27.579247 -2.6275852 113.34917
1530000000 -0.37061238 173.19566 -40.792156 27.875463 -40.796181 28.02541 -2.6304674 112.79374
1540000000 -0.3720665 173.15179 -40.862175 28.094931 -40.844055 28.165882 -2.635596 112.24462
1550000000 -0.37251124 173.10666 -40.966816 28.719347 -40.936161 28.679869 -2.6433661 111.71916
1560000000 -0.37510821 173.05946 -40.98695 29.480209 -40.965389 29.339621 -2.6453066 111.19254
1570000000 -0.37579688 173.01057 -41.00779 29.970928 -41.024269 29.743711 -2.6468201 110.64903
1580000000 -0.37614632 172.95395 -41.018311 30.622818 -41.036839 30.455305 -2.6455448 110.09998
1590000000 -0.3744953 172.90179 -41.046925 31.303625 -41.073616 31.242594 -2.6454375 109.53061
1600000000 -0.37420073 172.86127 -41.037258 32.216782 -41.053932 32.354012 -2.6491401 108.97002
1610000000 -0.3741948 172.81648 -40.988419 32.949299 -40.980408 33.118011 -2.6504238 108.41311
1620000000 -0.37387061 172.77171 -40.921276 33.580688 -40.903843 33.722897 -2.6512864 107.85884
1630000000 -0.37421626 172.74184 -40.828377 33.797379 -40.804733 33.894272 -2.6539383 107.30528
1640000000 -0.37394172 172.70152 -40.779781 33.990978 -40.755135 34.01548 -2.6584654 106.74506
1650000000 -0.37559789 172.6591 -40.73222 34.028194 -40.715549 33.898148 -2.6651108 106.18256
1660000000 -0.37732866 172.60081 -40.705853 34.205791 -40.709511 34.210098 -2.67133 105.61191
1670000000 -0.37884068 172.55901 -40.659828 34.00951 -40.657936 34.04031 -2.6758795 105.03953
1680000000 -0.38017124 172.50287 -40.67746 33.955696 -40.676991 33.903267 -2.6801882 104.45541
1690000000 -0.37913331 172.45712 -40.683537 34.18153 -40.679779 33.986992 -2.6872206 103.86177
1700000000 -0.3777028 172.40584 -40.687012 34.179531 -40.713467 34.077038 -2.695981 103.26508
1710000000 -0.37871921 172.36607 -40.708984 34.410557 -40.722755 34.362171 -2.7055261 102.68303
1720000000 -0.37786943 172.31113 -40.709335 34.414112 -40.701599 34.41787 -2.7110617 102.12028
1730000000 -0.37780729 172.27763 -40.749821 34.258144 -40.726006 34.240032 -2.7171824 101.53766
1740000000 -0.37904885 172.24132 -40.82803 34.063126 -40.814541 34.283184 -2.7246177 100.93817
1750000000 -0.38083977 172.19467 -40.933334 34.381168 -40.92308 34.407433 -2.7378125 100.32988
1760000000 -0.38193154 172.15588 -41.004826 35.021599 -40.973122 34.93795 -2.751663 99.718353
1770000000 -0.38422787 172.10286 -41.037552 35.388344 -41.025864 35.436283 -2.7667208 99.1036
1780000000 -0.38630161 172.05888 -41.076511 35.705803 -41.067719 35.656696 -2.7796721 98.487473
1790000000 -0.38700423 172.00925 -41.174149 36.247734 -41.179447 36.141865 -2.7945261 97.854683
1800000000 -0.38645864 171.96715 -41.217468 36.997028 -41.252247 36.981861 -2.8146667 97.22274
1810000000 -0.38491118 171.90833 -41.284443 37.787151 -41.290844 37.820721 -2.8355117 96.613953
1820000000 -0.38512588 171.87547 -41.303719 38.839966 -41.294865 38.845631 -2.8530104 96.015862
1830000000 -0.38449854 171.82889 -41.283043 39.608288 -41.248119 39.633736 -2.8699603 95.422699
1840000000 -0.38431215 171.78647 -41.242432 40.227734 -41.2327 40.192669 -2.8894594 94.84201
1850000000 -0.38481444 171.74736 -41.218723 40.384647 -41.224384 40.416283 -2.9058671 94.244026
1860000000 -0.38576716 171.70642 -41.252342 40.90366 -41.253036 40.946133 -2.9234736 93.614868
1870000000 -0.38816291 171.66295 -41.229023 41.474804 -41.215557 41.487305 -2.9403794 92.984825
1880000000 -0.39046651 171.61613 -41.224342 41.759628 -41.218956 41.779419 -2.9543316 92.33519
1890000000 -0.38983697 171.5755 -41.233524 42.171356 -41.229961 42.099545 -2.9700332 91.669579
1900000000 -0.39070725 171.52087 -41.248402 42.550922 -41.256897 42.395443 -2.9850323 90.958939
1910000000 -0.38892895 171.46898 -41.324585 42.926083 -41.324032 42.846802 -3.0056517 90.215469
1920000000 -0.3897489 171.41867 -41.373585 43.637432 -41.369282 43.672573 -3.0281529 89.455498
1930000000 -0.38865942 171.38147 -41.402317 44.199223 -41.381664 44.309383 -3.053704 88.680618
1940000000 -0.389566 171.33704 -41.425335 44.791855 -41.377472 44.963596 -3.0836642 87.889008
1950000000 -0.39066759 171.29979 -41.438923 45.113342 -41.405609 45.185795 -3.1156375 87.06501
1960000000 -0.39198706 171.26312 -41.485077 45.355061 -41.464458 45.40807 -3.1520987 86.185593
1970000000 -0.39452401 171.21863 -41.602528 45.666698 -41.581417 45.682652 -3.1961348 85.256561
1980000000 -0.39585117 171.17273 -41.743591 46.374222 -41.733761 46.361252 -3.2524197 84.316597
1990000000 -0.3974252 171.12311 -41.901382 47.212811 -41.915649 47.119614 -3.3143547 83.38929
2000000000 -0.3971929 171.06609 -42.090935 48.83778 -42.094776 48.574772 -3.3842375 82.417076
2010000000 -0.39700314 171.02008 -42.2453 50.67939 -42.235893 50.568241 -3.4673128 81.403114
2020000000 -0.39750889 170.97676 -42.359669 52.963184 -42.318146 53.165768 -3.564244 80.396599
2030000000 -0.39715064 170.92316 -42.432961 55.397404 -42.398151 55.81414 -3.6700957 79.357452
2040000000 -0.39917406 170.87421 -42.439785 58.264935 -42.399803 58.598278 -3.7927163 78.273972
2050000000 -0.39973968 170.83905 -42.313778 61.089077 -42.289585 61.237209 -3.9344847 77.181404
