!Keysight Technologies,N5222B,MY61257109,A.17.25.03
!Date: Wednesday, July 22, 2026 17:31:34
!Correction: S11(C  2-Port  ) 
!S21(C  2-Port  ) 
!S12(C  2-Port  ) 
!S22(C  2-Port  ) 
!S2P File: Measurements: S11, S21, S12, S22:
# Hz S  dB   R 50
10000000 -1.9708737 -53.083935 -51.594845 55.151787 -50.974327 54.346073 -0.35487625 179.80261
20000000 -3.2528441 -87.395287 -48.487709 43.454636 -47.991085 42.235008 -0.33631617 179.91493
30000000 -4.0430522 -109.68474 -47.132813 37.98098 -46.764687 36.275761 -0.33525229 179.86334
40000000 -4.4840546 -124.57124 -46.381985 35.511856 -46.135448 34.049324 -0.33637854 179.80562
50000000 -4.7286739 -135.11475 -45.635204 34.577068 -45.497059 33.631176 -0.3348625 179.76311
60000000 -4.8689737 -142.88707 -45.160851 34.312233 -45.052418 33.640194 -0.33060533 179.72339
70000000 -4.9505172 -148.55176 -44.655624 34.192852 -44.547741 33.978386 -0.33121851 179.66924
80000000 -4.9971967 -152.81236 -44.137505 34.432823 -44.063599 34.337242 -0.33465251 179.58315
90000000 -5.0338011 -156.11075 -43.660892 34.343704 -43.603493 34.452396 -0.33558255 179.54469
100000000 -5.0521898 -158.80763 -43.240875 34.760288 -43.139797 34.376053 -0.33512899 179.4926
110000000 -5.0625615 -161.07243 -42.806519 34.648666 -42.681381 34.344757 -0.33517149 179.44106
120000000 -5.0651278 -162.9679 -42.363022 34.316769 -42.258984 33.96368 -0.33676341 179.39072
130000000 -5.0607729 -164.62927 -41.91349 34.487133 -41.830666 33.939625 -0.33584711 179.33234
140000000 -5.0409107 -166.14044 -41.476967 33.42305 -41.41177 32.905003 -0.33483455 179.27846
150000000 -5.0213099 -167.4337 -41.098305 32.478096 -41.037552 32.119968 -0.33462009 179.22435
160000000 -4.9968491 -168.60432 -40.792912 31.590094 -40.693081 31.162043 -0.33394408 179.17097
170000000 -4.9840178 -169.78149 -40.489216 31.236856 -40.384235 30.483753 -0.33428153 179.11749
180000000 -4.9780755 -170.64043 -40.052139 30.01482 -40.002773 29.476898 -0.33596516 179.07722
190000000 -4.9525332 -171.48975 -39.73407 28.508417 -39.682014 27.992786 -0.3360717 179.02542
200000000 -4.9180584 -172.28029 -39.42754 27.238447 -39.381569 26.585135 -0.33822414 178.96114
210000000 -4.891151 -173.05994 -39.15414 25.415131 -39.132069 24.911724 -0.33791831 178.91072
220000000 -4.8495197 -173.77063 -38.913368 23.83396 -38.890327 23.337576 -0.33807975 178.85397
230000000 -4.8090739 -174.474 -38.696507 22.158085 -38.673203 21.688086 -0.33533227 178.78204
240000000 -4.7645555 -175.15462 -38.515049 20.308022 -38.479855 19.871784 -0.33484629 178.73933
250000000 -4.7262201 -175.74771 -38.345375 18.635029 -38.329731 18.068487 -0.33612597 178.68166
260000000 -4.6856184 -176.40395 -38.245869 16.740612 -38.219406 16.423573 -0.33329642 178.6575
270000000 -4.6414165 -177.01334 -38.094925 15.375732 -38.069126 14.834927 -0.3364118 178.60973
280000000 -4.604444 -177.60583 -37.975018 13.46414 -37.95063 12.826375 -0.33761165 178.56578
290000000 -4.5511603 -178.24164 -37.885136 11.349957 -37.852734 10.862559 -0.33745357 178.52267
300000000 -4.506988 -178.78023 -37.855698 9.4087353 -37.829159 8.9241362 -0.33859521 178.46223
310000000 -4.4564371 -179.39203 -37.844757 7.6059065 -37.842392 7.1367464 -0.33777589 178.40648
320000000 -4.4095159 179.99292 -37.88868 6.1071029 -37.880039 5.6737375 -0.33990371 178.35767
330000000 -4.3657832 179.4527 -37.869114 4.7960315 -37.855133 4.5105467 -0.33918965 178.29921
340000000 -4.3187284 178.96353 -37.820343 3.7207699 -37.813221 3.2940254 -0.33681265 178.25307
350000000 -4.26618 178.3252 -37.774185 1.8337667 -37.781841 1.3627831 -0.33914122 178.19453
360000000 -4.2102203 177.73798 -37.801216 -0.035291158 -37.794689 -0.41063526 -0.33444422 178.13058
370000000 -4.1604147 177.15208 -37.845051 -1.8405986 -37.857574 -2.1782482 -0.33197317 178.08679
380000000 -4.1086874 176.52281 -37.952606 -3.4454548 -37.953041 -3.7725739 -0.32985955 178.03116
390000000 -4.0517321 175.87738 -38.069157 -4.9121857 -38.054428 -5.2561231 -0.3318125 177.98326
400000000 -3.9987087 175.28072 -38.172054 -6.3152857 -38.172726 -6.5695992 -0.33130512 177.93132
410000000 -3.9466181 174.63214 -38.309418 -7.4051752 -38.320084 -7.6986246 -0.32870403 177.86633
420000000 -3.8900445 173.94637 -38.434719 -8.4306936 -38.427956 -8.7479239 -0.32835084 177.82106
430000000 -3.8369904 173.32243 -38.529091 -9.4931679 -38.540638 -9.7822638 -0.32819477 177.7627
440000000 -3.7864752 172.66954 -38.671864 -10.560281 -38.680321 -10.752642 -0.32617956 177.71661
450000000 -3.7310593 171.94656 -38.827713 -11.377422 -38.827099 -11.711021 -0.32545075 177.67769
460000000 -3.6771069 171.2899 -38.974274 -12.28584 -38.972755 -12.428005 -0.32753679 177.60486
470000000 -3.6256466 170.61987 -39.117821 -12.913358 -39.109318 -13.15329 -0.32912371 177.55672
480000000 -3.578229 169.89618 -39.284115 -13.74174 -39.298634 -13.820918 -0.32895812 177.51175
490000000 -3.5298715 169.17677 -39.455708 -14.25544 -39.443287 -14.489668 -0.3294962 177.45177
500000000 -3.4863367 168.50067 -39.600605 -14.762409 -39.606056 -14.914724 -0.33073547 177.39725
510000000 -3.4502649 167.789 -39.76683 -15.032513 -39.773457 -15.271289 -0.32851583 177.33197
520000000 -3.4106658 167.06444 -39.919384 -15.252444 -39.955975 -15.57951 -0.32706565 177.2565
530000000 -3.3707607 166.30634 -40.136921 -15.55863 -40.127808 -15.845095 -0.32824138 177.21483
540000000 -3.3407516 165.56712 -40.29604 -15.565002 -40.283257 -15.818147 -0.32781929 177.15375
550000000 -3.3032064 164.86668 -40.442383 -15.617802 -40.445816 -15.776786 -0.32655016 177.12221
560000000 -3.2726629 164.16859 -40.58614 -15.564028 -40.583248 -15.709036 -0.32810962 177.07819
570000000 -3.2515244 163.45352 -40.720711 -15.320565 -40.731503 -15.479958 -0.325167 177.02234
580000000 -3.2209656 162.71953 -40.863346 -15.204287 -40.839119 -15.41279 -0.32640392 176.9668
590000000 -3.1957583 161.99976 -40.981964 -15.065351 -40.979786 -15.214911 -0.32908824 176.90523
600000000 -3.1770966 161.29068 -41.14817 -14.950253 -41.130646 -14.795168 -0.32929096 176.85335
610000000 -3.1512032 160.54399 -41.237141 -14.235323 -41.269112 -14.297286 -0.33096874 176.79283
620000000 -3.1352172 159.82651 -41.350712 -13.612343 -41.361389 -13.723894 -0.33071285 176.72023
630000000 -3.1169076 159.09943 -41.419044 -13.013365 -41.454376 -13.146433 -0.33081818 176.67848
640000000 -3.0961671 158.35733 -41.485271 -12.745489 -41.503506 -12.865788 -0.33291659 176.61873
650000000 -3.0756314 157.65935 -41.589462 -12.186258 -41.563145 -12.415902 -0.33074442 176.57271
660000000 -3.0620077 156.96889 -41.644997 -11.934493 -41.643494 -11.952462 -0.33260888 176.51659
670000000 -3.049423 156.28152 -41.730946 -11.222455 -41.72036 -11.3821 -0.33036202 176.45529
680000000 -3.0340292 155.58167 -41.768559 -10.663402 -41.76199 -10.747472 -0.32878751 176.42325
690000000 -3.0238945 154.89182 -41.834053 -9.9944439 -41.816963 -10.162691 -0.33183652 176.36812
700000000 -3.0123107 154.2207 -41.831348 -9.2495632 -41.843849 -9.2925148 -0.33056089 176.31354
710000000 -3.0028977 153.53407 -41.854183 -8.3870306 -41.838181 -8.3989544 -0.33247027 176.26532
720000000 -2.9953647 152.84131 -41.824123 -7.6126695 -41.842854 -7.7175207 -0.33498749 176.20221
730000000 -2.9853885 152.14064 -41.833038 -6.9749885 -41.794685 -7.1553059 -0.33453119 176.15382
740000000 -2.9803252 151.46376 -41.7631 -6.4578962 -41.751774 -6.6484556 -0.3385745 176.11404
750000000 -2.972867 150.7925 -41.683907 -5.9295626 -41.648617 -6.2858372 -0.33736405 176.04082
760000000 -2.9688673 150.17921 -41.584106 -5.7915535 -41.586609 -5.9558144 -0.33545643 175.99823
770000000 -2.9695418 149.52794 -41.509789 -5.6544056 -41.495014 -5.7903304 -0.33681181 175.92769
780000000 -2.9769468 148.94041 -41.425919 -5.7132053 -41.409531 -5.8378363 -0.33268464 175.89336
790000000 -2.9780054 148.38699 -41.347 -5.9400573 -41.324219 -6.0303326 -0.33413029 175.8515
800000000 -2.9791288 147.8331 -41.275776 -6.2038498 -41.258171 -6.1690526 -0.33483231 175.79883
810000000 -2.9815187 147.29254 -41.216011 -6.7826886 -41.218166 -6.6105518 -0.33476633 175.74457
820000000 -2.9730539 146.76561 -41.244156 -6.9897971 -41.24395 -7.1247201 -0.33804673 175.68906
830000000 -2.9619532 146.16643 -41.259777 -6.9477758 -41.257271 -7.0714965 -0.33813235 175.62769
840000000 -2.9582872 145.52594 -41.211506 -6.7316651 -41.211338 -6.98704 -0.33721325 175.58734
850000000 -2.9692736 144.93172 -41.115192 -6.8497839 -41.088367 -7.1477842 -0.34237537 175.52333
860000000 -2.9774063 144.46638 -40.999199 -7.8668933 -40.995014 -7.9952412 -0.33804479 175.46812
870000000 -2.9755421 144.06323 -40.992676 -8.9662313 -40.970852 -8.9961309 -0.33923361 175.42244
880000000 -2.9684925 143.60239 -40.958572 -9.8916082 -40.9403 -9.905674 -0.33864194 175.37411
890000000 -2.9551914 143.15549 -40.99345 -11.052646 -40.952732 -11.264475 -0.33751512 175.34013
900000000 -2.9449828 142.67882 -41.078846 -12.565791 -41.035656 -12.607957 -0.33731145 175.29442
910000000 -2.9291499 142.2525 -41.246849 -14.031229 -41.194748 -14.054761 -0.33686805 175.23653
920000000 -2.9050884 141.7861 -41.47683 -15.160394 -41.451881 -15.213927 -0.33729914 175.18542
930000000 -2.8674202 141.28995 -41.838131 -15.840584 -41.827885 -15.902828 -0.33909142 175.12643
940000000 -2.8262718 140.69432 -42.248127 -15.335192 -42.238815 -15.474751 -0.33602023 175.0759
950000000 -2.789887 140.02502 -42.599537 -13.861 -42.613056 -13.951821 -0.33920169 175.03694
960000000 -2.7557516 139.31856 -42.807453 -11.457884 -42.807529 -11.467454 -0.34069404 174.9711
970000000 -2.7360973 138.60005 -42.883114 -9.1457939 -42.881081 -9.3425465 -0.33847377 174.92368
980000000 -2.7273555 137.83214 -42.81282 -6.6506147 -42.801342 -6.9138179 -0.34010527 174.87482
990000000 -2.7308023 137.07251 -42.618904 -5.1341615 -42.605434 -5.2502298 -0.33615869 174.82043
1000000000 -2.742975 136.37175 -42.352428 -4.6721044 -42.337086 -4.6299071 -0.33539408 174.76955
1010000000 -2.7622242 135.74323 -42.174549 -4.5990148 -42.133106 -4.7705312 -0.33533648 174.71339
1020000000 -2.774339 135.18289 -42.063572 -5.2494726 -42.06398 -5.2356582 -0.33510324 174.64832
1030000000 -2.7780459 134.61931 -42.020882 -5.1011882 -42.018356 -5.3226132 -0.33781871 174.58575
1040000000 -2.786685 134.06537 -41.972946 -5.3322873 -41.940578 -5.4360909 -0.33947206 174.53203
1050000000 -2.7963817 133.57054 -41.903576 -5.9347162 -41.893661 -5.9085484 -0.34069681 174.48843
1060000000 -2.7986655 133.10309 -41.924976 -6.1900029 -41.892036 -6.224122 -0.34260198 174.44141
1070000000 -2.8018348 132.6481 -41.91679 -6.3676 -41.898853 -6.5792227 -0.34312496 174.39368
1080000000 -2.7972417 132.15733 -41.919914 -6.299562 -41.909676 -6.4117231 -0.34414706 174.34978
1090000000 -2.8015368 131.66884 -41.855186 -6.4554439 -41.814892 -6.5893168 -0.3429625 174.29773
1100000000 -2.8043566 131.21461 -41.830765 -6.9038258 -41.779972 -7.1285052 -0.34153238 174.23897
1110000000 -2.8023708 130.78423 -41.841789 -7.9336548 -41.804081 -8.0290594 -0.34065148 174.18587
1120000000 -2.7934413 130.35989 -41.90675 -8.741971 -41.897831 -8.9049625 -0.34111094 174.12355
1130000000 -2.7797329 129.88069 -42.047649 -8.9790344 -42.04071 -9.1886854 -0.34104094 174.06491
1140000000 -2.7651043 129.37993 -42.20393 -8.9064388 -42.200794 -9.1048288 -0.34211209 174.00624
1150000000 -2.7568777 128.84071 -42.326279 -8.6257582 -42.306747 -8.7878046 -0.34144166 173.95352
1160000000 -2.7445729 128.33965 -42.397381 -8.157692 -42.369362 -8.3604374 -0.34186199 173.90953
1170000000 -2.7315595 127.85496 -42.463669 -7.9741077 -42.440453 -8.1081076 -0.34499279 173.86826
1180000000 -2.7140608 127.30759 -42.566471 -7.4637885 -42.553497 -7.5068383 -0.34624377 173.82281
1190000000 -2.7050459 126.72298 -42.586788 -6.492516 -42.533844 -6.6343575 -0.34697273 173.77275
1200000000 -2.705003 126.19913 -42.53796 -6.4349303 -42.500031 -6.4720764 -0.34566268 173.71933
1210000000 -2.6953223 125.68216 -42.579426 -6.3304238 -42.529289 -6.4354887 -0.3443093 173.66632
1220000000 -2.6846755 125.15271 -42.611031 -5.9948177 -42.598061 -6.0783997 -0.34302664 173.60246
1230000000 -2.6762779 124.59784 -42.638393 -5.5333238 -42.608898 -5.7278128 -0.34198046 173.53569
1240000000 -2.6666539 124.06507 -42.682583 -5.2760201 -42.647221 -5.3692183 -0.34208605 173.47449
1250000000 -2.6551178 123.53755 -42.68705 -4.5288033 -42.654022 -4.662096 -0.34301263 173.4201
1260000000 -2.6435032 122.98749 -42.643906 -4.0243068 -42.613796 -4.2155604 -0.3448821 173.38152
1270000000 -2.6369131 122.45689 -42.613373 -3.7394121 -42.596622 -3.8755035 -0.34715471 173.34605
1280000000 -2.6276259 121.89706 -42.601578 -3.4415371 -42.564732 -3.3679121 -0.34939036 173.30498
1290000000 -2.6248925 121.34917 -42.505611 -3.0930929 -42.495975 -3.199178 -0.34967455 173.25153
1300000000 -2.6234345 120.83566 -42.437675 -3.2968323 -42.426018 -3.4681604 -0.34789672 173.19664
1310000000 -2.6180985 120.32019 -42.467632 -3.4745033 -42.439461 -3.6135988 -0.34568566 173.14116
1320000000 -2.6090016 119.7932 -42.46793 -3.6101978 -42.444447 -3.6791801 -0.34374189 173.07965
1330000000 -2.6035621 119.23053 -42.47847 -3.4153931 -42.439209 -3.5624022 -0.34218073 173.01385
1340000000 -2.5950897 118.69627 -42.493649 -3.5406623 -42.458923 -3.6246402 -0.3439002 172.95444
1350000000 -2.587507 118.15993 -42.527897 -3.3560548 -42.507877 -3.5630159 -0.34634387 172.90282
1360000000 -2.5798318 117.59984 -42.549129 -3.1350679 -42.53978 -3.1943619 -0.34868345 172.86224
1370000000 -2.575474 117.0517 -42.542835 -2.8433881 -42.517185 -2.9766312 -0.35055479 172.82324
1380000000 -2.5738332 116.4996 -42.542473 -2.7963974 -42.516617 -2.8617032 -0.35205889 172.78439
1390000000 -2.5717731 115.96836 -42.548347 -2.6251755 -42.516277 -2.7245231 -0.35206619 172.72992
1400000000 -2.5692844 115.42142 -42.543686 -2.4856434 -42.522202 -2.5938199 -0.34940103 172.6749
1410000000 -2.5656953 114.86864 -42.53793 -2.3607113 -42.526615 -2.4717708 -0.34585077 172.61685
1420000000 -2.5622118 114.33425 -42.560017 -2.0880702 -42.527969 -2.332113 -0.34432191 172.55748
1430000000 -2.5582471 113.75941 -42.582706 -1.9131187 -42.54546 -1.9807132 -0.34496728 172.4946
1440000000 -2.5570548 113.16737 -42.566372 -1.4863634 -42.527164 -1.5962778 -0.34670636 172.4346
1450000000 -2.5610771 112.58698 -42.511345 -1.1295533 -42.470276 -1.3133276 -0.3495065 172.38638
1460000000 -2.565805 112.01704 -42.42976 -1.1342169 -42.400288 -1.2441118 -0.35122859 172.33693
1470000000 -2.5723107 111.47817 -42.367218 -1.419974 -42.339294 -1.5061462 -0.35221216 172.29108
1480000000 -2.5710135 110.96046 -42.351299 -1.8123518 -42.330914 -1.9187242 -0.35332146 172.24484
1490000000 -2.5707688 110.43376 -42.360573 -2.0622728 -42.334305 -2.114409 -0.35239884 172.19278
1500000000 -2.5697138 109.88857 -42.378242 -2.1389847 -42.350979 -2.3722861 -0.35017791 172.13812
1510000000 -2.5647082 109.35029 -42.394577 -2.3495576 -42.391392 -2.4838123 -0.34793121 172.08012
1520000000 -2.5609267 108.78635 -42.432369 -2.3425741 -42.401882 -2.5314505 -0.34706667 172.02361
1530000000 -2.5612993 108.184 -42.442108 -2.4217849 -42.394928 -2.5546668 -0.34868878 171.96721
1540000000 -2.5686326 107.64165 -42.443073 -2.81918 -42.417572 -2.917417 -0.35112616 171.9117
1550000000 -2.5676093 107.08336 -42.514595 -2.9956024 -42.468685 -3.236187 -0.35294071 171.85985
1560000000 -2.5684268 106.52738 -42.554138 -3.1382315 -42.520237 -3.3136237 -0.354624 171.81306
1570000000 -2.5659022 105.97202 -42.620228 -3.2188675 -42.593277 -3.349195 -0.35440436 171.76526
1580000000 -2.5621555 105.38871 -42.676765 -3.0887544 -42.645264 -3.2230971 -0.35473216 171.71133
1590000000 -2.5611351 104.77986 -42.710159 -2.9585052 -42.675434 -3.0364728 -0.354599 171.65845
1600000000 -2.5669296 104.175 -42.737103 -2.813693 -42.709209 -2.9507511 -0.35326475 171.60393
1610000000 -2.5722294 103.58951 -42.760693 -2.9403441 -42.744499 -3.0083852 -0.35294914 171.54987
1620000000 -2.5750864 102.99827 -42.805393 -3.0160697 -42.78331 -3.0957534 -0.35253108 171.49319
1630000000 -2.5765576 102.39938 -42.86763 -3.0560946 -42.837166 -3.2168171 -0.35328832 171.44022
1640000000 -2.5790696 101.76019 -42.9216 -2.9886303 -42.884666 -3.2043514 -0.35481137 171.38525
1650000000 -2.5835168 101.11359 -42.983738 -3.0682917 -42.930573 -3.2259569 -0.35511559 171.3297
1660000000 -2.588305 100.44711 -43.016083 -3.0058258 -43.001076 -3.1371195 -0.35487708 171.27245
1670000000 -2.5966945 99.776649 -43.05489 -2.9970989 -43.033703 -3.1390309 -0.35558474 171.22409
1680000000 -2.6046875 99.0979 -43.13797 -3.1153176 -43.103176 -3.3509707 -0.35730335 171.16954
1690000000 -2.6087434 98.392036 -43.200897 -3.1694226 -43.172234 -3.1650372 -0.35698915 171.11856
1700000000 -2.6205091 97.633675 -43.246891 -3.0914638 -43.23074 -3.202939 -0.35698408 171.07245
1710000000 -2.635462 96.889755 -43.30666 -3.1822221 -43.294285 -3.3117445 -0.35756725 171.02034
1720000000 -2.6533105 96.10257 -43.352013 -3.482749 -43.3508 -3.5195932 -0.35692731 170.96121
1730000000 -2.6765733 95.287201 -43.434105 -3.7949598 -43.430809 -4.0735059 -0.35677582 170.91177
1740000000 -2.7087669 94.431229 -43.552753 -4.4120102 -43.516308 -4.6384978 -0.35716534 170.85759
1750000000 -2.7448106 93.581421 -43.716389 -5.2030416 -43.65575 -5.2661138 -0.35795122 170.80045
1760000000 -2.780905 92.765785 -43.915051 -5.7238274 -43.855415 -5.8193412 -0.35908815 170.74278
1770000000 -2.8209112 91.889511 -44.108757 -6.2078676 -44.07185 -6.4229922 -0.36044952 170.69196
1780000000 -2.8674707 90.995453 -44.35994 -6.9126716 -44.338398 -6.870326 -0.36144924 170.63712
1790000000 -2.9211729 90.082062 -44.635326 -7.348412 -44.595585 -7.4167614 -0.36200038 170.58424
1800000000 -2.9819543 89.16201 -44.983688 -8.0066271 -44.969604 -8.1044569 -0.36137494 170.5345
1810000000 -3.045548 88.213058 -45.416531 -8.399025 -45.470318 -8.4013367 -0.36102474 170.48782
1820000000 -3.1228728 87.2136 -45.917408 -8.5558138 -46.049156 -8.5736456 -0.3625049 170.43976
1830000000 -3.2266607 86.131508 -46.565628 -8.1949043 -46.690285 -8.4509344 -0.362452 170.39278
1840000000 -3.3577535 85.009865 -47.339188 -7.758656 -47.399723 -8.244051 -0.3633714 170.34598
1850000000 -3.4989684 83.918671 -48.24913 -6.7190604 -48.344883 -7.2271018 -0.36474481 170.28723
1860000000 -3.6591313 82.836983 -49.292645 -4.6880875 -49.532478 -4.5463452 -0.36545208 170.22318
1870000000 -3.8299785 81.861885 -50.47538 -0.93225348 -50.962914 0.45241147 -0.36614877 170.16743
1880000000 -4.0218773 80.985504 -51.720692 5.3423848 -52.592224 9.7992697 -0.36593166 170.11398
1890000000 -4.2309241 80.217392 -52.940796 15.079156 -53.916965 26.142538 -0.36681771 170.05656
1900000000 -4.4893131 79.595306 -53.894001 30.997103 -53.902058 50.325062 -0.3659018 170.00386
1910000000 -4.7810168 79.207527 -53.666237 51.753059 -51.872925 71.239677 -0.36728954 169.96611
1920000000 -5.1123214 79.21505 -51.764782 70.503922 -49.121704 82.418541 -0.36951867 169.92924
1930000000 -5.4633155 79.679405 -49.299637 80.637085 -46.79287 86.208694 -0.37162489 169.88858
1940000000 -5.815897 80.614647 -46.9533 85.001236 -44.928284 86.58786 -0.37295294 169.84067
1950000000 -6.1058407 81.699226 -45.16143 85.554337 -43.309483 85.058624 -0.37281135 169.78496
1960000000 -6.365624 83.016716 -43.690929 84.603455 -41.907608 82.138084 -0.37351713 169.72742
1970000000 -6.5716715 84.474312 -42.478256 82.702942 -40.772007 78.691597 -0.37246782 169.67256
1980000000 -6.756988 86.544876 -41.24913 79.643021 -39.80645 74.806038 -0.37257189 169.6192
1990000000 -6.8965178 88.965958 -40.159595 75.776665 -39.066376 70.962456 -0.37345788 169.56625
2000000000 -6.9697018 91.536392 -39.222271 71.59417 -38.42519 66.87925 -0.374782 169.52182
2010000000 -6.9612641 94.004822 -38.505196 67.281242 -37.863457 62.223557 -0.37674424 169.47989
2020000000 -6.8840299 96.663406 -37.92284 62.893925 -37.474102 58.562447 -0.37794453 169.43965
2030000000 -6.734313 99.292175 -37.449162 58.565418 -37.174049 55.367638 -0.37872034 169.39386
