!Keysight Technologies,N5222B,MY61257109,A.17.25.03
!Date: Wednesday, July 22, 2026 17:22:20
!Correction: S11(C  2-Port  ) 
!S21(C  2-Port  ) 
!S12(C  2-Port  ) 
!S22(C  2-Port  ) 
!S2P File: Measurements: S11, S21, S12, S22:
# Hz S  dB   R 50
10000000 -0.38636357 179.84129 -56.683849 18.1071 -56.363861 32.148411 -2.1293294 -47.643112
20000000 -0.33907098 179.96625 -37.614201 30.768333 -37.678177 30.410336 -3.152633 -109.42653
30000000 -0.3432796 179.94641 -37.912067 29.985077 -37.953762 29.468374 -3.1701579 -123.70385
40000000 -0.34330875 179.91174 -34.916294 18.812389 -34.873745 19.003082 -3.0397356 -145.31453
50000000 -0.33547404 179.84137 -30.388239 -22.937956 -30.396467 -23.171085 -4.6954846 172.69093
60000000 -0.34166065 179.68692 -37.819832 -64.603127 -37.879139 -64.566437 -9.6364994 -150.34839
70000000 -0.34278518 179.6476 -43.292171 -51.505585 -43.34338 -51.208179 -7.2302356 -148.99179
80000000 -0.33817965 179.5777 -46.052113 -32.417725 -45.998863 -32.220379 -6.4598136 -152.16747
90000000 -0.34627855 179.57501 -46.953835 -8.4461622 -46.912224 -9.0559816 -5.9868312 -154.97372
100000000 -0.34464163 179.5472 -46.045254 6.6734419 -46.090054 6.2185946 -5.6857214 -157.86469
110000000 -0.34589589 179.47089 -45.096142 16.672497 -45.079971 16.502817 -5.5017805 -160.10423
120000000 -0.344506 179.45341 -43.487736 18.891327 -43.41864 18.680483 -5.2991099 -163.11057
130000000 -0.34304988 179.40044 -41.683121 5.9936681 -41.613186 5.6850204 -5.3303123 -168.75734
140000000 -0.34279975 179.34419 -43.985435 17.526323 -43.955624 17.334951 -5.5895491 -166.50552
150000000 -0.34174857 179.31981 -43.181896 23.625095 -43.205891 23.474712 -5.466064 -167.28996
160000000 -0.33986703 179.30209 -42.551304 26.617594 -42.575134 26.50749 -5.3872685 -168.34599
170000000 -0.34309024 179.23726 -41.971634 29.725803 -41.928036 29.690304 -5.3518295 -169.26599
180000000 -0.34623873 179.20383 -41.249241 30.597258 -41.222263 30.348539 -5.3280988 -170.01785
190000000 -0.34833536 179.16342 -40.669003 31.521843 -40.632767 31.159122 -5.2770729 -170.55254
200000000 -0.33829969 179.11404 -39.997032 31.428129 -40.011345 30.993284 -5.2022891 -171.16797
210000000 -0.34318072 179.04691 -39.581932 31.062191 -39.576756 30.792282 -5.1415043 -171.72739
220000000 -0.33853981 179.00166 -39.125381 30.689011 -39.154861 30.652565 -5.0872722 -172.28706
230000000 -0.33776441 178.95663 -38.460155 26.613243 -38.481796 26.818407 -4.9707589 -173.59135
240000000 -0.3377451 178.91191 -38.765793 25.368652 -38.790977 25.040934 -5.0765972 -174.2059
250000000 -0.33747876 178.8775 -38.444794 27.103252 -38.436237 27.087194 -5.0034127 -174.08325
260000000 -0.34663293 178.8519 -37.932476 27.702072 -37.91135 27.549065 -4.9034233 -174.17213
270000000 -0.34609127 178.80139 -36.97308 24.099781 -36.995628 24.281071 -4.6786842 -175.04781
280000000 -0.34463182 178.77226 -37.196945 19.175755 -37.175991 19.175039 -4.7098632 -176.54008
290000000 -0.34325692 178.71515 -37.531208 16.650749 -37.513081 16.396599 -4.7772527 -177.12794
300000000 -0.34475991 178.68907 -37.781906 17.137897 -37.788788 17.00754 -4.7815099 -177.19612
310000000 -0.34381053 178.63084 -37.689629 19.270197 -37.706017 19.158525 -4.6819987 -177.0016
320000000 -0.34504941 178.60678 -37.25528 20.413795 -37.227722 20.015934 -4.5383306 -177.61684
330000000 -0.34658581 178.55327 -36.797447 19.082914 -36.819046 18.944681 -4.4665456 -178.39415
340000000 -0.35099033 178.52617 -35.855495 15.235941 -35.841789 15.393806 -4.2632332 -179.75848
350000000 -0.35126033 178.45627 -36.216908 10.07752 -36.239159 9.9100533 -4.4044795 179.23956
360000000 -0.34918445 178.41505 -36.536373 7.4166141 -36.521072 7.2832179 -4.4508801 178.8797
370000000 -0.34858555 178.35802 -36.997246 6.1158314 -36.990978 6.0783324 -4.4835529 178.87155
380000000 -0.35006821 178.31416 -37.154346 6.7105761 -37.168598 6.5624537 -4.4255743 178.99626
390000000 -0.3517139 178.26717 -37.311134 7.418283 -37.328747 7.5855107 -4.348166 179.06323
400000000 -0.35255018 178.22858 -37.247784 8.7815142 -37.198135 8.9107103 -4.2033782 178.8233
410000000 -0.35397747 178.17549 -36.902367 9.0519848 -36.865578 8.4657841 -4.0618224 178.13153
420000000 -0.3511458 178.12744 -36.469723 7.1855955 -36.560001 6.9057455 -3.9432383 177.26881
430000000 -0.3503474 178.08482 -36.382942 3.71646 -36.42981 4.2773371 -3.870554 176.1734
440000000 -0.34948462 178.03923 -36.651573 0.56098932 -36.549278 0.9322775 -3.8655663 175.17871
450000000 -0.34735942 177.97903 -36.905739 -0.27601606 -36.865097 -0.93351001 -3.878406 174.66603
460000000 -0.34441718 177.95732 -36.911156 -0.54664606 -36.949001 -0.67805868 -3.8095062 174.27682
470000000 -0.3407279 177.92621 -36.9744 -2.8352668 -36.978935 -3.0772915 -3.769274 173.41364
480000000 -0.3400571 177.87534 -37.30159 -3.9792705 -37.339912 -4.0466356 -3.7553098 173.01707
490000000 -0.33806494 177.82178 -37.478096 -5.1033325 -37.47855 -4.9770756 -3.7108076 172.37007
500000000 -0.33425888 177.77534 -37.67952 -5.6060057 -37.653801 -5.3945417 -3.6643658 171.75095
510000000 -0.33687168 177.71286 -37.925373 -6.9183455 -37.885544 -6.9048886 -3.6365349 171.11697
520000000 -0.33460137 177.66606 -38.258736 -7.346952 -38.275059 -7.3824739 -3.6173444 170.60747
530000000 -0.33476967 177.61713 -38.646137 -6.1794701 -38.628853 -6.4185405 -3.5768969 170.24283
540000000 -0.33888906 177.55345 -38.683994 -4.9642406 -38.711498 -5.2729139 -3.50986 169.73576
550000000 -0.33722976 177.54288 -38.724678 -4.4685655 -38.774708 -4.7098293 -3.4510479 169.13647
560000000 -0.33426306 177.50826 -38.814972 -4.2470179 -38.817207 -4.1681314 -3.3920348 168.47171
570000000 -0.34164441 177.45509 -38.896305 -4.6855602 -38.861599 -5.0661488 -3.3465025 167.60516
580000000 -0.33903572 177.4024 -38.995022 -5.1305828 -39.02108 -5.4294772 -3.3171744 166.92633
590000000 -0.34003443 177.34479 -39.325001 -5.9389286 -39.321526 -5.7608838 -3.2965772 166.2415
600000000 -0.34726548 177.31767 -39.642353 -4.0690513 -39.634209 -3.8468015 -3.2707999 165.80034
610000000 -0.34255213 177.25034 -39.489872 -2.9941156 -39.441093 -2.8725898 -3.1932046 165.12039
620000000 -0.34587011 177.22736 -39.555752 -3.4635241 -39.544865 -3.4430461 -3.1620052 164.26523
630000000 -0.34928122 177.19138 -39.611099 -3.5396814 -39.589386 -3.5852611 -3.1319699 163.51646
640000000 -0.34725088 177.11186 -39.72683 -4.5176954 -39.733707 -4.7238564 -3.1156356 162.67427
650000000 -0.34602261 177.08415 -40.07299 -4.8564034 -40.093239 -4.9357834 -3.1171119 161.95753
660000000 -0.34727612 177.0282 -40.459827 -3.7626872 -40.483181 -3.8300931 -3.1213477 161.32823
670000000 -0.34893954 176.98642 -40.688988 -1.681941 -40.676239 -1.7202113 -3.1053822 160.77916
680000000 -0.3468861 176.94272 -40.804802 -0.46171263 -40.780827 -0.33685246 -3.0824757 160.13318
690000000 -0.34867221 176.89383 -40.984646 1.0344403 -40.935638 1.0339038 -3.0722225 159.46593
700000000 -0.34934661 176.87589 -41.182789 3.2005572 -41.157066 3.0737283 -3.0772924 158.88354
710000000 -0.35022873 176.83415 -41.163948 5.9227996 -41.161983 5.656743 -3.065109 158.36774
720000000 -0.3519803 176.78333 -41.143375 8.4385738 -41.1143 8.0832977 -3.0578334 157.85574
730000000 -0.34845483 176.74167 -41.024269 10.420582 -41.06036 10.395931 -3.0524442 157.34416
740000000 -0.34977809 176.68709 -40.722538 13.636051 -40.742977 13.821605 -3.0396545 157.07527
750000000 -0.34553906 176.63379 -40.147469 14.717222 -40.109333 14.79906 -2.9749761 156.7038
760000000 -0.34240198 176.60153 -39.680645 13.982696 -39.669662 13.806257 -2.9078367 156.11884
770000000 -0.34042105 176.53175 -39.412033 12.383597 -39.399746 12.281747 -2.8477454 155.35938
780000000 -0.34159175 176.49748 -39.280945 10.77778 -39.269264 10.552165 -2.8035386 154.50085
790000000 -0.34128091 176.47823 -39.228466 8.7725916 -39.23447 8.7643309 -2.780966 153.61029
800000000 -0.34199613 176.44394 -39.335892 7.1431804 -39.340744 7.2246079 -2.7765651 152.74658
810000000 -0.34151754 176.39734 -39.525509 6.2641034 -39.505074 6.4677715 -2.7835803 151.95593
820000000 -0.34302497 176.35585 -39.732372 6.270905 -39.701588 6.2824774 -2.7974901 151.22339
830000000 -0.34214655 176.31291 -39.861877 6.8628788 -39.849426 6.8479033 -2.8209379 150.58086
840000000 -0.3427496 176.26451 -39.841354 7.8383088 -39.823853 8.0349569 -2.8267035 150.10138
850000000 -0.34526971 176.203 -39.76218 8.4825964 -39.706642 8.3488503 -2.8258014 149.53687
860000000 -0.34426782 176.15826 -39.661373 8.4071293 -39.61232 7.8850865 -2.8217573 148.95866
870000000 -0.3429471 176.1315 -39.530079 8.0238285 -39.559505 7.4552679 -2.8280525 148.37473
880000000 -0.34483698 176.0882 -39.413792 6.8403721 -39.4524 6.6993623 -2.8371625 147.8679
890000000 -0.3445881 176.06914 -39.478519 4.929563 -39.474224 5.1479864 -2.8355613 147.43723
900000000 -0.34665367 176.0186 -39.649506 3.5719609 -39.606255 3.5954056 -2.8197317 147.00591
910000000 -0.34713173 175.98457 -39.854805 2.2736461 -39.847958 2.1303158 -2.7954359 146.51074
920000000 -0.34808126 175.93199 -40.200344 0.97304583 -40.184761 1.1586875 -2.7695572 145.94601
930000000 -0.34568033 175.87935 -40.689804 0.69041973 -40.673168 0.88788301 -2.7489483 145.28749
940000000 -0.34671953 175.82539 -41.199684 2.3937716 -41.165882 2.2870817 -2.7443452 144.63626
950000000 -0.34743875 175.75107 -41.536644 5.3492007 -41.498524 5.1955838 -2.7451198 144.03468
960000000 -0.34527728 175.71332 -41.599888 8.5946827 -41.580956 8.4213467 -2.7485545 143.45306
970000000 -0.34537396 175.67642 -41.500282 11.311847 -41.525414 11.061485 -2.7462134 142.91322
980000000 -0.34773573 175.62366 -41.331787 13.025184 -41.343433 13.070375 -2.7459524 142.37856
990000000 -0.34897658 175.5779 -41.135525 14.666336 -41.105507 14.541662 -2.7395959 141.90518
1000000000 -0.34899986 175.53415 -40.891304 14.886149 -40.857006 14.837616 -2.7269471 141.40201
1010000000 -0.35481641 175.49594 -40.746883 14.751443 -40.706768 14.474317 -2.7106109 140.90561
1020000000 -0.35290843 175.44012 -40.699867 14.442824 -40.707283 14.006003 -2.6948225 140.34125
1030000000 -0.35323721 175.40164 -40.698772 14.290062 -40.701767 14.383685 -2.6865427 139.77646
1040000000 -0.35378593 175.3414 -40.642002 14.535134 -40.656704 14.52741 -2.6710045 139.24031
1050000000 -0.35322121 175.28873 -40.636505 14.447918 -40.620636 14.313076 -2.6553831 138.63091
1060000000 -0.35261783 175.25037 -40.685989 14.406245 -40.68866 14.213048 -2.6461878 137.97046
1070000000 -0.35382664 175.21667 -40.730446 14.773776 -40.712669 14.920881 -2.6387997 137.3685
1080000000 -0.35063168 175.18576 -40.738785 15.459064 -40.677685 15.407901 -2.633889 136.7247
1090000000 -0.35041252 175.15543 -40.649162 15.963759 -40.634239 15.803608 -2.6440408 136.1244
1100000000 -0.34868878 175.12515 -40.60099 15.886363 -40.570881 16.074057 -2.6546581 135.64386
1110000000 -0.34779519 175.07449 -40.565067 15.906985 -40.509571 15.560028 -2.6521277 135.15979
1120000000 -0.34763786 175.04291 -40.523251 15.140382 -40.518848 14.862854 -2.6409218 134.69852
1130000000 -0.34959516 174.98787 -40.636658 14.79709 -40.655991 14.49949 -2.6224847 134.17366
1140000000 -0.35107648 174.93246 -40.75621 14.730165 -40.782269 14.831297 -2.6059618 133.59254
1150000000 -0.35312182 174.87187 -40.892929 15.462387 -40.883331 15.447516 -2.5942035 132.97694
1160000000 -0.35362503 174.83032 -40.892914 16.111502 -40.86557 16.14603 -2.5857525 132.33286
1170000000 -0.35340092 174.79662 -40.916168 16.199757 -40.887684 16.087444 -2.5852578 131.68712
1180000000 -0.3561815 174.754 -41.0424 16.750933 -41.004856 16.517038 -2.5852501 131.11235
1190000000 -0.35676038 174.72147 -41.040955 17.470379 -41.037315 17.464298 -2.5822167 130.50067
1200000000 -0.3584533 174.683 -41.067837 17.93854 -41.075058 17.846701 -2.5907273 129.88246
1210000000 -0.35767266 174.62695 -41.124146 18.575851 -41.115505 18.555729 -2.598613 129.33447
1220000000 -0.35796359 174.58478 -41.134281 19.377113 -41.107056 19.28438 -2.6003063 128.7821
1230000000 -0.35818061 174.53427 -41.143139 19.976391 -41.11544 19.917349 -2.6004267 128.2262
1240000000 -0.35968876 174.47134 -41.114956 20.684544 -41.092232 20.449432 -2.599179 127.66447
1250000000 -0.35868019 174.4324 -41.075535 21.17277 -41.066212 21.031836 -2.6020637 127.04349
1260000000 -0.35793155 174.38062 -41.013668 21.416933 -41.029442 21.354288 -2.6142588 126.45304
1270000000 -0.35881343 174.34787 -41.024845 21.495636 -41.035545 21.527508 -2.6188176 125.86685
1280000000 -0.35632566 174.29321 -41.098442 21.919207 -41.046761 22.027155 -2.6331835 125.25246
1290000000 -0.35692 174.25964 -41.100182 22.690113 -41.05106 22.528008 -2.655509 124.70185
1300000000 -0.35467428 174.21983 -41.04612 23.15766 -41.038101 22.988035 -2.6819117 124.23368
1310000000 -0.35512203 174.17162 -41.033298 23.451181 -41.038227 23.42384 -2.6974213 123.8074
1320000000 -0.35380951 174.12657 -41.094723 23.768646 -41.072067 23.846977 -2.7103539 123.35871
1330000000 -0.35458356 174.07018 -41.07246 24.718866 -41.061081 24.676191 -2.7251704 122.94019
1340000000 -0.3534936 174.01114 -41.028336 25.51479 -41.00948 25.423174 -2.7356565 122.58984
1350000000 -0.35504815 173.96463 -40.941349 26.089306 -40.932919 25.963148 -2.733475 122.26186
1360000000 -0.35539398 173.92213 -40.832588 26.446016 -40.832924 26.382387 -2.7191966 121.86655
1370000000 -0.35673285 173.88431 -40.749134 26.415083 -40.745243 26.442427 -2.7052062 121.43055
1380000000 -0.35696694 173.841 -40.726086 26.325064 -40.695175 26.237566 -2.6847873 120.95386
1390000000 -0.35559458 173.81129 -40.662907 26.239521 -40.648579 26.211821 -2.6657867 120.46006
1400000000 -0.35404122 173.76059 -40.686939 26.146061 -40.670609 26.024998 -2.6524324 119.91721
1410000000 -0.35396764 173.71317 -40.712688 26.016909 -40.672752 25.909632 -2.6407135 119.35107
1420000000 -0.35511276 173.67712 -40.748413 26.167667 -40.745853 26.009789 -2.638341 118.77981
1430000000 -0.35637313 173.62167 -40.813034 26.745039 -40.794983 26.558331 -2.6356027 118.23275
1440000000 -0.35779017 173.57458 -40.783756 27.26075 -40.785145 27.26018 -2.635359 117.68173
1450000000 -0.36108717 173.53067 -40.714573 27.807247 -40.70274 27.69591 -2.6336346 117.13421
1460000000 -0.3633725 173.49084 -40.659706 27.837959 -40.65733 27.70311 -2.630697 116.58199
1470000000 -0.36459559 173.4425 -40.627552 27.707026 -40.613285 27.736366 -2.6300757 116.02355
1480000000 -0.36334971 173.40627 -40.648914 27.444809 -40.610428 27.389744 -2.6297417 115.48299
1490000000 -0.36472145 173.35732 -40.641506 27.543978 -40.618698 27.278746 -2.6296341 114.95972
1500000000 -0.36522204 173.30745 -40.672504 27.250124 -40.674103 27.113752 -2.6280394 114.43557
1510000000 -0.36497399 173.26991 -40.756741 27.190626 -40.762787 27.102396 -2.6276288 113.88367
1520000000 -0.36525103 173.22064 -40.847099 27.534239 -40.844326 27.507555 -2.6309865 113.31925
1530000000 -0.36661264 173.17378 -40.899342 27.982414 -40.903248 27.994183 -2.6363773 112.77432
1540000000 -0.36895725 173.12512 -40.951408 28.171926 -40.939495 28.307526 -2.6414278 112.23725
1550000000 -0.36894682 173.0798 -41.047977 28.792393 -40.999798 28.843643 -2.6440351 111.72346
1560000000 -0.37030566 173.03325 -41.060116 29.580887 -41.010372 29.476376 -2.6414976 111.19411
1570000000 -0.37017572 172.9921 -41.088573 30.323673 -41.046482 30.030369 -2.6389906 110.64793
1580000000 -0.36902604 172.94078 -41.072308 30.908884 -41.061249 30.636892 -2.6345868 110.10388
1590000000 -0.36627975 172.89584 -41.098244 31.577055 -41.108128 31.301266 -2.6351268 109.52905
1600000000 -0.36552444 172.85524 -41.084824 32.504971 -41.102867 32.417561 -2.6407468 108.96175
1610000000 -0.3652761 172.81059 -41.010307 33.149345 -41.02626 33.232624 -2.6475358 108.40762
1620000000 -0.36490583 172.76334 -40.936428 33.720516 -40.924091 33.85672 -2.6531837 107.86532
1630000000 -0.36630395 172.72897 -40.854988 34.00325 -40.800495 34.068485 -2.6560063 107.32417
1640000000 -0.36603022 172.68245 -40.783241 34.097889 -40.737671 33.953861 -2.6564519 106.76192
1650000000 -0.36734983 172.63933 -40.727619 34.102638 -40.720337 33.862778 -2.6582992 106.18495
1660000000 -0.36814967 172.58214 -40.697598 34.185108 -40.695747 34.041183 -2.6613255 105.61138
1670000000 -0.36817896 172.54393 -40.674118 33.929878 -40.658337 33.948902 -2.6614828 105.03883
1680000000 -0.36834043 172.49219 -40.70509 33.985641 -40.668804 33.88126 -2.6646523 104.45594
1690000000 -0.3679668 172.45161 -40.708069 33.92905 -40.681843 33.839436 -2.6721854 103.86428
1700000000 -0.36703205 172.4017 -40.742378 33.91061 -40.736549 33.834911 -2.6829865 103.26305
1710000000 -0.3686994 172.36453 -40.766762 34.179127 -40.758198 34.110519 -2.6966307 102.67364
1720000000 -0.36968553 172.3107 -40.779507 34.236725 -40.747974 34.26807 -2.7080545 102.1037
1730000000 -0.37059489 172.27197 -40.804012 34.072384 -40.764507 34.131386 -2.7167857 101.51807
1740000000 -0.37337777 172.23247 -40.892139 34.109585 -40.85611 33.892426 -2.7231238 100.91577
1750000000 -0.37489572 172.18042 -40.977112 34.512924 -40.966793 34.339775 -2.7320671 100.31056
1760000000 -0.37569103 172.13612 -41.044476 35.197067 -41.016335 34.745388 -2.7405231 99.696548
1770000000 -0.37696415 172.08394 -41.075863 35.544285 -41.06897 35.41275 -2.750773 99.078766
1780000000 -0.37868223 172.03955 -41.111755 35.871971 -41.099361 35.787487 -2.7609394 98.458565
1790000000 -0.3790915 171.99374 -41.193996 36.098427 -41.175964 36.217453 -2.7783728 97.838211
1800000000 -0.37915111 171.95735 -41.277058 36.801319 -41.261135 36.868919 -2.8004386 97.214867
1810000000 -0.37889463 171.90132 -41.341972 37.74548 -41.316189 37.696373 -2.8245466 96.613892
1820000000 -0.38042441 171.86815 -41.356277 38.856377 -41.329567 38.731918 -2.8474576 96.012924
1830000000 -0.38036761 171.82262 -41.296448 39.575279 -41.289051 39.591351 -2.8676798 95.426369
1840000000 -0.38014412 171.7766 -41.26524 40.136543 -41.248905 40.104191 -2.8857093 94.833855
1850000000 -0.3797774 171.73294 -41.238197 40.404785 -41.23135 40.2785 -2.8989453 94.235504
1860000000 -0.37925816 171.68398 -41.271046 41.030319 -41.25629 40.838673 -2.9112244 93.603683
1870000000 -0.38056937 171.63277 -41.239918 41.710262 -41.217331 41.467197 -2.9226663 92.969673
1880000000 -0.38137898 171.58635 -41.220493 41.823265 -41.203602 41.675667 -2.9322038 92.323738
1890000000 -0.37918103 171.55003 -41.251152 41.972076 -41.232643 41.874466 -2.9466567 91.65731
1900000000 -0.38104975 171.50363 -41.309082 42.227547 -41.289307 42.225189 -2.964313 90.947899
1910000000 -0.3791723 171.45834 -41.390491 42.589821 -41.372616 42.520523 -2.9886796 90.206688
1920000000 -0.38022351 171.41618 -41.43951 43.349953 -41.43074 43.456886 -3.016968 89.437996
1930000000 -0.37941128 171.3795 -41.473034 44.126427 -41.439018 44.218571 -3.0448594 88.669838
1940000000 -0.38065809 171.33452 -41.474003 44.931965 -41.441566 44.801369 -3.0731244 87.864708
1950000000 -0.38166162 171.29024 -41.452763 45.255901 -41.438602 45.059593 -3.1030509 87.036758
1960000000 -0.38222015 171.24367 -41.495941 45.565853 -41.489414 45.249393 -3.1342301 86.143112
1970000000 -0.38460684 171.19383 -41.620461 45.911694 -41.60677 45.672039 -3.1759672 85.198631
1980000000 -0.38501725 171.14449 -41.762123 46.527073 -41.741238 46.512093 -3.2316954 84.250916
1990000000 -0.38719609 171.09756 -41.95467 47.272617 -41.925255 47.329708 -3.2956734 83.320335
2000000000 -0.38676679 171.05026 -42.161545 48.676525 -42.121582 48.795155 -3.3687479 82.342262
2010000000 -0.38824555 171.0121 -42.302559 50.580715 -42.301674 50.590652 -3.4546831 81.33519
2020000000 -0.38895726 170.97675 -42.423382 52.967243 -42.404537 52.942581 -3.550801 80.320183
2030000000 -0.38891903 170.92821 -42.497356 55.502537 -42.48708 55.56744 -3.6530344 79.259537
2040000000 -0.39157543 170.87759 -42.464993 58.563366 -42.461918 58.648643 -3.7747598 78.154007
2050000000 -0.39206073 170.83353 -42.293404 61.463104 -42.319996 61.595745 -3.9217269 77.043739
