!Keysight Technologies,N5222B,MY61257109,A.17.25.03
!Date: Wednesday, July 22, 2026 17:35:06
!Correction: S11(C  2-Port  ) 
!S21(C  2-Port  ) 
!S12(C  2-Port  ) 
!S22(C  2-Port  ) 
!S2P File: Measurements: S11, S21, S12, S22:
# Hz S  dB   R 50
10000000 -1.976191 -53.091499 -52.232922 50.09304 -51.306103 51.855881 -0.33479148 179.98149
20000000 -3.2571523 -87.374146 -48.67897 35.935524 -48.323109 33.550472 -0.33119699 179.92134
30000000 -4.0440254 -109.65362 -47.480385 25.779078 -47.239079 23.362778 -0.33073744 179.87029
40000000 -4.4813871 -124.53006 -46.945744 19.977695 -46.796459 17.351875 -0.33078995 179.81224
50000000 -4.7216382 -135.17113 -46.378742 15.267478 -46.37344 13.341831 -0.32944289 179.77217
60000000 -4.8686433 -142.88499 -46.264767 11.197268 -46.22097 9.8329048 -0.3302528 179.73137
70000000 -4.9507155 -148.52911 -46.08466 8.2991552 -46.077644 7.1282725 -0.33077878 179.67412
80000000 -4.995347 -152.80389 -45.924511 5.4623156 -45.933094 4.9270163 -0.32995871 179.59926
90000000 -5.0327897 -156.10828 -45.741024 2.8295753 -45.776516 2.3264 -0.33073324 179.54326
100000000 -5.0499067 -158.79739 -45.732433 0.714338 -45.679222 -0.21141787 -0.32861522 179.49055
110000000 -5.0611272 -161.06389 -45.618053 -1.5620688 -45.57093 -2.3540635 -0.32940042 179.43388
120000000 -5.0639019 -162.95584 -45.528049 -3.7696228 -45.54966 -4.6322665 -0.32894498 179.38106
130000000 -5.0556669 -164.61729 -45.466228 -5.8361959 -45.518234 -6.6470151 -0.32844409 179.3277
140000000 -5.0394254 -166.14456 -45.446796 -8.5675602 -45.476505 -9.0049963 -0.32739443 179.27022
150000000 -5.0204482 -167.43454 -45.427635 -10.814079 -45.463474 -11.462998 -0.32735312 179.22131
160000000 -4.9934483 -168.60756 -45.482479 -13.761936 -45.522518 -14.002477 -0.32842147 179.17661
170000000 -4.9802585 -169.74706 -45.655277 -15.161158 -45.668022 -15.801929 -0.32847115 179.12193
180000000 -4.9724889 -170.65082 -45.593739 -17.095213 -45.682503 -17.606197 -0.32850689 179.07881
190000000 -4.9482656 -171.47952 -45.631462 -19.21867 -45.742111 -19.215214 -0.32730177 179.02692
200000000 -4.9116116 -172.30391 -45.722038 -21.257107 -45.7976 -21.774986 -0.32819784 178.96432
210000000 -4.8878689 -173.06123 -45.848949 -23.091982 -45.899757 -23.814047 -0.32792982 178.90837
220000000 -4.8427458 -173.8116 -45.975014 -25.293447 -46.044941 -25.887785 -0.32690319 178.85606
230000000 -4.8061833 -174.49391 -46.049992 -27.089792 -46.141094 -27.462784 -0.32692051 178.79199
240000000 -4.7628436 -175.19992 -46.29707 -29.40571 -46.314476 -29.320473 -0.32548979 178.74306
250000000 -4.7242513 -175.77991 -46.470547 -30.98748 -46.52306 -31.267962 -0.32609472 178.68753
260000000 -4.6831264 -176.43938 -46.763153 -32.924606 -46.723927 -33.13451 -0.3264201 178.64719
270000000 -4.6392932 -177.07382 -46.941757 -33.736748 -47.010403 -34.102848 -0.3275767 178.59323
280000000 -4.6054616 -177.63817 -47.054287 -35.530796 -47.118328 -35.748993 -0.3274776 178.54895
290000000 -4.5564752 -178.25272 -47.212605 -37.061039 -47.277035 -37.61298 -0.32771459 178.49681
300000000 -4.5085664 -178.80005 -47.496857 -39.276264 -47.557148 -39.378788 -0.32689035 178.43916
310000000 -4.4558582 -179.38998 -47.8461 -41.017937 -47.891918 -41.146893 -0.32696599 178.38338
320000000 -4.4102387 -179.99271 -48.308365 -41.962898 -48.347343 -42.356564 -0.32699975 178.32538
330000000 -4.3610134 179.40533 -48.737263 -42.098232 -48.729366 -42.117561 -0.32723811 178.27226
340000000 -4.3180375 178.90346 -48.919579 -41.562386 -49.01712 -41.258446 -0.32522699 178.2173
350000000 -4.2704992 178.3069 -49.084419 -41.835331 -49.141434 -41.844269 -0.32509559 178.16495
360000000 -4.2146606 177.68723 -49.276409 -42.142433 -49.325596 -42.031605 -0.32660875 178.10861
370000000 -4.1644802 177.12827 -49.501553 -43.115562 -49.535625 -43.205219 -0.32678849 178.06316
380000000 -4.1128168 176.52055 -49.765385 -43.399818 -49.850903 -43.599438 -0.3268337 178.01514
390000000 -4.0562587 175.85846 -50.071091 -44.091305 -50.058544 -44.424088 -0.32799515 177.96132
400000000 -4.0008111 175.25603 -50.366177 -44.306442 -50.410511 -44.701187 -0.32770512 177.9091
410000000 -3.9488845 174.61852 -50.654892 -44.299377 -50.774029 -44.37072 -0.32652169 177.85559
420000000 -3.8951526 173.94456 -51.009159 -44.114418 -50.958473 -44.154884 -0.32780281 177.80136
430000000 -3.8403494 173.29099 -51.291985 -43.713413 -51.253197 -43.733845 -0.32685158 177.74294
440000000 -3.7890804 172.65292 -51.46701 -43.28643 -51.517033 -43.048607 -0.32730371 177.69049
450000000 -3.7363374 171.95883 -51.723812 -42.724247 -51.750526 -42.539486 -0.32551798 177.63837
460000000 -3.6809471 171.25504 -51.981606 -41.679588 -52.002201 -41.978745 -0.32593623 177.58459
470000000 -3.6300154 170.60179 -52.171242 -40.767155 -52.189453 -41.070179 -0.32775953 177.53352
480000000 -3.5824518 169.90475 -52.409805 -40.16647 -52.464108 -40.375751 -0.32734224 177.49393
490000000 -3.5348489 169.15901 -52.641617 -39.021229 -52.669407 -39.542294 -0.32732353 177.43472
500000000 -3.4907753 168.48563 -52.851921 -38.354164 -52.835449 -38.196285 -0.32844353 177.37921
510000000 -3.4537427 167.78438 -53.015461 -36.693226 -52.963451 -37.011257 -0.32868642 177.32652
520000000 -3.4154577 167.08034 -53.187557 -35.533817 -53.141155 -36.194595 -0.33025897 177.2654
530000000 -3.3764782 166.33589 -53.291786 -34.747295 -53.294106 -34.682186 -0.33026454 177.21967
540000000 -3.3464866 165.56482 -53.38015 -33.654057 -53.403957 -33.320778 -0.33003858 177.16299
550000000 -3.308943 164.84592 -53.515907 -31.611418 -53.500439 -32.586693 -0.32973415 177.11
560000000 -3.2760942 164.13167 -53.541176 -30.896931 -53.612122 -31.410715 -0.33041006 177.06296
570000000 -3.2555418 163.43491 -53.602024 -27.703365 -53.688591 -28.77363 -0.32842985 177.00441
580000000 -3.2258103 162.70866 -53.58984 -27.194759 -53.519993 -27.313019 -0.32969841 176.95139
590000000 -3.2007973 161.99185 -53.574917 -26.520535 -53.648548 -26.075037 -0.33105254 176.90053
600000000 -3.1818111 161.28297 -53.754654 -24.99382 -53.737648 -24.47654 -0.33149761 176.84984
610000000 -3.1557567 160.53412 -53.753712 -23.343849 -53.718636 -22.918806 -0.3318111 176.79478
620000000 -3.1400146 159.83611 -53.646397 -21.330671 -53.711937 -20.611668 -0.33170435 176.74048
630000000 -3.1229403 159.11549 -53.591591 -18.897827 -53.648613 -18.542402 -0.33227468 176.69116
640000000 -3.1033609 158.34962 -53.429497 -18.220627 -53.449352 -17.884676 -0.33219361 176.63016
650000000 -3.0822241 157.64088 -53.286125 -17.353975 -53.20594 -17.234442 -0.33224699 176.58058
660000000 -3.0672743 156.93004 -53.11927 -16.188234 -53.113174 -16.431044 -0.33326903 176.52158
670000000 -3.0549428 156.25926 -53.131985 -15.180299 -52.973274 -15.486902 -0.33300015 176.47278
680000000 -3.0398517 155.56474 -52.970367 -14.426708 -52.916721 -14.739217 -0.33304432 176.42708
690000000 -3.0289013 154.87537 -52.818863 -13.094219 -52.732487 -13.015784 -0.33441097 176.37065
700000000 -3.0189388 154.20184 -52.577335 -11.901686 -52.586086 -11.332673 -0.33398321 176.32283
710000000 -3.0089748 153.51668 -52.381065 -10.649574 -52.316448 -10.494541 -0.33427733 176.27151
720000000 -3.0024424 152.83174 -52.12151 -9.3176336 -52.171036 -9.3164864 -0.33389825 176.21355
730000000 -2.9934149 152.13609 -51.875988 -8.2287331 -51.839787 -8.8839149 -0.33403158 176.15984
740000000 -2.9880254 151.44112 -51.43914 -8.0848494 -51.462902 -8.1156902 -0.33519694 176.10858
750000000 -2.9807236 150.75616 -51.122242 -7.4822707 -51.102745 -8.1201735 -0.33487594 176.0508
760000000 -2.9767573 150.12486 -50.71899 -8.2755413 -50.747463 -8.4463701 -0.3363072 176.00415
770000000 -2.9786544 149.48141 -50.414722 -8.4489946 -50.396893 -9.00208 -0.3363637 175.9485
780000000 -2.9863744 148.90024 -50.107285 -9.6742668 -50.078075 -9.3806248 -0.33735788 175.90268
790000000 -2.9895976 148.34377 -49.730221 -10.692839 -49.759117 -11.021952 -0.33668986 175.85362
800000000 -2.9921839 147.79306 -49.450356 -12.239273 -49.460701 -12.277149 -0.3377451 175.8054
810000000 -2.994952 147.24542 -49.121658 -13.918549 -49.129787 -13.83997 -0.3373467 175.74712
820000000 -2.989022 146.74117 -49.072613 -16.3885 -49.059929 -16.071297 -0.33764914 175.69197
830000000 -2.9790678 146.14728 -49.063828 -17.038736 -49.012268 -16.946301 -0.33797678 175.63686
840000000 -2.9760947 145.49443 -48.882668 -17.401264 -48.835556 -17.216656 -0.33768523 175.58345
850000000 -2.9891026 144.88205 -48.446297 -17.844236 -48.485249 -17.923527 -0.33834642 175.5293
860000000 -2.998606 144.40453 -48.10461 -19.916967 -48.062649 -20.348904 -0.33890277 175.47787
870000000 -2.9991853 144.01877 -47.829014 -23.120934 -47.818974 -23.357718 -0.33934638 175.4313
880000000 -2.9935 143.57433 -47.628822 -25.813437 -47.589912 -26.347681 -0.33972791 175.38623
890000000 -2.9819198 143.12561 -47.471558 -28.876814 -47.420219 -29.01862 -0.3403936 175.34227
900000000 -2.9760649 142.67824 -47.360443 -33.004871 -47.284374 -32.829056 -0.33991125 175.29512
910000000 -2.9591432 142.27701 -47.427219 -37.523506 -47.353661 -37.369511 -0.33987039 175.24374
920000000 -2.9355667 141.84351 -47.600277 -41.89473 -47.514187 -41.936714 -0.33939481 175.19531
930000000 -2.8971393 141.38611 -47.947201 -46.359032 -47.966251 -46.692451 -0.33997956 175.13759
940000000 -2.8528466 140.81108 -48.636894 -49.840981 -48.659271 -50.054218 -0.33994317 175.08363
950000000 -2.8121934 140.13365 -49.458813 -51.87571 -49.500938 -51.866032 -0.34062627 175.03006
960000000 -2.7761796 139.41643 -50.321228 -50.665043 -50.387642 -50.780231 -0.34053051 174.97839
970000000 -2.7530441 138.69592 -51.002224 -48.404625 -51.015289 -48.344337 -0.34042722 174.92387
980000000 -2.7420838 137.9315 -51.4333 -44.097469 -51.44466 -43.320194 -0.34030542 174.87459
990000000 -2.7441936 137.1515 -51.504372 -39.005081 -51.467087 -38.498337 -0.34044513 174.82475
1000000000 -2.7565837 136.43071 -51.041645 -34.973373 -50.943504 -35.137455 -0.33974835 174.77037
1010000000 -2.7786829 135.80612 -50.483696 -34.380634 -50.464146 -34.168709 -0.338844 174.71286
1020000000 -2.7912734 135.2504 -50.173553 -35.07029 -50.093693 -35.119938 -0.33925095 174.65663
1030000000 -2.7958794 134.67931 -49.955555 -35.285816 -49.953857 -35.625717 -0.34101743 174.59692
1040000000 -2.8062263 134.11487 -49.738117 -35.772545 -49.742764 -36.040718 -0.34265408 174.54343
1050000000 -2.815727 133.61963 -49.458004 -36.929054 -49.558681 -36.943203 -0.34392065 174.49355
1060000000 -2.817718 133.16142 -49.356419 -38.755562 -49.368576 -38.624512 -0.34407279 174.4445
1070000000 -2.8213894 132.7115 -49.33662 -39.728821 -49.314274 -39.886425 -0.34443203 174.3902
1080000000 -2.8169682 132.21957 -49.358635 -40.735477 -49.273182 -40.617622 -0.34460774 174.34323
1090000000 -2.8229275 131.72821 -49.110203 -41.217926 -49.041912 -40.959072 -0.34398508 174.29297
1100000000 -2.8275876 131.28326 -48.854687 -42.50827 -48.769127 -42.707172 -0.34462652 174.23448
1110000000 -2.8267264 130.86446 -48.695206 -45.096916 -48.662697 -45.228867 -0.34508249 174.18433
1120000000 -2.819484 130.45438 -48.578175 -47.892921 -48.575588 -48.265663 -0.34561083 174.12865
1130000000 -2.8061008 129.99287 -48.718216 -50.954914 -48.738529 -50.95689 -0.34638226 174.0777
1140000000 -2.7898865 129.49901 -48.891594 -53.317158 -48.906265 -53.228611 -0.34678769 174.02654
1150000000 -2.7802417 128.96359 -49.127285 -54.728302 -49.158501 -54.701599 -0.34626648 173.97728
1160000000 -2.7663434 128.4604 -49.325478 -55.96904 -49.342403 -55.653126 -0.34688833 173.92456
1170000000 -2.7519646 127.98991 -49.469456 -56.95797 -49.4921 -57.17028 -0.34706891 173.87389
1180000000 -2.732573 127.44205 -49.801346 -58.470867 -49.778011 -58.083771 -0.34710509 173.82513
1190000000 -2.7229121 126.85723 -50.049374 -57.694881 -49.973881 -57.357662 -0.34710199 173.77501
1200000000 -2.7225318 126.32618 -50.053104 -57.704941 -49.877171 -57.905586 -0.34749991 173.72292
1210000000 -2.7132499 125.80668 -50.059643 -58.897186 -49.966324 -59.156494 -0.3477464 173.66753
1220000000 -2.7031271 125.28299 -50.167255 -59.844444 -50.155434 -60.015533 -0.34866521 173.61232
1230000000 -2.6941342 124.73729 -50.293396 -60.18618 -50.336277 -60.495579 -0.34882903 173.55489
1240000000 -2.6822567 124.19229 -50.475544 -61.305374 -50.538475 -61.37677 -0.34805685 173.49983
1250000000 -2.6712463 123.66068 -50.654854 -61.514427 -50.695457 -60.903484 -0.34863576 173.44493
1260000000 -2.6606271 123.10616 -50.768219 -60.827431 -50.717106 -60.584858 -0.34846607 173.39543
1270000000 -2.6540775 122.58313 -50.860962 -61.226521 -50.803764 -61.037617 -0.3492184 173.34746
1280000000 -2.6442239 122.02259 -50.984543 -61.118687 -50.930317 -61.153244 -0.34963837 173.29919
1290000000 -2.6412787 121.47534 -51.025913 -60.110958 -50.920101 -60.519344 -0.34939823 173.25002
1300000000 -2.6407599 120.95901 -50.777332 -60.139473 -50.813648 -60.259609 -0.34997085 173.19768
1310000000 -2.6371536 120.4457 -50.749897 -61.343632 -50.758324 -61.554451 -0.35048324 173.14594
1320000000 -2.6286027 119.92647 -50.73381 -62.321018 -50.697216 -62.041122 -0.35074785 173.09306
1330000000 -2.6220458 119.3756 -50.708645 -63.275345 -50.708187 -63.124123 -0.35176107 173.04036
1340000000 -2.6114111 118.84232 -50.721462 -64.516838 -50.761955 -64.427475 -0.35208809 172.98376
1350000000 -2.6021757 118.30829 -50.836063 -65.82444 -50.804306 -65.825691 -0.35292667 172.93159
1360000000 -2.5947416 117.73631 -51.067772 -66.469124 -51.033871 -66.320702 -0.35292977 172.87965
1370000000 -2.5907876 117.19416 -51.096592 -66.462112 -51.074406 -66.48188 -0.35387075 172.82811
1380000000 -2.5887401 116.6424 -51.212536 -67.056931 -51.127556 -67.258827 -0.35335347 172.77943
1390000000 -2.5870917 116.11224 -51.19138 -67.677299 -51.189671 -67.765938 -0.35332483 172.73062
1400000000 -2.5840805 115.56747 -51.284702 -68.186157 -51.301868 -68.550758 -0.3536371 172.68074
1410000000 -2.5816839 115.00801 -51.359196 -68.410072 -51.354927 -68.763794 -0.35422629 172.62769
1420000000 -2.5785646 114.48346 -51.413101 -69.208359 -51.432423 -68.990013 -0.35526052 172.57336
1430000000 -2.5731759 113.90509 -51.620438 -69.879539 -51.576591 -69.901466 -0.3557682 172.51796
1440000000 -2.5693073 113.30789 -51.77306 -69.709587 -51.717125 -69.419006 -0.35639817 172.46355
1450000000 -2.5721807 112.72083 -51.804451 -68.940178 -51.807232 -68.935478 -0.35729602 172.4104
1460000000 -2.5779896 112.13784 -51.829121 -67.824562 -51.735905 -67.9039 -0.35687643 172.35545
1470000000 -2.5862446 111.60831 -51.6091 -67.963051 -51.543884 -68.055641 -0.35706756 172.30263
1480000000 -2.5846992 111.09039 -51.426792 -68.608009 -51.4324 -69.297768 -0.3569068 172.24942
1490000000 -2.5864644 110.56122 -51.427311 -69.266747 -51.407593 -70.213226 -0.35720327 172.19865
1500000000 -2.585921 110.02634 -51.312614 -70.432281 -51.356243 -70.599319 -0.35737416 172.15021
1510000000 -2.581471 109.48659 -51.352802 -72.006126 -51.329357 -71.777229 -0.35783571 172.09598
1520000000 -2.5795825 108.92866 -51.388119 -72.452553 -51.345558 -72.930969 -0.35939097 172.04503
1530000000 -2.5785577 108.33508 -51.385357 -72.807648 -51.370625 -73.107002 -0.36006674 171.99323
1540000000 -2.5826638 107.80078 -51.27634 -73.884209 -51.222477 -74.051552 -0.36113444 171.94383
1550000000 -2.5797353 107.23677 -51.184261 -75.722351 -51.220367 -76.116653 -0.36175504 171.88737
1560000000 -2.5798676 106.66745 -51.236904 -77.0215 -51.271198 -77.258995 -0.36140054 171.83662
1570000000 -2.5793526 106.11744 -51.304958 -78.505165 -51.303436 -78.787918 -0.3609243 171.78429
1580000000 -2.5762086 105.53748 -51.463554 -79.590446 -51.439163 -79.708923 -0.36104947 171.72639
1590000000 -2.5743823 104.92775 -51.537071 -80.695198 -51.502506 -80.333305 -0.36111137 171.67245
1600000000 -2.5799444 104.32351 -51.640533 -81.303055 -51.580029 -80.958206 -0.36121938 171.61926
1610000000 -2.5866108 103.72625 -51.594017 -81.775803 -51.56868 -81.889412 -0.36262196 171.56856
1620000000 -2.5911298 103.14291 -51.669506 -82.673187 -51.635628 -82.962601 -0.36298159 171.51559
1630000000 -2.5916309 102.55296 -51.675175 -83.917191 -51.667511 -83.996704 -0.3640762 171.46394
1640000000 -2.5912793 101.92198 -51.775269 -84.882927 -51.725044 -85.6203 -0.36465669 171.41052
1650000000 -2.5945415 101.26364 -51.795864 -85.928108 -51.796104 -86.172768 -0.36510348 171.35431
1660000000 -2.5992143 100.57848 -51.97961 -87.04142 -51.980846 -87.010201 -0.36501339 171.29962
1670000000 -2.6090705 99.911499 -52.010132 -87.305901 -52.044353 -87.583321 -0.36478451 171.24266
1680000000 -2.6172888 99.239357 -52.082218 -88.279594 -52.073792 -88.392746 -0.36516291 171.18718
1690000000 -2.6217811 98.529007 -52.21402 -89.478119 -52.241356 -89.296761 -0.36547828 171.13583
1700000000 -2.6336064 97.771538 -52.262821 -89.26133 -52.356445 -89.320511 -0.36600628 171.08173
1710000000 -2.65044 97.009377 -52.348225 -89.186226 -52.325127 -89.620163 -0.36678955 171.03453
1720000000 -2.6689603 96.234863 -52.391953 -89.462738 -52.330845 -89.601112 -0.36754137 170.98206
1730000000 -2.6907606 95.429794 -52.288486 -89.139854 -52.291061 -89.452591 -0.36914748 170.93143
1740000000 -2.7200458 94.591797 -52.134911 -89.476334 -52.062492 -89.92807 -0.3702648 170.87566
1750000000 -2.756567 93.716774 -51.966213 -90.685738 -51.947937 -90.533821 -0.37044746 170.82161
1760000000 -2.7944624 92.876503 -51.829365 -92.079514 -51.79974 -91.94014 -0.37092617 170.76768
1770000000 -2.8369122 91.989532 -51.680168 -93.208794 -51.713055 -92.822212 -0.37201658 170.71007
1780000000 -2.8824425 91.114731 -51.575932 -94.620567 -51.576408 -94.27713 -0.37156594 170.6546
1790000000 -2.9380574 90.192635 -51.45533 -95.700371 -51.417786 -95.589043 -0.37159836 170.60294
1800000000 -2.9986451 89.279305 -51.246113 -97.633423 -51.226582 -97.979385 -0.37225431 170.5519
1810000000 -3.0671768 88.30481 -51.127426 -100.08382 -51.132633 -101.17145 -0.37312275 170.50206
1820000000 -3.1434774 87.322372 -51.064026 -102.46801 -51.078564 -103.27518 -0.37466434 170.45412
1830000000 -3.2409358 86.272354 -50.992817 -104.89783 -50.992123 -105.3098 -0.37528801 170.40062
1840000000 -3.3639481 85.189957 -50.91436 -107.45499 -50.889774 -107.89771 -0.37641251 170.34848
1850000000 -3.5166225 84.055275 -50.879036 -110.31855 -50.862968 -110.90526 -0.37754467 170.29295
1860000000 -3.6808252 82.981255 -50.854019 -113.14713 -50.856136 -113.85738 -0.37822723 170.23508
1870000000 -3.8652167 81.959969 -50.844044 -116.13946 -50.869804 -116.89236 -0.37886411 170.18065
1880000000 -4.0441813 81.11982 -50.841682 -118.44035 -50.947739 -119.37429 -0.37884718 170.12451
1890000000 -4.2567449 80.353699 -50.915722 -120.94479 -51.107498 -121.44743 -0.37953442 170.06911
1900000000 -4.5124326 79.737 -50.982147 -122.95473 -51.123032 -123.29709 -0.37923697 170.02101
1910000000 -4.8157735 79.35157 -51.123264 -125.43046 -51.088497 -124.63264 -0.38019073 169.97403
1920000000 -5.1416168 79.313431 -51.250584 -126.58009 -50.860882 -125.23306 -0.38104156 169.92554
1930000000 -5.4774208 79.708519 -51.258556 -127.18979 -50.324902 -126.21426 -0.38188887 169.88142
1940000000 -5.8123269 80.615234 -51.034824 -127.28672 -49.663765 -128.59311 -0.38313809 169.8297
1950000000 -6.1244192 81.923233 -50.498428 -128.5755 -48.851734 -133.1039 -0.38439983 169.77998
1960000000 -6.3774662 83.25634 -49.870258 -130.36334 -48.067616 -139.19882 -0.386161 169.72591
1970000000 -6.6107979 84.883202 -49.083435 -133.93472 -47.323917 -146.81064 -0.38592222 169.67299
1980000000 -6.7869391 86.732903 -48.22208 -139.34413 -46.768002 -155.15538 -0.38725239 169.61963
1990000000 -6.9298368 89.218483 -47.322338 -147.86678 -46.300884 -164.97253 -0.38714373 169.56787
2000000000 -7.003294 91.81279 -46.61924 -158.63478 -45.981373 -176.5063 -0.38747653 169.51825
2010000000 -7.0076466 94.311089 -46.132458 -169.4977 -45.729511 170.93983 -0.38788298 169.47035
2020000000 -6.9306846 96.863594 -45.825172 178.73283 -45.578312 159.9651 -0.38834208 169.42221
