!Keysight Technologies,N5222B,MY61257109,A.17.25.03
!Date: Tuesday, July 21, 2026 12:10:29
!Correction: S11(C  2-Port  ) 
!S21(C  2-Port  ) 
!S12(C  2-Port  ) 
!S22(C  2-Port  ) 
!S2P File: Measurements: S11, S21, S12, S22:
# Hz S  dB   R 50
10000000 -0.49451795 -179.66895 -55.895622 -2.6055543 -55.849785 3.069942 -2.1740999 -46.833168
20000000 -0.4367457 -179.88454 -36.390141 27.220825 -36.368996 27.255253 -3.3411715 -109.34259
30000000 -0.44112891 179.99049 -36.712772 26.316463 -36.747959 26.030441 -3.2527568 -123.82803
40000000 -0.44034961 179.90234 -33.452995 14.284848 -33.427708 14.448207 -3.2194722 -145.96326
50000000 -0.42660528 179.81258 -28.546846 -25.859819 -28.558079 -25.941828 -5.0217843 173.11497
60000000 -0.43093139 179.64165 -35.004086 -69.122734 -35.034111 -69.098358 -9.5512848 -148.8694
70000000 -0.43213931 179.62955 -39.592625 -63.381863 -39.603382 -63.283035 -7.1744428 -148.48653
80000000 -0.42799428 179.61932 -42.000118 -55.778893 -41.950455 -55.804741 -6.4223604 -151.90845
90000000 -0.43417656 179.63921 -43.779259 -44.920357 -43.763828 -44.844242 -5.9522495 -154.81998
100000000 -0.43344313 179.62222 -44.263325 -34.670216 -44.309658 -34.366634 -5.6546392 -157.81557
110000000 -0.43414766 179.55142 -44.648869 -26.225084 -44.689735 -26.291378 -5.4816794 -160.03682
120000000 -0.43362847 179.52699 -43.374638 -21.700701 -43.38718 -21.388428 -5.3208666 -163.16112
130000000 -0.43214962 179.46642 -40.269535 -25.77095 -40.240143 -25.536575 -5.2908521 -168.60004
140000000 -0.43384901 179.39079 -43.857841 -34.601936 -43.833981 -34.694515 -5.5758905 -166.40259
150000000 -0.43331984 179.35718 -44.394238 -29.486723 -44.436924 -29.469269 -5.4540935 -167.2505
160000000 -0.43112978 179.32095 -44.705944 -27.088634 -44.780422 -27.020264 -5.3793836 -168.37982
170000000 -0.43507037 179.25317 -45.097183 -23.421982 -45.078556 -23.764408 -5.3561573 -169.28629
180000000 -0.43725812 179.23491 -45.098503 -21.601923 -45.140739 -21.593077 -5.333148 -170.06392
190000000 -0.43876335 179.20123 -45.304092 -19.620121 -45.281689 -19.404325 -5.2914886 -170.54016
200000000 -0.43042713 179.15909 -45.370384 -16.736208 -45.348713 -16.588673 -5.2171183 -171.12781
210000000 -0.43697587 179.10086 -45.562172 -15.084352 -45.519833 -15.138207 -5.1638231 -171.59473
220000000 -0.43350175 179.06328 -45.593021 -12.2029 -45.601189 -12.117392 -5.0961776 -172.21451
230000000 -0.4335953 179.01909 -44.309109 -11.237351 -44.315742 -10.87842 -4.9739604 -173.1745
240000000 -0.43398118 178.96564 -44.976795 -21.362953 -44.980152 -21.569006 -5.0544209 -174.12097
250000000 -0.43528897 178.92506 -46.30928 -15.238922 -46.294434 -15.191825 -5.0142136 -173.99089
260000000 -0.44551885 178.88907 -46.61554 -6.1161189 -46.561829 -5.9592743 -4.926321 -174.09285
270000000 -0.44279659 178.83838 -43.918102 -1.0957153 -43.90041 -0.64622152 -4.683259 -174.8463
280000000 -0.44008148 178.78473 -43.946663 -15.791073 -43.907242 -16.129358 -4.7090907 -176.36641
290000000 -0.43953606 178.72017 -44.87389 -25.789354 -44.92033 -25.886589 -4.7681751 -177.00829
300000000 -0.44203475 178.68782 -47.104492 -28.523035 -47.075203 -28.233847 -4.7811842 -177.19095
310000000 -0.44218493 178.64223 -49.367493 -14.108407 -49.435635 -14.066306 -4.7081094 -176.84348
320000000 -0.44390145 178.63196 -48.397938 3.6908174 -48.41843 4.1272998 -4.5572081 -177.2533
330000000 -0.44306087 178.59122 -46.688797 13.243119 -46.84248 12.090354 -4.457284 -177.91978
340000000 -0.4433381 178.56326 -42.772232 2.6047742 -42.718853 2.7663581 -4.2250891 -179.53612
350000000 -0.44280863 178.47353 -44.285103 -12.853949 -44.249004 -12.891094 -4.3775668 179.47012
360000000 -0.44017029 178.41913 -45.40583 -18.737732 -45.395653 -18.496645 -4.4192495 179.03339
370000000 -0.43858236 178.34985 -47.558754 -21.778152 -47.604786 -21.332758 -4.45468 178.92885
380000000 -0.43872842 178.30066 -49.315723 -13.780724 -49.284657 -13.55523 -4.417635 179.03082
390000000 -0.43967012 178.26399 -50.864552 5.1708908 -50.859165 4.3811774 -4.3585796 179.17928
400000000 -0.4397721 178.24452 -48.561577 23.541855 -48.528797 23.823156 -4.1938543 179.10406
410000000 -0.43872583 178.20309 -46.269684 22.484726 -46.255054 22.429087 -4.0321379 178.49738
420000000 -0.43657139 178.16966 -44.703281 15.986985 -44.717194 15.991161 -3.8983142 177.49472
430000000 -0.43527579 178.12215 -44.211163 7.5340772 -44.188892 7.4757051 -3.8192153 176.20851
440000000 -0.43634784 178.06638 -45.155827 -0.097751871 -45.069557 -0.41964746 -3.8439555 175.2507
450000000 -0.43638507 177.99297 -46.024502 -0.1762705 -46.041473 -0.35606763 -3.8544817 174.76672
460000000 -0.43686908 177.9642 -45.678856 5.1158848 -45.6521 4.8642111 -3.7766364 174.34026
470000000 -0.43552649 177.91391 -45.710945 -1.1185218 -45.656086 -1.1032009 -3.7391589 173.4512
480000000 -0.43757161 177.85507 -46.527813 0.23586495 -46.488594 0.092694178 -3.723675 172.99669
490000000 -0.43718454 177.80048 -46.855961 -0.13484077 -46.883675 -0.33746627 -3.690685 172.28589
500000000 -0.43457109 177.75781 -47.03183 1.9292653 -47.04607 2.059586 -3.6457233 171.7038
510000000 -0.43786421 177.70387 -47.514301 1.8774154 -47.537838 1.7434725 -3.622556 171.15942
520000000 -0.43647408 177.66518 -48.409248 4.8357973 -48.46891 4.2019997 -3.612632 170.618
530000000 -0.43649498 177.61552 -48.628616 15.417832 -48.649242 15.54314 -3.5748801 170.32788
540000000 -0.44112805 177.5526 -47.571167 19.232607 -47.559109 18.969093 -3.498769 169.82593
550000000 -0.43931812 177.53165 -47.179276 18.693224 -47.156094 18.875721 -3.444768 169.12337
560000000 -0.43711814 177.48817 -46.911705 19.859234 -46.804882 20.082523 -3.3926101 168.44003
570000000 -0.44441441 177.42668 -46.645378 17.991053 -46.632698 17.823872 -3.3447568 167.61169
580000000 -0.44121057 177.37527 -46.774021 16.607147 -46.698784 16.772425 -3.3111753 166.93864
590000000 -0.44066504 177.32489 -47.420189 18.827848 -47.337414 18.67021 -3.2968009 166.33124
600000000 -0.44667029 177.30368 -47.193787 26.799225 -47.215881 26.756605 -3.2709014 165.95146
610000000 -0.43965152 177.24641 -45.807243 26.725325 -45.809193 26.559429 -3.1802046 165.39503
620000000 -0.44196424 177.22725 -45.725563 22.12817 -45.711742 21.995451 -3.134995 164.43419
630000000 -0.44440669 177.19279 -45.800865 20.100122 -45.794739 20.122725 -3.1121862 163.62027
640000000 -0.44282383 177.10849 -46.136494 17.368525 -46.168083 16.994654 -3.0995314 162.75394
650000000 -0.44372025 177.07838 -46.821808 19.067337 -46.828072 18.897036 -3.1085105 162.00177
660000000 -0.44607389 177.02141 -47.165653 23.867914 -47.157757 24.166851 -3.1138759 161.38043
670000000 -0.44881228 176.97859 -46.821907 27.60162 -46.773312 28.115234 -3.0932786 160.84689
680000000 -0.44690874 176.93781 -46.600262 28.825348 -46.554359 28.82885 -3.0628922 160.1915
690000000 -0.44719768 176.89125 -46.550274 30.658527 -46.542637 30.631374 -3.0512524 159.53642
700000000 -0.44680429 176.87564 -46.485344 34.276234 -46.506905 34.256626 -3.0576916 158.93942
710000000 -0.44667059 176.83975 -45.963459 38.0271 -45.977791 37.81567 -3.055223 158.4624
720000000 -0.44829044 176.79384 -45.256569 40.215527 -45.300556 40.293209 -3.0473883 158.02266
730000000 -0.4467096 176.75354 -44.683376 40.981403 -44.710392 40.840889 -3.0324898 157.51558
740000000 -0.44849396 176.70479 -43.639324 41.246639 -43.689495 40.766041 -3.0068653 157.25058
750000000 -0.44603744 176.64673 -42.945282 37.062153 -42.988243 36.920719 -2.9424181 156.71284
760000000 -0.44543824 176.6216 -42.57069 32.951607 -42.555199 32.910374 -2.8912492 156.06747
770000000 -0.44533959 176.54543 -42.483749 28.632771 -42.438232 28.874411 -2.8403447 155.32256
780000000 -0.44637108 176.5069 -42.441235 25.30372 -42.402882 25.415739 -2.7954321 154.53473
790000000 -0.44612867 176.48314 -42.531288 21.518883 -42.489986 21.672728 -2.7645578 153.6801
800000000 -0.44638601 176.44466 -42.867851 18.453415 -42.850807 18.568848 -2.7542272 152.80061
810000000 -0.44594193 176.3997 -43.2808 17.442093 -43.264267 17.448997 -2.7677066 151.9883
820000000 -0.44666544 176.35732 -43.556297 17.470322 -43.569412 17.213985 -2.784637 151.28961
830000000 -0.44674635 176.31697 -43.751118 18.03516 -43.756866 17.844961 -2.8080337 150.6559
840000000 -0.44805166 176.27559 -43.709614 19.204979 -43.76659 18.822409 -2.8169436 150.16965
850000000 -0.45055208 176.21426 -43.626675 19.085903 -43.686703 18.877447 -2.8177924 149.5959
860000000 -0.44964707 176.17363 -43.538532 18.367105 -43.568855 18.297768 -2.820595 149.00185
870000000 -0.44667146 176.14742 -43.457237 16.916147 -43.44593 17.081841 -2.8242862 148.45593
880000000 -0.44685507 176.09793 -43.397282 14.371742 -43.323666 14.839404 -2.8243523 147.96631
890000000 -0.4451156 176.06824 -43.595142 11.394979 -43.491703 11.575703 -2.8163514 147.54373
900000000 -0.44588196 176.01228 -44.000168 9.3150921 -43.990475 9.1446266 -2.795476 147.09322
910000000 -0.44518614 175.97136 -44.470779 7.528419 -44.46262 7.2717071 -2.772898 146.58347
920000000 -0.44615221 175.92075 -45.067883 6.3707991 -45.108601 6.437078 -2.7482631 146.00661
930000000 -0.44474018 175.8705 -45.84436 6.7792726 -45.897198 7.0600877 -2.7312441 145.35495
940000000 -0.44621789 175.81914 -46.583714 10.663656 -46.637917 10.920442 -2.7275078 144.7067
950000000 -0.44735691 175.75569 -46.881016 16.37221 -46.921886 16.596424 -2.7258177 144.08601
960000000 -0.4455722 175.71913 -46.70998 21.845009 -46.75732 21.619129 -2.7311997 143.46295
970000000 -0.44504762 175.68312 -46.37748 24.567326 -46.348923 24.442173 -2.7302887 142.88976
980000000 -0.44741976 175.63141 -46.048092 25.792185 -45.98975 25.908342 -2.7303746 142.32307
990000000 -0.44863516 175.58177 -45.669163 26.899471 -45.663815 26.587284 -2.7312455 141.84291
1000000000 -0.44803387 175.53209 -45.336006 25.787699 -45.336285 25.858305 -2.7271693 141.38425
1010000000 -0.45258334 175.49287 -45.208473 24.236563 -45.17902 24.098246 -2.7134714 140.9361
1020000000 -0.4520694 175.44319 -45.328594 23.110792 -45.328186 23.098082 -2.6954417 140.44481
1030000000 -0.45433098 175.41382 -45.39872 23.046316 -45.457588 23.378187 -2.6793716 139.88876
1040000000 -0.45533445 175.36276 -45.431347 22.977592 -45.451363 23.038857 -2.6594484 139.3204
1050000000 -0.45633727 175.31874 -45.539398 22.777351 -45.533844 22.725992 -2.6430488 138.67436
1060000000 -0.45590195 175.27885 -45.8004 22.76037 -45.777458 22.636837 -2.6332576 137.99687
1070000000 -0.4572345 175.24461 -45.932896 24.385513 -45.853691 24.530611 -2.6269927 137.37607
1080000000 -0.45532957 175.20644 -45.875999 25.743879 -45.851318 25.537766 -2.6262288 136.75273
1090000000 -0.45507342 175.16093 -45.727299 26.411074 -45.737041 26.714306 -2.6343353 136.18761
1100000000 -0.45377174 175.11902 -45.620163 26.574314 -45.602154 26.62611 -2.64311 135.69241
1110000000 -0.45310882 175.06778 -45.530201 25.809381 -45.529934 25.81049 -2.6424844 135.22583
1120000000 -0.45307377 175.03809 -45.517021 24.386276 -45.537098 24.375328 -2.63082 134.78125
1130000000 -0.45523497 174.98975 -45.708752 23.38563 -45.75071 23.257027 -2.6095619 134.2449
1140000000 -0.45587176 174.94452 -46.009438 23.037706 -46.06868 23.09985 -2.5947576 133.63737
1150000000 -0.45779219 174.89035 -46.300858 24.623409 -46.278294 24.7117 -2.5816021 132.99826
1160000000 -0.45693454 174.85091 -46.300961 25.29278 -46.288151 25.22887 -2.573745 132.32562
1170000000 -0.45562625 174.80946 -46.474171 25.000051 -46.453438 25.007622 -2.5756493 131.67047
1180000000 -0.45684394 174.7542 -46.79314 26.432665 -46.743923 26.344301 -2.5798628 131.10333
1190000000 -0.45667803 174.71323 -46.812912 28.323179 -46.826893 28.297525 -2.5802679 130.52525
1200000000 -0.45850328 174.67139 -46.90247 29.151539 -46.863754 29.093973 -2.5865066 129.91936
1210000000 -0.45738864 174.61919 -46.985439 30.629812 -46.972607 30.662249 -2.5961466 129.38377
1220000000 -0.45739871 174.58133 -46.962799 31.665962 -46.981731 31.849514 -2.5979774 128.85477
1230000000 -0.45738664 174.54297 -46.968842 33.08078 -46.980083 33.108295 -2.5960822 128.29813
1240000000 -0.45903668 174.49214 -46.910751 34.162212 -46.931549 34.155186 -2.5953491 127.71739
1250000000 -0.45771423 174.45755 -46.915363 35.147732 -46.902992 35.162853 -2.5990694 127.06991
1260000000 -0.45722386 174.40433 -46.858006 35.294781 -46.847763 35.319283 -2.6137168 126.48057
1270000000 -0.45801049 174.36252 -46.950382 35.694328 -46.966274 35.76347 -2.6189713 125.91479
1280000000 -0.45605519 174.29533 -47.026855 36.803165 -47.025715 36.829784 -2.6300411 125.3177
1290000000 -0.45754826 174.25142 -47.050041 38.100723 -47.046745 37.973557 -2.6549118 124.77258
1300000000 -0.45660555 174.20815 -46.973904 39.180737 -47.01556 39.041706 -2.6813343 124.32014
1310000000 -0.45797685 174.16333 -46.995743 40.024689 -46.995811 39.671944 -2.6933799 123.90764
1320000000 -0.45710334 174.12691 -47.079628 41.089043 -47.079506 40.975735 -2.7039907 123.45264
1330000000 -0.4580597 174.08209 -46.961296 42.862144 -46.994942 42.948093 -2.7212732 123.01911
1340000000 -0.4567039 174.0311 -46.795792 44.228985 -46.815857 44.183044 -2.7342989 122.6821
1350000000 -0.45874351 173.98799 -46.635986 44.590649 -46.641518 44.493412 -2.7269659 122.32399
1360000000 -0.45908961 173.94547 -46.466747 44.569557 -46.448551 44.864838 -2.7116489 121.90275
1370000000 -0.46095818 173.8994 -46.408108 44.358643 -46.387077 44.38932 -2.7016582 121.46779
1380000000 -0.4623611 173.84032 -46.41082 43.962067 -46.39851 43.836254 -2.6812487 120.99781
1390000000 -0.46155438 173.8022 -46.418182 43.936596 -46.413868 43.758221 -2.6673527 120.50783
1400000000 -0.46090841 173.7489 -46.483494 43.807774 -46.475716 43.872318 -2.6540356 119.9791
1410000000 -0.46108225 173.70258 -46.588081 43.844421 -46.580345 43.781834 -2.6438403 119.41855
1420000000 -0.46172047 173.66986 -46.773563 44.574703 -46.756504 44.596478 -2.6419585 118.85408
1430000000 -0.4618293 173.62526 -46.815907 46.124973 -46.8237 46.106197 -2.639483 118.30435
1440000000 -0.46194908 173.58374 -46.777023 47.892052 -46.806095 47.757771 -2.641391 117.75756
1450000000 -0.46457043 173.54401 -46.60173 48.48896 -46.614822 48.344448 -2.6371944 117.20924
1460000000 -0.46622378 173.50044 -46.534485 48.409195 -46.525585 48.483414 -2.6325538 116.65603
1470000000 -0.46804699 173.44585 -46.451607 48.40667 -46.442539 48.361813 -2.6322718 116.10364
1480000000 -0.4667002 173.40154 -46.559334 47.933929 -46.526699 48.035797 -2.6333435 115.57645
1490000000 -0.46836042 173.34737 -46.572018 47.969944 -46.562981 48.078377 -2.6343012 115.07012
1500000000 -0.46824798 173.29614 -46.700005 47.505585 -46.68293 47.713913 -2.6335814 114.55302
1510000000 -0.46732283 173.26372 -46.961517 48.159985 -46.937225 48.132286 -2.6298537 113.99833
1520000000 -0.46613589 173.21992 -47.147701 49.419025 -47.16898 49.568878 -2.6322947 113.43199
1530000000 -0.46667051 173.18073 -47.238705 50.871483 -47.256165 50.781055 -2.6382782 112.8713
1540000000 -0.46821913 173.13745 -47.321976 52.403332 -47.362816 52.074959 -2.64464 112.32701
1550000000 -0.46898991 173.09377 -47.450954 54.314571 -47.463245 54.15802 -2.6467369 111.79849
1560000000 -0.47168997 173.0455 -47.378468 56.178909 -47.366718 56.15802 -2.6424613 111.27005
1570000000 -0.47336856 173.00012 -47.411232 57.583862 -47.372414 57.694862 -2.6394892 110.72089
1580000000 -0.47394824 172.94293 -47.35178 59.003723 -47.317307 59.068569 -2.63906 110.17272
1590000000 -0.47228327 172.89211 -47.355305 60.93895 -47.339016 61.156715 -2.6433952 109.59989
1600000000 -0.47211793 172.84982 -47.160717 63.08429 -47.127499 63.12109 -2.6524062 109.04549
1610000000 -0.47184491 172.80606 -46.932926 63.982346 -46.907154 64.056602 -2.6579959 108.49522
1620000000 -0.47130159 172.7617 -46.665325 65.231186 -46.679089 65.080475 -2.6647663 107.95657
1630000000 -0.4713541 172.73248 -46.47364 65.227287 -46.474232 64.931931 -2.6683929 107.41287
1640000000 -0.47082525 172.68729 -46.388702 65.262009 -46.357044 65.363602 -2.6722267 106.85282
1650000000 -0.47271302 172.64516 -46.292736 65.293915 -46.300499 65.209984 -2.6721156 106.28403
1660000000 -0.47493544 172.58817 -46.255627 65.632027 -46.225456 65.629677 -2.6707373 105.7069
1670000000 -0.47634864 172.54745 -46.202606 65.541382 -46.170341 65.700905 -2.6713343 105.1255
1680000000 -0.47769845 172.4937 -46.211689 65.686661 -46.169632 65.977966 -2.6771679 104.54662
1690000000 -0.47740948 172.44647 -46.191734 66.050232 -46.187183 66.156219 -2.6884077 103.9603
1700000000 -0.47576633 172.39543 -46.23613 66.751068 -46.220932 66.64991 -2.7026315 103.37538
1710000000 -0.4764798 172.35516 -46.218376 67.282677 -46.208488 67.160416 -2.7155282 102.80498
1720000000 -0.47589484 172.30075 -46.175934 67.475479 -46.21492 67.570267 -2.7269011 102.24536
1730000000 -0.47543272 172.26506 -46.252575 67.748962 -46.270924 67.777611 -2.7348702 101.67003
1740000000 -0.47737512 172.22932 -46.371204 68.99781 -46.413448 68.621086 -2.7409143 101.06136
1750000000 -0.4792406 172.18143 -46.406139 70.694153 -46.419666 70.519447 -2.7484493 100.43944
1760000000 -0.48097616 172.14417 -46.352737 72.205185 -46.367783 71.95887 -2.754472 99.817551
1770000000 -0.48307899 172.09235 -46.301422 73.249924 -46.258942 73.505066 -2.7653122 99.195061
1780000000 -0.4856703 172.04802 -46.251438 74.082993 -46.230778 74.341286 -2.7786157 98.584091
1790000000 -0.4864381 171.99843 -46.273129 75.501976 -46.233387 75.544815 -2.7981088 97.960587
1800000000 -0.48596412 171.9572 -46.184391 77.288956 -46.163342 77.110008 -2.8238583 97.332413
1810000000 -0.48494112 171.89792 -46.045925 78.801727 -46.071671 78.796509 -2.8495257 96.720436
1820000000 -0.4846957 171.8634 -45.791054 80.502571 -45.822628 80.332443 -2.8743913 96.134529
1830000000 -0.4836536 171.81711 -45.514393 81.122787 -45.535416 80.902237 -2.895767 95.553871
1840000000 -0.48326415 171.7718 -45.27961 81.384941 -45.341305 81.244797 -2.9159563 94.982094
1850000000 -0.48356187 171.7347 -45.14716 81.064766 -45.197369 81.021996 -2.9265652 94.393341
1860000000 -0.48467717 171.69566 -45.052246 81.661659 -45.07732 81.635986 -2.9333038 93.749649
1870000000 -0.48792222 171.65199 -44.947941 81.746864 -44.895676 81.74437 -2.9447334 93.105354
1880000000 -0.49041152 171.60747 -44.845512 81.667038 -44.772099 81.773727 -2.9590056 92.45768
1890000000 -0.48940223 171.56677 -44.757351 81.786888 -44.713261 81.993195 -2.9780028 91.799309
1900000000 -0.49135029 171.51428 -44.733887 81.769257 -44.695789 81.778778 -2.9997389 91.097153
1910000000 -0.48881036 171.46011 -44.71653 82.295738 -44.694706 82.339584 -3.0242734 90.367523
1920000000 -0.48994234 171.40874 -44.602688 83.047668 -44.598824 82.959724 -3.0517547 89.614792
1930000000 -0.4881053 171.36778 -44.462048 83.461746 -44.51421 83.445847 -3.0788107 88.851776
1940000000 -0.48885208 171.32263 -44.304005 83.561371 -44.368465 83.511436 -3.1080608 88.05304
1950000000 -0.49050224 171.28622 -44.229279 83.24482 -44.303627 83.123482 -3.137347 87.229805
1960000000 -0.49118769 171.24887 -44.264347 83.264076 -44.26582 83.142418 -3.1665287 86.33728
1970000000 -0.49489102 171.20882 -44.341599 83.350815 -44.264736 83.343216 -3.2071922 85.402275
1980000000 -0.49581712 171.16454 -44.365246 83.778572 -44.294804 83.829346 -3.2637453 84.460686
1990000000 -0.49801251 171.11371 -44.421787 84.388931 -44.384216 84.382324 -3.3269122 83.526611
2000000000 -0.4975965 171.05659 -44.433559 85.773148 -44.435509 85.628571 -3.4004412 82.551575
2010000000 -0.49802151 171.00826 -44.391972 87.036514 -44.42086 87.160675 -3.4873841 81.544991
2020000000 -0.49770623 170.9615 -44.189404 88.367561 -44.2519 88.393852 -3.5827615 80.54879
2030000000 -0.49707693 170.90775 -44.040482 89.118668 -44.116791 89.310043 -3.6848254 79.504135
2040000000 -0.49922416 170.85928 -43.830181 90.206085 -43.900978 90.2481 -3.8063705 78.412003
2050000000 -0.50024033 170.82471 -43.581429 90.426849 -43.592232 90.428146 -3.9541931 77.337852
