!Keysight Technologies,N5222B,MY61257109,A.17.25.03
!Date: Wednesday, July 22, 2026 17:36:06
!Correction: S11(C  2-Port  ) 
!S21(C  2-Port  ) 
!S12(C  2-Port  ) 
!S22(C  2-Port  ) 
!S2P File: Measurements: S11, S21, S12, S22:
# Hz S  dB   R 50
10000000 -1.982621 -53.155376 -52.126492 50.551991 -51.304104 50.175781 -0.34612855 179.87325
20000000 -3.2570741 -87.396286 -48.735809 35.566879 -48.212032 33.36771 -0.33133554 179.91878
30000000 -4.0435553 -109.66502 -47.493473 25.692173 -47.232029 23.438198 -0.32997072 179.86928
40000000 -4.480947 -124.53748 -46.972069 19.99527 -46.807632 17.329166 -0.33055279 179.8101
50000000 -4.7211709 -135.16647 -46.356644 15.325896 -46.350231 13.326125 -0.3291885 179.7663
60000000 -4.870194 -142.83502 -46.252041 11.042144 -46.261856 9.837676 -0.32536203 179.77258
70000000 -4.9528627 -148.50548 -46.059887 8.0532837 -46.112488 7.0948877 -0.3244085 179.7049
80000000 -4.9962997 -152.79999 -45.915279 5.3581638 -45.912716 4.6310863 -0.3261137 179.59894
90000000 -5.0330787 -156.10576 -45.73439 2.9987929 -45.80497 2.4496293 -0.32882968 179.54652
100000000 -5.0513215 -158.80118 -45.705616 0.4350276 -45.681046 0.046047591 -0.32998243 179.4906
110000000 -5.0610967 -161.06848 -45.634792 -1.567886 -45.590393 -2.439425 -0.32932001 179.43692
120000000 -5.0635467 -162.95549 -45.536964 -3.8192618 -45.535355 -4.6454749 -0.32822883 179.38998
130000000 -5.0555582 -164.62135 -45.46011 -5.6521592 -45.50185 -6.5972152 -0.32818946 179.33076
140000000 -5.0391011 -166.13884 -45.424011 -8.5082941 -45.436138 -9.1375074 -0.32745528 179.27644
150000000 -5.0203414 -167.43405 -45.431446 -10.917304 -45.450138 -11.622852 -0.32781065 179.22044
160000000 -4.9953818 -168.60558 -45.481064 -13.492359 -45.483822 -14.122094 -0.32611984 179.17073
170000000 -4.9777122 -169.76924 -45.648666 -15.400085 -45.648331 -15.784977 -0.32771546 179.1169
180000000 -4.9731531 -170.63988 -45.613708 -16.959469 -45.668823 -17.410784 -0.32925549 179.07315
190000000 -4.9472857 -171.4926 -45.714329 -18.886688 -45.711498 -19.524664 -0.32894555 179.02261
200000000 -4.9136372 -172.28871 -45.729008 -20.957323 -45.808147 -21.776983 -0.3289285 178.96022
210000000 -4.8847904 -173.09116 -45.850521 -23.182827 -45.898777 -23.817434 -0.32830757 178.90442
220000000 -4.8460293 -173.77972 -46.004478 -25.518812 -46.008415 -25.776785 -0.32811856 178.85097
230000000 -4.8044744 -174.5304 -46.13216 -27.114937 -46.175724 -27.428619 -0.3266615 178.78461
240000000 -4.7649584 -175.16585 -46.289177 -29.084404 -46.296196 -29.612488 -0.32630429 178.73195
250000000 -4.7237434 -175.80054 -46.478432 -31.441574 -46.488235 -31.606516 -0.32744187 178.67667
260000000 -4.6851959 -176.40504 -46.721706 -33.008831 -46.757561 -33.296555 -0.32522559 178.64613
270000000 -4.6417766 -177.06676 -46.977367 -33.877892 -46.994865 -33.995052 -0.3275834 178.59721
280000000 -4.6034417 -177.67528 -47.030689 -35.252808 -47.157661 -35.843262 -0.3285957 178.55038
290000000 -4.5564456 -178.23396 -47.250465 -37.237743 -47.278774 -37.406544 -0.3285538 178.50032
300000000 -4.5112324 -178.78242 -47.494858 -39.117241 -47.563999 -39.386356 -0.32900503 178.44225
310000000 -4.4558372 -179.4167 -47.853729 -40.510712 -47.892876 -41.155151 -0.32903743 178.38907
320000000 -4.4078512 -179.99405 -48.29678 -42.234901 -48.332291 -42.309464 -0.33001652 178.33212
330000000 -4.3642678 179.43652 -48.700489 -42.121349 -48.728737 -42.149216 -0.32921863 178.2717
340000000 -4.3188195 178.89169 -48.989021 -41.200768 -49.038265 -41.297951 -0.32852337 178.21906
350000000 -4.2664905 178.27287 -49.106251 -41.787476 -49.118378 -41.962524 -0.32959452 178.16208
360000000 -4.2169409 177.72665 -49.279217 -42.32246 -49.307289 -42.330879 -0.327759 178.10266
370000000 -4.1662822 177.12833 -49.490566 -43.009407 -49.530132 -43.175415 -0.32714909 178.05884
380000000 -4.1094232 176.4776 -49.766823 -43.580574 -49.807838 -43.590054 -0.3256759 178.00507
390000000 -4.0574732 175.8934 -50.075901 -44.133263 -50.055225 -44.128754 -0.32716694 177.95604
400000000 -4.003139 175.2735 -50.355263 -44.682045 -50.388634 -44.212978 -0.32738718 177.90492
410000000 -3.9482427 174.57643 -50.669483 -44.118523 -50.686783 -44.26429 -0.32584974 177.84462
420000000 -3.8928983 173.9545 -51.000576 -44.046368 -50.971561 -44.220348 -0.32561508 177.79628
430000000 -3.8423951 173.31886 -51.223904 -43.667713 -51.248161 -43.750572 -0.32490253 177.73312
440000000 -3.7902753 172.63142 -51.489128 -43.207359 -51.522987 -43.19133 -0.32412121 177.68555
450000000 -3.7337897 171.93895 -51.725632 -42.614948 -51.77697 -42.718979 -0.32284871 177.63828
460000000 -3.6827726 171.29492 -52.033871 -41.790928 -52.001919 -42.001442 -0.32439736 177.57188
470000000 -3.6310141 170.59853 -52.174435 -40.977146 -52.204071 -40.664253 -0.32697687 177.52222
480000000 -3.5806324 169.86105 -52.417599 -40.056087 -52.416901 -40.211182 -0.3268365 177.47856
490000000 -3.5355721 169.1945 -52.590916 -39.434311 -52.649063 -39.091152 -0.32709911 177.42101
500000000 -3.491694 168.49477 -52.804089 -37.929642 -52.824917 -37.977615 -0.32887268 177.36638
510000000 -3.4534345 167.73326 -52.933456 -37.660248 -52.954151 -36.295761 -0.32619768 177.30957
520000000 -3.4127796 167.03833 -53.096817 -35.587303 -53.073811 -35.80315 -0.32657611 177.24423
530000000 -3.3738673 166.32921 -53.327328 -34.922997 -53.220718 -34.396175 -0.32699028 177.19838
540000000 -3.3446372 165.5948 -53.379349 -33.206985 -53.377819 -33.453148 -0.3271234 177.1422
550000000 -3.3089125 164.88617 -53.601257 -31.901375 -53.538902 -32.04929 -0.32617843 177.10225
560000000 -3.2762682 164.16911 -53.616474 -30.406445 -53.579353 -30.172659 -0.3268725 177.0535
570000000 -3.2549946 163.44875 -53.605495 -29.007164 -53.640427 -28.7679 -0.32520077 176.99817
580000000 -3.2255726 162.72067 -53.624702 -27.555521 -53.646725 -27.677544 -0.32657862 176.94005
590000000 -3.2011526 161.98851 -53.728027 -26.584208 -53.625702 -26.261143 -0.32873389 176.88689
600000000 -3.1825552 161.25395 -53.705112 -24.955147 -53.682381 -25.349163 -0.32939011 176.83286
610000000 -3.1552358 160.49062 -53.76107 -23.279713 -53.795681 -23.38917 -0.33013019 176.77466
620000000 -3.1387701 159.79089 -53.766876 -21.055468 -53.713654 -21.186872 -0.33002824 176.71385
630000000 -3.1207883 159.10104 -53.612328 -19.608007 -53.63652 -19.619875 -0.33074081 176.66592
640000000 -3.1019218 158.3765 -53.438313 -18.481489 -53.390156 -18.560011 -0.33170241 176.61018
650000000 -3.0821352 157.67696 -53.294765 -17.311623 -53.28643 -17.1619 -0.33055195 176.56033
660000000 -3.0680242 156.96608 -53.224716 -16.177914 -53.143543 -16.091667 -0.33150432 176.50478
670000000 -3.0551753 156.27425 -53.03421 -15.406388 -53.072365 -15.407982 -0.3307246 176.45024
680000000 -3.0404663 155.57268 -53.022099 -14.807975 -52.941425 -14.183179 -0.32956743 176.41112
690000000 -3.0303321 154.87239 -52.80003 -12.856205 -52.829094 -12.995483 -0.33172587 176.35484
700000000 -3.0190485 154.18152 -52.578472 -11.907691 -52.605583 -11.808505 -0.33118665 176.30324
710000000 -3.007942 153.47542 -52.36871 -10.338575 -52.430862 -10.440732 -0.33187535 176.25087
720000000 -3.002214 152.79036 -52.145733 -9.7793598 -52.108097 -9.59126 -0.33351082 176.19473
730000000 -2.9923329 152.12283 -51.817894 -8.599782 -51.798424 -9.0328226 -0.33369166 176.14217
740000000 -2.9891179 151.46136 -51.421959 -7.9817986 -51.460831 -7.9617076 -0.33691084 176.09315
750000000 -2.9825902 150.79131 -51.116737 -8.27106 -51.118309 -7.9390268 -0.33713603 176.02805
760000000 -2.9784212 150.16032 -50.738556 -8.6494665 -50.738014 -8.3616905 -0.33633852 175.97989
770000000 -2.979919 149.50124 -50.381222 -9.0979967 -50.425007 -8.6228924 -0.33717522 175.92226
780000000 -2.9869037 148.90991 -50.058537 -9.6162195 -50.050293 -9.6380081 -0.33471766 175.88332
790000000 -2.9891489 148.34518 -49.72916 -10.809378 -49.728001 -10.868845 -0.33497715 175.83963
800000000 -2.991538 147.76671 -49.420242 -11.828664 -49.465424 -12.273452 -0.3361693 175.78728
810000000 -2.9946589 147.2021 -49.176189 -14.040324 -49.134029 -14.388861 -0.33579454 175.73283
820000000 -2.9888871 146.69879 -49.087494 -16.038908 -49.065147 -16.374531 -0.33728543 175.67513
830000000 -2.9793444 146.13516 -49.022827 -17.373871 -49.017181 -17.410433 -0.33864671 175.61778
840000000 -2.9763875 145.52835 -48.867588 -17.515856 -48.850075 -17.597694 -0.33841974 175.56831
850000000 -2.9865129 144.92566 -48.519096 -17.928093 -48.511467 -18.067968 -0.34107706 175.51036
860000000 -2.9974108 144.43448 -48.128845 -19.77528 -48.106514 -19.882967 -0.33886668 175.45656
870000000 -2.9976034 144.02979 -47.857243 -22.835968 -47.824116 -22.705702 -0.33981299 175.41068
880000000 -2.9941497 143.57597 -47.643333 -25.861849 -47.580196 -25.538824 -0.33950537 175.36526
890000000 -2.983207 143.1225 -47.437843 -28.975616 -47.379848 -28.744192 -0.33843514 175.32657
900000000 -2.9789197 142.66725 -47.293793 -32.823799 -47.312141 -33.109535 -0.33829746 175.28287
910000000 -2.9622414 142.2493 -47.341503 -37.160183 -47.375988 -37.607574 -0.33836937 175.22661
920000000 -2.9375916 141.82097 -47.46698 -41.623665 -47.540562 -42.075069 -0.33879027 175.17632
930000000 -2.8976715 141.37209 -47.92606 -46.637882 -47.950912 -46.716614 -0.3403379 175.11908
940000000 -2.8529525 140.81163 -48.622879 -50.014168 -48.661591 -50.296238 -0.33919302 175.06688
950000000 -2.8135877 140.14778 -49.548019 -52.013741 -49.5019 -51.997898 -0.34107959 175.0191
960000000 -2.7775052 139.43898 -50.457157 -50.892563 -50.306667 -51.012875 -0.34109414 174.95894
970000000 -2.7538977 138.72165 -51.041885 -48.564034 -50.957798 -48.73317 -0.34003639 174.90816
980000000 -2.7417557 137.94139 -51.491505 -43.662018 -51.440502 -44.014313 -0.34088302 174.86031
990000000 -2.7438076 137.16116 -51.513496 -38.370239 -51.469788 -38.358959 -0.33885801 174.80927
1000000000 -2.7552757 136.4299 -51.062687 -35.154243 -51.045887 -35.104351 -0.33818412 174.75945
1010000000 -2.7764125 135.78075 -50.503967 -33.727589 -50.534256 -34.027065 -0.337286 174.70644
1020000000 -2.7895243 135.22855 -50.164459 -34.91687 -50.148869 -34.891132 -0.33786178 174.64075
1030000000 -2.7973719 134.67897 -49.987152 -35.296661 -49.971748 -35.355156 -0.33977914 174.58194
1040000000 -2.8083258 134.13713 -49.709358 -35.865665 -49.700874 -36.037178 -0.34189251 174.52921
1050000000 -2.8146946 133.63739 -49.500874 -37.57439 -49.48954 -37.53931 -0.34287956 174.48125
1060000000 -2.8166568 133.16557 -49.461288 -38.43092 -49.388165 -38.770176 -0.34463632 174.43358
1070000000 -2.8222923 132.69588 -49.321301 -39.713097 -49.245373 -39.619232 -0.34526131 174.38237
1080000000 -2.8186393 132.21877 -49.245102 -40.767246 -49.216442 -40.622585 -0.34592056 174.33727
1090000000 -2.8249173 131.72684 -49.045948 -41.141964 -49.03334 -41.162312 -0.34477642 174.28566
1100000000 -2.8287437 131.27693 -48.74506 -42.822979 -48.790371 -43.00732 -0.34403974 174.22844
1110000000 -2.8272414 130.86726 -48.595909 -45.740818 -48.642025 -45.685738 -0.34356314 174.17632
1120000000 -2.8183997 130.46118 -48.61483 -48.204376 -48.562958 -48.365299 -0.3440302 174.11862
1130000000 -2.8039355 130.00102 -48.805817 -50.998913 -48.766171 -51.145676 -0.34413472 174.06239
1140000000 -2.7897291 129.51257 -48.916885 -53.261181 -48.949223 -53.354862 -0.34511444 174.00838
1150000000 -2.780093 128.98021 -49.167091 -54.969093 -49.130264 -54.924252 -0.34513292 173.95909
1160000000 -2.7647374 128.47536 -49.395771 -55.828934 -49.358181 -55.933258 -0.34549198 173.90933
1170000000 -2.7498107 127.99063 -49.528419 -56.832581 -49.477974 -57.340019 -0.3471376 173.8647
1180000000 -2.7305803 127.43652 -49.847172 -58.282681 -49.811207 -58.316662 -0.34799656 173.8156
1190000000 -2.7209375 126.83997 -50.048149 -57.676392 -50.034782 -57.413902 -0.34864587 173.76584
1200000000 -2.7221649 126.30689 -49.913784 -57.409592 -49.94891 -57.623692 -0.34798589 173.71288
1210000000 -2.7128065 125.79426 -49.970402 -58.930557 -49.992729 -58.68578 -0.34743148 173.65958
1220000000 -2.703778 125.26704 -50.130451 -59.632656 -50.173855 -59.779564 -0.34666711 173.5993
1230000000 -2.6970494 124.72858 -50.283642 -60.372021 -50.257622 -60.303719 -0.34659758 173.53635
1240000000 -2.6864698 124.2001 -50.455078 -61.190956 -50.409237 -61.207954 -0.34657937 173.47922
1250000000 -2.6752315 123.67533 -50.652279 -61.329971 -50.633667 -61.556828 -0.34767124 173.42522
1260000000 -2.6620569 123.12589 -50.760384 -61.042507 -50.709843 -61.294147 -0.34873813 173.38138
1270000000 -2.6544724 122.59934 -50.874069 -61.189945 -50.777653 -61.626789 -0.35010833 173.33882
1280000000 -2.6429636 122.04279 -50.99688 -61.044552 -50.91148 -61.223274 -0.35136557 173.29198
1290000000 -2.6371202 121.48345 -50.989605 -60.480644 -50.947773 -60.193359 -0.35148093 173.24123
1300000000 -2.6354265 120.95476 -50.814259 -60.042828 -50.815956 -60.368141 -0.35116544 173.18896
1310000000 -2.6324599 120.42901 -50.736752 -61.194206 -50.742851 -61.267719 -0.34994364 173.13474
1320000000 -2.6272075 119.90534 -50.692261 -62.341568 -50.697643 -62.162514 -0.34909916 173.07843
1330000000 -2.6246002 119.37302 -50.680626 -63.3172 -50.711636 -63.180065 -0.34879819 173.01921
1340000000 -2.6149259 118.85017 -50.766056 -64.713005 -50.767456 -64.806274 -0.34991136 172.95995
1350000000 -2.6053407 118.31055 -50.870743 -65.937004 -50.846664 -65.79184 -0.3512564 172.90916
1360000000 -2.5964484 117.74455 -51.055595 -66.069374 -51.017921 -66.240379 -0.35245922 172.86293
1370000000 -2.5916088 117.1955 -51.149334 -66.58651 -51.102802 -66.418083 -0.35360312 172.81564
1380000000 -2.5880744 116.64736 -51.176083 -66.676369 -51.123928 -66.949249 -0.35403362 172.77231
1390000000 -2.5843136 116.1152 -51.22477 -67.317818 -51.170822 -67.392067 -0.35433555 172.72107
1400000000 -2.5793204 115.56616 -51.207455 -67.991661 -51.261417 -68.163025 -0.35349613 172.66878
1410000000 -2.577131 114.99942 -51.34478 -68.730141 -51.352436 -68.60778 -0.35220262 172.61243
1420000000 -2.5770936 114.46239 -51.431271 -69.398956 -51.41584 -69.187302 -0.35209903 172.55548
1430000000 -2.5761993 113.90096 -51.592457 -69.76255 -51.56023 -70.164124 -0.35266134 172.49776
1440000000 -2.5742807 113.31126 -51.741192 -69.759804 -51.743843 -69.719223 -0.35379267 172.44171
1450000000 -2.5771561 112.72951 -51.849358 -69.297997 -51.828941 -68.928757 -0.35541421 172.38847
1460000000 -2.5814152 112.15162 -51.785042 -68.045937 -51.747292 -67.969612 -0.35635179 172.33795
1470000000 -2.5883951 111.61521 -51.60323 -67.886368 -51.541264 -68.181374 -0.35644057 172.28767
1480000000 -2.5844016 111.10927 -51.478241 -68.95018 -51.425293 -69.160751 -0.35720441 172.23781
1490000000 -2.5821154 110.5813 -51.399647 -69.894226 -51.390503 -69.815536 -0.35704422 172.18591
1500000000 -2.5782886 110.03291 -51.342251 -70.594666 -51.321331 -70.816643 -0.35645604 172.13416
1510000000 -2.5749621 109.4763 -51.331039 -71.985733 -51.353725 -72.096512 -0.35576904 172.07811
1520000000 -2.5757763 108.91143 -51.378258 -72.625542 -51.349316 -72.632782 -0.35628659 172.02325
1530000000 -2.5810254 108.31535 -51.397984 -73.195534 -51.382797 -72.990471 -0.35753635 171.96823
1540000000 -2.5880702 107.79448 -51.234028 -73.786224 -51.219559 -73.76078 -0.35887924 171.91599
1550000000 -2.5855718 107.24722 -51.202682 -75.700829 -51.192722 -75.9786 -0.35975963 171.86304
1560000000 -2.5830636 106.68015 -51.257614 -77.144554 -51.250557 -77.381584 -0.36030045 171.81361
1570000000 -2.5806029 106.12158 -51.323776 -78.215424 -51.289108 -78.65287 -0.36051196 171.76314
1580000000 -2.5757575 105.54315 -51.434757 -79.868935 -51.427094 -79.899521 -0.36010891 171.70769
1590000000 -2.5719397 104.93692 -51.569584 -80.429077 -51.497719 -80.538307 -0.3606765 171.65494
1600000000 -2.5749743 104.33229 -51.573158 -81.115181 -51.559757 -81.237885 -0.36015335 171.59982
1610000000 -2.5808868 103.72229 -51.624352 -81.963966 -51.595367 -81.791 -0.36058763 171.54886
1620000000 -2.5875323 103.12352 -51.6688 -82.842636 -51.62463 -82.918121 -0.36086833 171.49248
1630000000 -2.5947001 102.52502 -51.659508 -84.022118 -51.643585 -83.900742 -0.36203611 171.44008
1640000000 -2.597894 101.91273 -51.777782 -85.062752 -51.708881 -85.135551 -0.36300495 171.38509
1650000000 -2.6007769 101.27794 -51.824089 -86.362221 -51.796261 -86.111679 -0.3634758 171.32935
1660000000 -2.6026387 100.60063 -51.93755 -87.050903 -51.978329 -86.934776 -0.36264616 171.27251
1670000000 -2.6103201 99.927177 -52.015709 -87.440575 -51.996056 -87.564568 -0.36326838 171.2191
1680000000 -2.6165586 99.257835 -52.108162 -88.618172 -52.055542 -88.853165 -0.36391687 171.16548
1690000000 -2.61657 98.554352 -52.238976 -88.938538 -52.194473 -89.443291 -0.36420709 171.11407
1700000000 -2.6259596 97.782196 -52.313656 -89.291267 -52.337078 -89.42527 -0.36501876 171.06441
1710000000 -2.6443505 96.990891 -52.401348 -89.370644 -52.353848 -89.472176 -0.365839 171.01384
1720000000 -2.6675229 96.197739 -52.348373 -89.503128 -52.297791 -89.393486 -0.36605248 170.95844
1730000000 -2.6962295 95.374344 -52.248333 -89.595116 -52.218075 -89.459839 -0.36653972 170.90773
1740000000 -2.7264175 94.574348 -52.159191 -89.718704 -52.093296 -89.635437 -0.36741573 170.85147
1750000000 -2.7603943 93.730247 -51.963318 -90.446602 -51.936317 -90.334213 -0.36784339 170.79558
1760000000 -2.795984 92.906418 -51.845398 -91.698135 -51.796005 -92.05835 -0.36843228 170.73891
1770000000 -2.8354847 92.018486 -51.748207 -93.246582 -51.709312 -93.210487 -0.36988452 170.68394
1780000000 -2.881283 91.134186 -51.607941 -94.665123 -51.576992 -94.979553 -0.37005308 170.62927
1790000000 -2.9320569 90.237793 -51.454121 -95.74015 -51.449768 -96.144043 -0.37087625 170.57755
1800000000 -2.9926443 89.318184 -51.254021 -97.787399 -51.22311 -98.185959 -0.37071979 170.52844
1810000000 -3.0668309 88.299583 -51.142471 -100.29403 -51.100941 -100.70831 -0.3710849 170.47874
1820000000 -3.1510363 87.26545 -51.081017 -102.7034 -51.05389 -103.03614 -0.37260151 170.43085
1830000000 -3.258909 86.162033 -50.993023 -105.0659 -50.940853 -105.30396 -0.37276369 170.38089
1840000000 -3.3713658 85.137466 -50.886105 -107.48727 -50.87006 -108.07247 -0.37344632 170.33057
1850000000 -3.5088084 84.051331 -50.807743 -110.29208 -50.829231 -110.8497 -0.37476817 170.27594
1860000000 -3.6690507 82.980164 -50.805923 -113.08224 -50.828045 -113.59354 -0.37571645 170.21251
1870000000 -3.8483875 81.988121 -50.839195 -115.68376 -50.912418 -116.79043 -0.37591824 170.15558
1880000000 -4.0369067 81.124634 -50.851013 -118.45992 -51.029877 -119.79144 -0.37603426 170.09999
1890000000 -4.2381244 80.404999 -50.91375 -120.77421 -51.08239 -121.91367 -0.37702799 170.04553
1900000000 -4.5008392 79.83831 -51.039116 -123.19999 -51.124584 -123.31918 -0.37701979 169.99686
1910000000 -4.8276463 79.524849 -51.168266 -125.54258 -51.079414 -124.37784 -0.37817779 169.95433
1920000000 -5.1757474 79.526115 -51.274109 -126.76107 -50.831898 -125.03547 -0.37949461 169.9127
1930000000 -5.5278459 79.881805 -51.223495 -127.24457 -50.373901 -126.05415 -0.3809644 169.86888
1940000000 -5.8348818 80.518822 -50.976967 -127.55907 -49.629631 -128.54056 -0.38200587 169.81816
1950000000 -6.1244607 81.587166 -50.503883 -128.18839 -48.87672 -132.85718 -0.38194877 169.7639
1960000000 -6.3765502 82.904373 -49.919987 -130.12706 -48.169991 -138.89352 -0.38293594 169.70674
1970000000 -6.5990558 84.525101 -49.151997 -133.23505 -47.455223 -146.8157 -0.38246664 169.65012
1980000000 -6.7877269 86.607918 -48.260586 -138.73032 -46.806065 -156.70392 -0.38319436 169.5966
1990000000 -6.9171958 89.003395 -47.410942 -147.25377 -46.286678 -166.67743 -0.38411787 169.54492
2000000000 -6.9741201 91.769142 -46.705086 -158.29474 -45.88216 -177.83415 -0.38532162 169.49779
2010000000 -6.9655466 94.780731 -46.189865 -171.34645 -45.658112 172.09212 -0.38695779 169.45122
2020000000 -6.9100814 97.35537 -45.804195 176.76663 -45.530384 160.85732 -0.38828745 169.40839
