!Keysight Technologies,N5222B,MY61257109,A.17.25.03
!Date: Wednesday, July 22, 2026 17:24:45
!Correction: S11(C  2-Port  ) 
!S21(C  2-Port  ) 
!S12(C  2-Port  ) 
!S22(C  2-Port  ) 
!S2P File: Measurements: S11, S21, S12, S22:
# Hz S  dB   R 50
10000000 -0.38910645 179.94339 -55.918385 24.893604 -55.665016 26.270205 -2.620513 -49.39859
20000000 -0.3380582 179.99159 -37.632866 30.195932 -37.640347 30.279598 -3.1469944 -109.86341
30000000 -0.341869 179.96121 -37.92083 29.996586 -37.98748 29.234026 -3.1907122 -123.78934
40000000 -0.34239498 179.91164 -34.918098 18.860617 -34.90641 18.884247 -3.0545228 -145.30182
50000000 -0.33459941 179.83893 -30.388632 -22.941216 -30.401098 -23.201561 -4.6968336 172.67552
60000000 -0.34271348 179.70654 -37.860634 -64.671127 -37.896278 -64.537628 -9.616766 -150.40187
70000000 -0.34241152 179.66872 -43.326962 -51.017056 -43.376614 -51.039867 -7.2217917 -149.03624
80000000 -0.33814019 179.58972 -46.037865 -32.070763 -46.020561 -32.277996 -6.4556003 -152.19127
90000000 -0.3445814 179.58176 -46.968578 -8.5283976 -46.947758 -8.6845598 -5.9785323 -154.95714
100000000 -0.34386769 179.55467 -46.008896 6.1003299 -46.051594 6.9258313 -5.6722832 -157.83511
110000000 -0.34476522 179.47865 -45.107166 16.562384 -45.080505 16.636654 -5.4993925 -160.10307
120000000 -0.34343004 179.45667 -43.490513 18.812252 -43.477581 18.996332 -5.3038573 -163.04526
130000000 -0.34213898 179.40504 -41.68531 5.7823296 -41.59882 5.6089602 -5.3289514 -168.79321
140000000 -0.3419309 179.34111 -43.978687 17.756901 -43.95924 17.266411 -5.5892949 -166.50684
150000000 -0.34077439 179.31989 -43.190182 23.656322 -43.175682 23.512497 -5.4619632 -167.29988
160000000 -0.3387315 179.29752 -42.563099 26.559443 -42.559597 26.530918 -5.3858924 -168.35849
170000000 -0.34046891 179.23656 -41.922104 29.937071 -41.954655 29.457579 -5.3504863 -169.30299
180000000 -0.34431517 179.2061 -41.242252 30.641546 -41.243359 30.40748 -5.331069 -169.97914
190000000 -0.34632227 179.16351 -40.667854 31.379765 -40.675716 31.241825 -5.2754269 -170.53189
200000000 -0.3374007 179.12042 -40.02066 31.502462 -40.011047 31.348421 -5.2007756 -171.08928
210000000 -0.34245744 179.0519 -39.594475 31.139164 -39.572468 30.820368 -5.1346545 -171.71498
220000000 -0.33731425 179.00526 -39.116699 30.666973 -39.096642 30.694683 -5.0781808 -172.26683
230000000 -0.33666161 178.96191 -38.459679 26.523642 -38.470314 26.326649 -4.9659071 -173.69249
240000000 -0.33567008 178.91219 -38.757202 25.258543 -38.761856 25.132179 -5.0725842 -174.20322
250000000 -0.33602697 178.87848 -38.43203 27.203711 -38.449894 26.888599 -5.0095735 -174.1071
260000000 -0.34598896 178.85367 -37.927307 27.760059 -37.921143 27.630022 -4.8983097 -174.14403
270000000 -0.34494206 178.8054 -36.984489 24.261408 -36.963654 23.937319 -4.6734142 -175.03816
280000000 -0.34391084 178.76982 -37.210819 19.012333 -37.20713 18.881731 -4.7066703 -176.62234
290000000 -0.34236613 178.71866 -37.535706 16.551777 -37.527538 16.440269 -4.7768655 -177.11531
300000000 -0.34393492 178.69087 -37.787491 17.194433 -37.795708 17.04726 -4.7837896 -177.16029
310000000 -0.34319612 178.63257 -37.708672 19.275387 -37.69371 19.142099 -4.6818819 -177.01961
320000000 -0.34366819 178.60376 -37.247524 20.506489 -37.244045 20.346445 -4.527607 -177.4942
330000000 -0.34469825 178.55315 -36.809273 18.993795 -36.778675 19.059071 -4.4545622 -178.36188
340000000 -0.34833059 178.52994 -35.858227 15.122691 -35.907318 14.969907 -4.2834258 -179.81377
350000000 -0.34966895 178.45717 -36.215965 10.116558 -36.232765 9.9305162 -4.3925557 179.22766
360000000 -0.34798336 178.41498 -36.539349 7.4663076 -36.532314 7.2544651 -4.4488001 178.87849
370000000 -0.3476491 178.36009 -36.989422 6.1424994 -36.997643 5.9828768 -4.4813833 178.91763
380000000 -0.34858444 178.31248 -37.143291 6.8190713 -37.181194 6.6759591 -4.4122772 178.95984
390000000 -0.35121822 178.26726 -37.291286 7.3624029 -37.299641 7.235888 -4.3408499 178.94527
400000000 -0.35181159 178.23317 -37.26524 8.7578526 -37.251717 8.5750265 -4.2211261 178.85179
410000000 -0.35266921 178.17763 -36.902477 9.1989584 -36.923515 9.170043 -4.0543809 178.27922
420000000 -0.35104984 178.13509 -36.456654 7.1899028 -36.462608 7.1867576 -3.9070022 177.22012
430000000 -0.34953037 178.08665 -36.360973 3.7001419 -36.352104 3.5359614 -3.8624859 175.97266
440000000 -0.34861389 178.0425 -36.634464 0.36013663 -36.65081 0.32126141 -3.8901556 175.095
450000000 -0.3462323 177.98041 -36.920631 -0.40132505 -36.933926 -0.46995032 -3.8792884 174.76949
460000000 -0.34355557 177.95618 -36.936932 -0.47319371 -36.937565 -0.64727962 -3.8031802 174.31152
470000000 -0.33989641 177.92528 -36.984112 -2.7461689 -36.994587 -2.9493532 -3.7635589 173.46776
480000000 -0.33962715 177.87859 -37.299545 -3.9921179 -37.307121 -3.8622446 -3.7418137 172.95032
490000000 -0.33689323 177.82552 -37.481712 -4.9624405 -37.475487 -5.0670133 -3.706331 172.33409
500000000 -0.33287886 177.77582 -37.65144 -5.5544338 -37.642895 -5.6411142 -3.6621182 171.74776
510000000 -0.33571902 177.7209 -37.901012 -7.0452695 -37.927742 -6.899519 -3.6342506 171.03038
520000000 -0.33394492 177.67419 -38.260605 -7.4654803 -38.268757 -7.3030577 -3.610466 170.52634
530000000 -0.33333722 177.61635 -38.651527 -6.2170706 -38.665882 -6.2994308 -3.5765011 170.20149
540000000 -0.33783242 177.55812 -38.70076 -4.9562993 -38.723263 -4.9221635 -3.5052705 169.72652
550000000 -0.33584934 177.54527 -38.747238 -4.5556402 -38.792465 -4.3311119 -3.4457781 169.16196
560000000 -0.33253372 177.51331 -38.822811 -4.0882425 -38.840443 -4.3779345 -3.3917301 168.47545
570000000 -0.34071392 177.44965 -38.871048 -4.6929302 -38.87566 -4.9125333 -3.3400183 167.67593
580000000 -0.33767572 177.4039 -38.999535 -5.2113824 -38.999439 -5.5851159 -3.3088517 166.9435
590000000 -0.33902171 177.34883 -39.325993 -6.1208773 -39.321426 -6.0732427 -3.2929366 166.19872
600000000 -0.34602931 177.32086 -39.656109 -3.9183125 -39.679779 -3.7596014 -3.2722521 165.73489
610000000 -0.34074357 177.2506 -39.482452 -2.9031079 -39.464272 -2.657588 -3.1917295 165.06024
620000000 -0.34501716 177.23158 -39.536335 -3.4229908 -39.537647 -3.2783608 -3.1589954 164.19771
630000000 -0.34846047 177.19429 -39.620285 -3.5192919 -39.604927 -3.5262103 -3.1326702 163.45525
640000000 -0.34637722 177.11391 -39.73576 -4.5055337 -39.731579 -4.5000315 -3.1150429 162.64677
650000000 -0.34566829 177.08362 -40.059509 -4.7890782 -40.058941 -4.9224792 -3.1132638 161.92827
660000000 -0.34586871 177.02638 -40.482437 -3.6691763 -40.478451 -3.949779 -3.1182616 161.32385
670000000 -0.34832442 176.98929 -40.665295 -1.6697758 -40.68705 -2.0406203 -3.0997453 160.7912
680000000 -0.34583282 176.94313 -40.765057 -0.32209867 -40.809311 -0.56075698 -3.0770171 160.1418
690000000 -0.34784651 176.89558 -40.985046 0.83323151 -40.970139 0.9934442 -3.0703986 159.45799
700000000 -0.34817576 176.87589 -41.198418 3.188333 -41.164612 3.3726611 -3.0749574 158.83328
710000000 -0.34850562 176.83295 -41.167416 5.7347455 -41.142292 5.9124284 -3.0660164 158.31238
720000000 -0.35010386 176.78491 -41.116104 8.5890646 -41.107239 8.5228376 -3.0591826 157.82614
730000000 -0.34810033 176.7386 -41.017517 10.335209 -41.011181 10.26058 -3.0470512 157.29265
740000000 -0.34833422 176.6911 -40.733589 13.519089 -40.730404 13.740572 -3.0399516 157.0229
750000000 -0.34414816 176.63309 -40.140675 14.857795 -40.137398 14.88756 -2.977634 156.6646
760000000 -0.34100315 176.60522 -39.665314 14.123517 -39.653496 13.956917 -2.9066222 156.11696
770000000 -0.33933464 176.53403 -39.390827 12.391936 -39.391079 12.112247 -2.845341 155.36766
780000000 -0.34079343 176.49876 -39.268394 10.632068 -39.261578 10.347296 -2.796936 154.52017
790000000 -0.33995688 176.47733 -39.227207 8.694006 -39.231926 8.5521545 -2.7757509 153.60617
800000000 -0.34029701 176.44424 -39.375111 7.0478134 -39.335747 7.1307788 -2.7721765 152.69102
810000000 -0.33988214 176.40034 -39.531338 6.4870739 -39.512489 6.5809097 -2.7832069 151.87929
820000000 -0.34136549 176.35797 -39.715313 6.5095458 -39.688923 6.5552425 -2.8013716 151.15846
830000000 -0.34079257 176.31578 -39.84169 7.0145268 -39.821308 7.0305834 -2.8234997 150.53069
840000000 -0.34114006 176.27034 -39.825184 7.9919505 -39.807724 8.0464449 -2.8298104 150.06778
850000000 -0.34336701 176.20084 -39.69743 8.498085 -39.683857 8.4454327 -2.82774 149.52589
860000000 -0.34275016 176.15785 -39.615078 8.0922852 -39.603786 7.9017673 -2.8208978 148.95174
870000000 -0.34064111 176.13367 -39.53841 7.6492305 -39.557838 7.3765454 -2.8254962 148.39348
880000000 -0.34324068 176.09015 -39.455139 6.8192639 -39.468937 6.5279541 -2.8317468 147.90352
890000000 -0.34305355 176.071 -39.470493 5.1662903 -39.487263 5.1084981 -2.8277152 147.43977
900000000 -0.344946 176.02122 -39.642971 3.6284626 -39.606972 3.6566763 -2.8136489 146.94571
910000000 -0.34563324 175.98505 -39.858532 2.2898772 -39.803352 2.2018588 -2.7958825 146.41505
920000000 -0.3463949 175.93213 -40.174885 1.1215301 -40.135807 1.0470935 -2.7740972 145.86217
930000000 -0.3445259 175.88246 -40.679844 0.70267648 -40.66468 0.6645726 -2.756649 145.25319
940000000 -0.34531987 175.82639 -41.209763 2.367522 -41.179031 2.277122 -2.7463489 144.64589
950000000 -0.34528399 175.75148 -41.512142 5.2448087 -41.502872 5.2892056 -2.7405031 144.04201
960000000 -0.34406802 175.71353 -41.598064 8.6174259 -41.601212 8.5490847 -2.7442057 143.41905
970000000 -0.34408569 175.67389 -41.496712 11.234697 -41.525845 11.166971 -2.7451375 142.8773
980000000 -0.34638929 175.62628 -41.334507 13.164926 -41.331631 13.237355 -2.7473898 142.37694
990000000 -0.34816006 175.57875 -41.108318 14.708319 -41.092457 14.581079 -2.7382195 141.89197
1000000000 -0.34854543 175.53407 -40.855358 14.894763 -40.838909 14.757212 -2.7290628 141.37231
1010000000 -0.35368961 175.496 -40.705326 14.558924 -40.681866 14.577044 -2.7139931 140.89365
1020000000 -0.35176638 175.44455 -40.702866 14.097476 -40.671951 14.065162 -2.6921022 140.34961
1030000000 -0.35231295 175.40541 -40.704018 14.237392 -40.673733 14.269417 -2.6791711 139.77075
1040000000 -0.35230902 175.3419 -40.668079 14.478191 -40.649609 14.519138 -2.6629736 139.18977
1050000000 -0.35233203 175.28792 -40.639122 14.400763 -40.633465 14.290442 -2.6535583 138.5843
1060000000 -0.35127521 175.24818 -40.719082 14.310983 -40.702854 14.342323 -2.6471648 137.95493
1070000000 -0.35199264 175.21953 -40.724178 15.037829 -40.720703 15.071125 -2.6396456 137.34985
1080000000 -0.3500396 175.18761 -40.698128 15.686018 -40.676956 15.513431 -2.6361451 136.71388
1090000000 -0.34965774 175.15773 -40.617058 15.916428 -40.594383 15.815551 -2.6433809 136.11017
1100000000 -0.3479239 175.12631 -40.586651 15.822385 -40.553638 15.836802 -2.6529686 135.60982
1110000000 -0.34677675 175.075 -40.564777 15.648123 -40.52121 15.579774 -2.6526906 135.13672
1120000000 -0.34677619 175.04391 -40.536301 15.209359 -40.503872 15.054188 -2.6394374 134.68935
1130000000 -0.34885791 174.98972 -40.62912 14.647259 -40.60236 14.650498 -2.6193593 134.1498
1140000000 -0.3499442 174.93559 -40.77354 14.756443 -40.75811 14.618222 -2.6032598 133.56601
1150000000 -0.35206619 174.87628 -40.884758 15.468441 -40.87347 15.410112 -2.5917645 132.95845
1160000000 -0.35274446 174.83511 -40.853237 16.113815 -40.846897 16.072344 -2.5832565 132.32114
1170000000 -0.35256872 174.80051 -40.896317 16.11994 -40.896515 16.055386 -2.5846372 131.6768
1180000000 -0.35510042 174.7567 -41.04467 16.720741 -41.033825 16.585136 -2.5852454 131.09114
1190000000 -0.35545719 174.72356 -41.047878 17.683428 -41.029545 17.515356 -2.5830545 130.48376
1200000000 -0.35770836 174.68378 -41.076088 17.924959 -41.042755 17.820871 -2.5869508 129.86638
1210000000 -0.35723504 174.63023 -41.131565 18.516079 -41.09005 18.49802 -2.5949745 129.31564
1220000000 -0.35694331 174.58513 -41.145519 19.28767 -41.111771 19.235262 -2.5943563 128.75974
1230000000 -0.35700345 174.53688 -41.135941 19.977657 -41.110455 19.967201 -2.5947232 128.19316
1240000000 -0.35859162 174.47552 -41.105011 20.786573 -41.084675 20.624971 -2.5921142 127.61578
1250000000 -0.35795882 174.43562 -41.04599 21.242725 -41.029148 21.117413 -2.6004608 126.98013
1260000000 -0.35692 174.38351 -41.006931 21.298365 -40.997746 21.26819 -2.6190054 126.42019
1270000000 -0.35780337 174.3493 -41.043373 21.453217 -41.034523 21.366358 -2.6264737 125.87558
1280000000 -0.35501418 174.29497 -41.09531 22.065651 -41.061512 21.965757 -2.6355727 125.27087
1290000000 -0.35583028 174.26083 -41.09367 22.746735 -41.048897 22.604748 -2.6554594 124.70468
1300000000 -0.35385558 174.22247 -41.055443 23.139526 -41.015388 22.966799 -2.6750989 124.22886
1310000000 -0.35411087 174.17302 -41.037041 23.528976 -41.008492 23.354965 -2.6867456 123.78367
1320000000 -0.35281184 174.12976 -41.084305 23.754217 -41.060238 23.720884 -2.7002957 123.30202
1330000000 -0.35346496 174.0742 -41.075241 24.703585 -41.054405 24.644279 -2.7203135 122.87962
1340000000 -0.35236797 174.01234 -41.025818 25.56217 -41.011433 25.444975 -2.7344048 122.53513
1350000000 -0.35414624 173.96873 -40.94846 26.057953 -40.932247 26.089781 -2.7358928 122.23266
1360000000 -0.35406986 173.92574 -40.84029 26.521269 -40.819538 26.397165 -2.7209792 121.86703
1370000000 -0.35546029 173.88991 -40.741585 26.489161 -40.729317 26.36101 -2.7078204 121.44777
1380000000 -0.35596234 173.84233 -40.713123 26.359034 -40.687904 26.200987 -2.6827166 120.96361
1390000000 -0.35431588 173.81384 -40.668571 26.268711 -40.645714 26.151312 -2.6606505 120.44724
1400000000 -0.35291713 173.76587 -40.687073 26.148981 -40.663536 26.054722 -2.6437366 119.88292
1410000000 -0.35316843 173.71709 -40.707901 26.112194 -40.673828 25.93782 -2.6321323 119.31985
1420000000 -0.35410327 173.68039 -40.743748 26.221369 -40.72945 26.138901 -2.6294386 118.73672
1430000000 -0.3551347 173.62668 -40.790607 26.632174 -40.773605 26.59112 -2.6298537 118.18401
1440000000 -0.35713723 173.57837 -40.789524 27.321468 -40.765171 27.274343 -2.6323545 117.63992
1450000000 -0.36029652 173.53497 -40.710697 27.762335 -40.687298 27.67938 -2.6321898 117.10374
1460000000 -0.3624258 173.49333 -40.653988 27.791388 -40.653801 27.651148 -2.6315026 116.5571
1470000000 -0.36427495 173.44261 -40.601791 27.782993 -40.596027 27.65807 -2.6328034 116.01067
1480000000 -0.36279529 173.40691 -40.63245 27.441301 -40.605064 27.300344 -2.630652 115.47867
1490000000 -0.36443624 173.35944 -40.652397 27.383926 -40.622154 27.279091 -2.625443 114.94512
1500000000 -0.36462909 173.30983 -40.691654 27.190491 -40.650135 27.110695 -2.6207018 114.40795
1510000000 -0.36418205 173.27303 -40.769707 27.263443 -40.737732 27.13238 -2.6183269 113.85811
1520000000 -0.3641004 173.22234 -40.852898 27.585251 -40.822487 27.456289 -2.6215918 113.29324
1530000000 -0.36590827 173.17813 -40.89748 27.945168 -40.867046 27.825354 -2.6281917 112.73927
1540000000 -0.36821193 173.1286 -40.965252 28.195719 -40.93515 28.087435 -2.6370475 112.1911
1550000000 -0.36759436 173.08185 -41.035725 28.861238 -41.01495 28.752357 -2.6410205 111.69344
1560000000 -0.36934084 173.03651 -41.057968 29.675478 -41.034405 29.528509 -2.6402974 111.17869
1570000000 -0.36947781 172.99507 -41.084839 30.322329 -41.058193 30.107529 -2.6379294 110.63593
1580000000 -0.36825025 172.94336 -41.066532 30.943745 -41.046955 30.806192 -2.634784 110.08554
1590000000 -0.36578718 172.89653 -41.112206 31.550051 -41.071316 31.439436 -2.6328745 109.50941
1600000000 -0.36476591 172.85576 -41.094566 32.466583 -41.058071 32.390099 -2.6328082 108.93511
1610000000 -0.36457476 172.81204 -41.016708 33.17532 -40.995182 33.103878 -2.636972 108.37048
1620000000 -0.36393771 172.76381 -40.951653 33.73111 -40.911972 33.715527 -2.6429212 107.82696
1630000000 -0.36508632 172.73071 -40.857746 34.065014 -40.80962 33.919991 -2.6488986 107.27833
1640000000 -0.36458826 172.68567 -40.795128 34.12373 -40.752327 34.013344 -2.6531751 106.72533
1650000000 -0.36590686 172.64168 -40.74305 34.191898 -40.71014 34.006165 -2.6558402 106.17477
1660000000 -0.3666704 172.58478 -40.698135 34.260193 -40.676094 34.120331 -2.6575801 105.60953
1670000000 -0.3673625 172.54626 -40.668247 34.036819 -40.649979 33.778542 -2.6593964 105.03246
1680000000 -0.36764845 172.49557 -40.687561 33.907623 -40.674904 33.745296 -2.6632771 104.43787
1690000000 -0.3666766 172.452 -40.707817 33.958797 -40.6749 33.887512 -2.6690676 103.82941
1700000000 -0.36615893 172.40347 -40.74456 33.958809 -40.712097 33.90807 -2.6761606 103.21822
1710000000 -0.36789608 172.36659 -40.762222 34.175808 -40.717152 34.142868 -2.6874974 102.63956
1720000000 -0.36867237 172.31125 -40.781555 34.233704 -40.723694 34.204945 -2.697928 102.07918
1730000000 -0.36958575 172.27371 -40.799782 34.053257 -40.765411 34.059498 -2.7083125 101.50655
1740000000 -0.37235555 172.23581 -40.884773 34.00367 -40.856575 33.974346 -2.7148395 100.90335
1750000000 -0.37379557 172.18384 -40.975227 34.427074 -40.953339 34.355579 -2.7244427 100.29162
1760000000 -0.37463158 172.14169 -41.021366 35.07262 -41.01228 34.816284 -2.7358422 99.673294
1770000000 -0.37568426 172.08717 -41.07481 35.641037 -41.049408 35.359512 -2.7500975 99.051102
1780000000 -0.37763333 172.04054 -41.112091 36.006828 -41.092209 35.723854 -2.7631936 98.435204
1790000000 -0.37799594 171.99519 -41.195778 36.255817 -41.165043 36.128738 -2.7772059 97.81456
1800000000 -0.37819108 171.95685 -41.278496 36.936306 -41.245514 36.857178 -2.7938511 97.178238
1810000000 -0.37783751 171.90147 -41.343288 37.683125 -41.292091 37.758255 -2.814019 96.578575
1820000000 -0.37887457 171.8707 -41.361382 38.817978 -41.310284 38.765617 -2.8358777 95.986633
1830000000 -0.37917709 171.82314 -41.312233 39.656063 -41.256927 39.482899 -2.857666 95.404686
1840000000 -0.37896666 171.77834 -41.271393 40.152527 -41.228561 39.951302 -2.8768587 94.813934
1850000000 -0.3785989 171.73448 -41.24934 40.394768 -41.216583 40.183498 -2.8900924 94.217545
1860000000 -0.37771976 171.68489 -41.263302 41.005119 -41.237247 40.795837 -2.90361 93.5774
1870000000 -0.37923726 171.63707 -41.238064 41.629128 -41.219826 41.301758 -2.9196074 92.935783
1880000000 -0.38048401 171.59222 -41.236298 41.869934 -41.210812 41.468433 -2.9324274 92.285431
1890000000 -0.37833905 171.55133 -41.24958 42.091187 -41.232464 41.845142 -2.946243 91.612129
1900000000 -0.37938556 171.50534 -41.302509 42.232307 -41.28743 42.220013 -2.9616423 90.899834
1910000000 -0.37785614 171.45918 -41.394497 42.653885 -41.361755 42.693897 -2.9823463 90.169388
1920000000 -0.37869239 171.41609 -41.441872 43.613422 -41.399109 43.449348 -3.0079434 89.414238
1930000000 -0.37847772 171.38013 -41.465366 44.188118 -41.422291 44.112476 -3.0349393 88.642487
1940000000 -0.37937653 171.33612 -41.46497 44.868771 -41.428871 44.767044 -3.0645895 87.831436
1950000000 -0.38040659 171.29205 -41.468258 45.174164 -41.434662 45.152855 -3.094758 86.99472
1960000000 -0.3805784 171.24683 -41.516991 45.47963 -41.48996 45.245838 -3.1293905 86.091782
1970000000 -0.38324836 171.19682 -41.617107 46.021969 -41.607601 45.677925 -3.1747577 85.138901
1980000000 -0.38397449 171.14798 -41.746216 46.480488 -41.755733 46.252884 -3.2344296 84.180634
1990000000 -0.38588968 171.09982 -41.944317 47.370655 -41.950008 47.234421 -3.3005166 83.244217
2000000000 -0.38574144 171.05247 -42.124691 48.913258 -42.119186 48.897331 -3.37412 82.276833
2010000000 -0.38712195 171.01425 -42.325695 50.492882 -42.268139 50.893036 -3.4588764 81.267502
2020000000 -0.38788268 170.97968 -42.424519 53.043354 -42.372669 53.292675 -3.555059 80.240417
2030000000 -0.38773268 170.93051 -42.494423 55.567692 -42.459869 55.810101 -3.6591301 79.163239
2040000000 -0.39052203 170.88069 -42.46912 58.490128 -42.436787 58.953945 -3.7858081 78.039543
2050000000 -0.39117998 170.83826 -42.292889 61.481121 -42.281944 61.856625 -3.9385529 76.927399
