!Keysight Technologies,N5222B,MY61257109,A.17.25.03
!Date: Tuesday, July 21, 2026 12:26:22
!Correction: S11(C  2-Port  ) 
!S21(C  2-Port  ) 
!S12(C  2-Port  ) 
!S22(C  2-Port  ) 
!S2P File: Measurements: S11, S21, S12, S22:
# Hz S  dB   R 50
10000000 -0.38798147 -179.55412 -54.474197 13.916677 -54.655949 22.856123 -2.6499405 -58.748173
20000000 -0.32944846 -179.84457 -38.575893 25.484373 -38.655106 25.43845 -3.4470303 -117.89187
30000000 -0.33423847 -179.99504 -39.16016 22.621929 -39.186523 22.482298 -3.4393759 -131.24139
40000000 -0.33434695 179.90012 -35.972385 14.174152 -35.932869 14.422977 -3.1530843 -149.70132
50000000 -0.32569739 179.80617 -30.856392 -26.958549 -30.865992 -27.068254 -4.7073441 174.9483
60000000 -0.32746786 179.68138 -37.378784 -63.836452 -37.399727 -63.922157 -7.8560534 -157.53494
70000000 -0.32959983 179.69771 -40.842564 -58.541718 -40.904503 -58.655357 -6.4199433 -156.55833
80000000 -0.32229665 179.63248 -42.663948 -55.556614 -42.647087 -55.535236 -5.9037633 -158.52045
90000000 -0.32745388 179.64447 -44.225956 -51.174122 -44.220478 -51.684196 -5.5541973 -160.34341
100000000 -0.32762444 179.62506 -45.086132 -46.532158 -45.09605 -46.389137 -5.2970366 -162.41763
110000000 -0.32905695 179.54411 -46.008678 -43.155602 -46.064049 -43.148453 -5.1447053 -163.99857
120000000 -0.32835558 179.51788 -45.460369 -37.610226 -45.453144 -37.264824 -4.9697032 -166.47452
130000000 -0.32742345 179.45436 -42.777313 -36.896572 -42.744194 -36.512314 -4.9158087 -170.72063
140000000 -0.32816517 179.37274 -45.870945 -53.326542 -45.871548 -53.449421 -5.1513367 -169.15024
150000000 -0.32743406 179.3336 -47.218304 -51.710701 -47.242374 -51.50576 -5.0351048 -169.75514
160000000 -0.32494771 179.28961 -48.283848 -50.205093 -48.287804 -50.58094 -4.9619579 -170.69383
170000000 -0.32841727 179.22894 -49.367886 -49.009323 -49.384731 -49.066357 -4.9299488 -171.46028
180000000 -0.33078465 179.20145 -50.294399 -47.088863 -50.177387 -46.534428 -4.8944826 -172.01714
190000000 -0.33233643 179.1624 -51.569897 -43.59655 -51.439384 -43.913109 -4.835537 -172.51328
200000000 -0.32291421 179.12534 -52.624683 -36.708172 -52.711197 -36.581474 -4.764235 -172.99084
210000000 -0.32840389 179.06082 -54.126163 -28.75333 -54.133244 -29.828806 -4.7016106 -173.39627
220000000 -0.32422274 179.02684 -54.734226 -17.218582 -54.820793 -17.028477 -4.628778 -173.99339
230000000 -0.32529226 178.97238 -52.423367 -6.3645468 -52.322701 -7.1471639 -4.5059934 -174.76799
240000000 -0.32484731 178.91675 -53.351055 -23.255844 -53.216595 -23.594673 -4.5494704 -175.77806
250000000 -0.32673573 178.86957 -56.521484 -4.1845078 -56.546635 -5.0039501 -4.517848 -175.66507
260000000 -0.33587062 178.82991 -55.795731 24.84927 -55.670418 26.053881 -4.4328718 -175.91913
270000000 -0.33540303 178.77742 -50.11097 27.38542 -50.213062 27.435589 -4.2319279 -176.28369
280000000 -0.33263797 178.72607 -50.374531 6.5538058 -50.377228 6.4326429 -4.1961598 -177.75594
290000000 -0.33205473 178.67004 -52.181438 -4.3341341 -52.406879 -4.012558 -4.219739 -178.51567
300000000 -0.33434498 178.64024 -55.664585 1.9788971 -55.67075 1.2650177 -4.2171521 -178.78885
310000000 -0.33491674 178.58806 -55.390327 40.639915 -55.443913 39.757618 -4.1441498 -178.71448
320000000 -0.33529228 178.57222 -51.855045 48.007782 -51.91523 47.88345 -4.0228486 -179.31763
330000000 -0.33631197 178.52469 -49.786247 47.386623 -49.762577 47.353024 -3.9531505 -179.96156
340000000 -0.33878663 178.49438 -46.217316 28.158957 -46.117855 28.666864 -3.7584455 178.9371
350000000 -0.33811334 178.40649 -48.471539 14.991823 -48.479404 14.915453 -3.8470049 177.84315
360000000 -0.33605382 178.35324 -50.029961 12.510927 -50.017513 13.032353 -3.8691556 177.26488
370000000 -0.33479765 178.28282 -52.465828 19.372154 -52.520096 18.238134 -3.8900275 177.09308
380000000 -0.33530712 178.2325 -52.806164 34.059246 -52.820065 33.596283 -3.8485546 176.89926
390000000 -0.33701295 178.19179 -51.927307 55.347382 -51.920219 56.053871 -3.8112845 176.81859
400000000 -0.33742419 178.16499 -48.290466 60.378456 -48.286167 60.480568 -3.6703222 176.88203
410000000 -0.33771908 178.12485 -46.353687 50.717827 -46.391399 50.332577 -3.5060232 176.16983
420000000 -0.33524504 178.08592 -45.542511 39.534378 -45.569592 39.379955 -3.3868117 175.05391
430000000 -0.33498052 178.04124 -45.628288 30.036276 -45.62677 29.958784 -3.3238001 173.88179
440000000 -0.33503446 177.98599 -46.928051 24.813957 -46.836906 24.37706 -3.3370826 172.87999
450000000 -0.33504567 177.91196 -47.673763 27.221561 -47.704563 27.066151 -3.3469467 172.24179
460000000 -0.33452642 177.87442 -46.984936 31.2369 -46.974007 30.831629 -3.2905047 171.75995
470000000 -0.33275756 177.82863 -47.176483 25.646868 -47.221718 25.589733 -3.252944 170.93529
480000000 -0.33435309 177.76926 -47.823071 28.004116 -47.838684 27.844868 -3.2415333 170.29984
490000000 -0.33310694 177.71553 -48.07782 28.496302 -48.10146 28.495035 -3.2202022 169.5023
500000000 -0.330064 177.67241 -47.964722 30.203964 -47.985119 29.98633 -3.1862416 168.97357
510000000 -0.33269498 177.61613 -48.401264 30.395821 -48.343964 30.06809 -3.1698194 168.26627
520000000 -0.33149564 177.57973 -48.992405 34.280144 -49.056625 34.715157 -3.1709576 167.63574
530000000 -0.33043939 177.53 -48.585724 43.551849 -48.609955 43.795773 -3.1640401 167.23244
540000000 -0.33526406 177.47095 -47.427444 44.184841 -47.408588 44.772541 -3.1106515 166.72682
550000000 -0.333877 177.44601 -46.904411 43.783501 -46.887657 43.989841 -3.0688818 166.0939
560000000 -0.33157694 177.40387 -46.629383 42.335835 -46.650421 42.803089 -3.0268288 165.43532
570000000 -0.33882469 177.34195 -46.558262 39.48579 -46.608727 39.599953 -2.9908235 164.66536
580000000 -0.33555934 177.28993 -46.731766 38.22578 -46.641186 38.224613 -2.96789 163.98251
590000000 -0.33654746 177.23322 -47.153927 40.537735 -47.147087 40.036667 -2.9666469 163.29016
600000000 -0.34246138 177.20856 -46.812569 47.008747 -46.822674 47.207916 -2.9616725 162.88275
610000000 -0.33614945 177.15671 -45.491634 44.498901 -45.573982 44.461906 -2.8841476 162.38599
620000000 -0.33936206 177.13712 -45.645901 40.046497 -45.657871 40.09626 -2.8482685 161.43471
630000000 -0.34196505 177.1037 -45.688419 38.231373 -45.749592 38.014332 -2.839216 160.62663
640000000 -0.34041014 177.01366 -46.152966 35.508644 -46.153118 35.552807 -2.8364675 159.76289
650000000 -0.34200343 176.98308 -46.770432 37.605999 -46.799538 37.626541 -2.8549771 159.01527
660000000 -0.34447294 176.91826 -46.987995 43.032742 -46.970116 42.896339 -2.8731847 158.44814
670000000 -0.34769198 176.87665 -46.406879 46.076069 -46.442795 45.943771 -2.8635995 158.02403
680000000 -0.34611595 176.83511 -46.129292 45.880524 -46.157284 46.35062 -2.8386433 157.41299
690000000 -0.34696066 176.78627 -46.079945 47.304165 -45.999493 47.39159 -2.8306246 156.73291
700000000 -0.34614679 176.76952 -45.812366 50.208698 -45.856991 49.79734 -2.8447692 156.11523
710000000 -0.34600717 176.73492 -45.350231 51.834946 -45.377892 51.704224 -2.8532555 155.60039
720000000 -0.34671479 176.69069 -44.67651 52.971565 -44.715637 52.804611 -2.8609021 155.18225
730000000 -0.34493282 176.64868 -44.231201 52.215363 -44.226135 52.678085 -2.8595576 154.68236
740000000 -0.34657124 176.59576 -43.383778 51.426525 -43.312611 51.513638 -2.8538349 154.4231
750000000 -0.34356341 176.54138 -42.810238 46.764191 -42.78294 46.524204 -2.800267 153.99039
760000000 -0.34300116 176.51018 -42.576939 42.20071 -42.552315 42.228271 -2.7554934 153.44005
770000000 -0.34215188 176.43698 -42.624874 38.134041 -42.622478 38.083851 -2.7098861 152.80466
780000000 -0.3423723 176.39711 -42.742531 34.423367 -42.718662 34.477711 -2.668716 152.0757
790000000 -0.34134251 176.37917 -42.981361 31.092196 -43.02272 31.014034 -2.6425407 151.26773
800000000 -0.34148645 176.33606 -43.459671 28.607756 -43.514286 28.750179 -2.6329737 150.42017
810000000 -0.33940572 176.29056 -43.999607 28.175196 -43.98465 28.247799 -2.6449482 149.61716
820000000 -0.34079397 176.24336 -44.375179 28.994215 -44.369717 28.990868 -2.664571 148.92625
830000000 -0.34035665 176.20224 -44.582203 30.205753 -44.583569 30.266911 -2.6955068 148.28894
840000000 -0.34164244 176.15758 -44.533989 31.630199 -44.519459 31.507877 -2.7149038 147.83617
850000000 -0.34422073 176.09596 -44.531181 31.346378 -44.484806 31.150616 -2.719676 147.31244
860000000 -0.34365782 176.05037 -44.638096 30.823521 -44.572147 30.587408 -2.7211797 146.78694
870000000 -0.34232607 176.01904 -44.676575 31.119715 -44.63332 30.701126 -2.7284408 146.29111
880000000 -0.34292579 175.96745 -44.656456 30.105722 -44.6707 30.156204 -2.7325239 145.85243
890000000 -0.34133357 175.93637 -44.723042 28.536842 -44.772427 28.603827 -2.7265649 145.4707
900000000 -0.34213057 175.87726 -45.113743 27.712927 -45.129631 27.982607 -2.702045 145.03409
910000000 -0.343081 175.83617 -45.471981 27.768961 -45.475891 27.824833 -2.6726184 144.52419
920000000 -0.34468621 175.78256 -45.894054 28.485271 -45.906517 28.352915 -2.6467116 143.90205
930000000 -0.34420645 175.7355 -46.371857 29.912636 -46.40168 30.04701 -2.631135 143.21167
940000000 -0.34657657 175.68251 -46.759567 34.286278 -46.767132 34.324436 -2.6363478 142.49942
950000000 -0.34778005 175.61644 -46.665833 38.850719 -46.67767 38.821743 -2.6482227 141.8483
960000000 -0.34686786 175.58263 -46.267227 42.20306 -46.273422 42.118622 -2.66643 141.27039
970000000 -0.34677199 175.54355 -45.81842 43.609997 -45.854729 43.556843 -2.67331 140.78064
980000000 -0.34834853 175.49332 -45.456387 43.233696 -45.498318 43.397285 -2.6795802 140.26619
990000000 -0.34895667 175.44223 -45.166473 42.812645 -45.177486 42.796913 -2.6857684 139.81845
1000000000 -0.34829804 175.39342 -44.970203 41.195061 -44.973312 41.359383 -2.6823854 139.37596
1010000000 -0.35238284 175.35484 -44.980801 39.669079 -44.989098 39.495575 -2.6728776 138.93239
1020000000 -0.35181972 175.30112 -45.167709 38.927658 -45.131641 39.023861 -2.6586428 138.47668
1030000000 -0.35315832 175.26935 -45.228817 38.972702 -45.207909 38.862354 -2.6462131 137.94035
1040000000 -0.35415271 175.21786 -45.307182 38.737347 -45.283089 38.453072 -2.6280715 137.38861
1050000000 -0.35407463 175.16855 -45.422188 38.825287 -45.43774 38.495529 -2.6152959 136.80556
1060000000 -0.35292977 175.13017 -45.659931 39.597435 -45.655663 39.422836 -2.6037073 136.16878
1070000000 -0.35421225 175.09531 -45.669067 41.004131 -45.665878 41.028873 -2.5973675 135.5619
1080000000 -0.35098866 175.04945 -45.604656 41.855366 -45.618019 41.877071 -2.5970728 134.90936
1090000000 -0.35080791 175.00951 -45.510872 42.130329 -45.537197 42.526344 -2.6099179 134.31548
1100000000 -0.34939569 174.96494 -45.411831 42.579018 -45.435604 42.530323 -2.6247206 133.82755
1110000000 -0.34868261 174.90996 -45.338028 41.992714 -45.325024 42.022652 -2.6282129 133.37424
1120000000 -0.34975845 174.87912 -45.328762 41.020561 -45.316132 40.972309 -2.6227233 132.95743
1130000000 -0.35221609 174.83057 -45.489094 39.774162 -45.488335 39.811172 -2.6030171 132.45041
1140000000 -0.35293034 174.78471 -45.812222 39.94017 -45.796734 39.801281 -2.5884807 131.86462
1150000000 -0.35517964 174.7287 -45.972084 41.133671 -45.991638 40.945377 -2.5770838 131.23647
1160000000 -0.35530886 174.68944 -46.050568 41.593887 -45.998711 41.7528 -2.5724874 130.58571
1170000000 -0.35404682 174.64409 -46.239063 42.353657 -46.272594 42.164024 -2.5758309 129.94427
1180000000 -0.35599044 174.58929 -46.414734 43.973366 -46.426876 44.077171 -2.5815065 129.3644
1190000000 -0.35658306 174.54781 -46.402607 45.458687 -46.393253 45.599617 -2.5831993 128.76616
1200000000 -0.35844487 174.50389 -46.480835 46.279999 -46.468601 46.407429 -2.5934575 128.15828
1210000000 -0.35834479 174.44983 -46.549454 47.892597 -46.534138 48.112846 -2.6066988 127.62431
1220000000 -0.35869059 174.41319 -46.44751 49.498375 -46.475056 49.593792 -2.611131 127.08959
1230000000 -0.35892281 174.37209 -46.396877 50.359928 -46.414948 50.137306 -2.610816 126.52973
1240000000 -0.36088297 174.32048 -46.34766 51.029377 -46.351105 50.908424 -2.6160221 125.92347
1250000000 -0.35944608 174.28413 -46.360561 51.896339 -46.338158 51.783306 -2.627351 125.27647
1260000000 -0.35871813 174.22932 -46.332554 52.53669 -46.326118 52.499424 -2.6521525 124.70489
1270000000 -0.35954002 174.18301 -46.347885 53.39193 -46.37067 53.209026 -2.6633565 124.16879
1280000000 -0.35742223 174.11615 -46.381912 54.470745 -46.377163 54.645592 -2.6811807 123.5665
1290000000 -0.35908702 174.07262 -46.36161 55.37273 -46.347324 55.864395 -2.7102504 123.04095
1300000000 -0.35800689 174.02908 -46.270416 56.460331 -46.262852 56.758213 -2.7409728 122.61714
1310000000 -0.35952145 173.98372 -46.229755 57.693005 -46.211346 57.617439 -2.7548001 122.22128
1320000000 -0.35834393 173.94803 -46.20031 58.937206 -46.203854 58.931843 -2.7702558 121.77788
1330000000 -0.35923323 173.90295 -46.007107 60.382328 -46.022472 60.206997 -2.7939708 121.37334
1340000000 -0.35762262 173.85258 -45.797562 60.99654 -45.808582 60.81543 -2.8115258 121.09985
1350000000 -0.35951638 173.80823 -45.676765 60.823772 -45.673519 60.527561 -2.8006501 120.81599
1360000000 -0.35922703 173.76201 -45.571716 60.439442 -45.5592 60.268154 -2.7813077 120.42334
1370000000 -0.36110687 173.71474 -45.526638 60.347652 -45.504265 60.182976 -2.7669077 119.98648
1380000000 -0.36235744 173.65457 -45.591888 59.78371 -45.559181 60.122978 -2.7421563 119.48586
1390000000 -0.36122641 173.61333 -45.587566 60.251236 -45.61187 60.287868 -2.7244592 118.95217
1400000000 -0.36060476 173.55899 -45.658241 60.536972 -45.641727 60.474552 -2.7108471 118.38532
1410000000 -0.36107621 173.51614 -45.732285 60.979637 -45.724716 61.027973 -2.7024033 117.79884
1420000000 -0.36141828 173.48637 -45.844551 62.042183 -45.835117 62.164188 -2.7016721 117.20883
1430000000 -0.36227754 173.44092 -45.873226 63.575981 -45.859203 63.317692 -2.7007682 116.62748
1440000000 -0.36326161 173.39877 -45.739456 64.820633 -45.770901 64.652992 -2.7037616 116.05038
1450000000 -0.36546925 173.35666 -45.624172 65.094414 -45.634739 64.974075 -2.704911 115.46647
1460000000 -0.36700249 173.30943 -45.574413 65.507217 -45.566727 65.411331 -2.7073042 114.89304
1470000000 -0.36899474 173.25204 -45.519569 65.574615 -45.525398 65.474678 -2.7122965 114.32318
1480000000 -0.36841282 173.20346 -45.582512 65.666252 -45.555851 65.829826 -2.7140641 113.75481
1490000000 -0.37035584 173.14757 -45.625809 66.028488 -45.599964 66.162605 -2.7149839 113.19479
1500000000 -0.37091488 173.09422 -45.703487 66.376678 -45.685303 66.442841 -2.7156003 112.62251
1510000000 -0.37018502 173.06337 -45.83263 67.470497 -45.822735 67.480034 -2.7176838 112.02285
1520000000 -0.36971343 173.01929 -45.894779 69.078568 -45.888527 68.993988 -2.7246153 111.41512
1530000000 -0.37061885 172.98047 -45.874874 70.49659 -45.861599 70.369591 -2.7353771 110.81024
1540000000 -0.37230676 172.93556 -45.877029 71.783768 -45.875507 71.603493 -2.7475626 110.21803
1550000000 -0.37223202 172.88922 -45.84375 73.373573 -45.884125 73.254326 -2.7573261 109.6478
1560000000 -0.37467873 172.83786 -45.761902 74.808441 -45.761978 74.652115 -2.7611809 109.07839
1570000000 -0.37669823 172.78934 -45.697117 75.817566 -45.68277 75.781364 -2.7651317 108.47375
1580000000 -0.37714374 172.72948 -45.638142 77.082993 -45.598137 77.197075 -2.7676885 107.85352
1590000000 -0.37480092 172.6758 -45.537975 78.550392 -45.510921 78.702385 -2.7738216 107.20518
1600000000 -0.37433955 172.63251 -45.329823 80.065849 -45.268364 80.020592 -2.7833695 106.56355
1610000000 -0.37402409 172.58839 -45.109165 80.665108 -45.096951 80.712784 -2.7944195 105.9124
1620000000 -0.37341726 172.54326 -44.945827 81.148148 -44.916367 81.117653 -2.8064387 105.26864
1630000000 -0.37355605 172.51335 -44.813965 81.301186 -44.839466 81.002747 -2.8180587 104.59496
1640000000 -0.3728576 172.47061 -44.738487 81.719772 -44.774204 81.767166 -2.8344042 103.8976
1650000000 -0.37477833 172.42958 -44.647858 82.232468 -44.685349 82.2481 -2.8505266 103.2065
1660000000 -0.37707201 172.37022 -44.54958 82.83239 -44.593472 82.783119 -2.865926 102.50098
1670000000 -0.37841588 172.32732 -44.518295 83.095795 -44.538647 83.10878 -2.8814142 101.77229
1680000000 -0.38007742 172.27022 -44.523575 83.803154 -44.486629 83.831383 -2.9007189 101.02205
1690000000 -0.37965336 172.22182 -44.440762 84.615799 -44.410671 84.721436 -2.9252343 100.24022
1700000000 -0.37864608 172.1684 -44.38728 85.67775 -44.341084 85.765594 -2.955807 99.444588
1710000000 -0.37971044 172.12944 -44.242821 86.497398 -44.21637 86.497894 -2.9925568 98.656319
1720000000 -0.37957117 172.07568 -44.085365 86.94828 -44.081573 86.978149 -3.031105 97.872902
1730000000 -0.37966269 172.04018 -44.037601 87.348381 -44.048157 87.374947 -3.0716248 97.058113
1740000000 -0.38184419 172.00375 -44.037624 88.223167 -44.059189 88.242706 -3.1174221 96.200859
1750000000 -0.3842341 171.9568 -43.925301 89.537262 -43.970432 89.524124 -3.1701744 95.319473
1760000000 -0.38595617 171.9165 -43.802547 90.633331 -43.835163 90.579239 -3.22523 94.402512
1770000000 -0.38809273 171.86064 -43.672596 91.54435 -43.663807 91.592384 -3.2876606 93.452278
1780000000 -0.3908582 171.81175 -43.519722 92.591805 -43.498352 92.540825 -3.3578379 92.462311
1790000000 -0.3918049 171.76207 -43.35331 93.669609 -43.307766 93.61364 -3.4476914 91.452599
1800000000 -0.39175701 171.71777 -43.1012 94.501846 -43.056168 94.433907 -3.554137 90.432793
1810000000 -0.39049652 171.6581 -42.837349 94.915321 -42.80537 94.854309 -3.6774418 89.43679
1820000000 -0.39069423 171.62332 -42.546074 95.02549 -42.530811 94.941277 -3.8169403 88.451256
1830000000 -0.39045942 171.5782 -42.308105 94.674255 -42.306122 94.614494 -3.9773855 87.494865
1840000000 -0.39075255 171.53389 -42.101265 94.077354 -42.146732 94.11808 -4.1699886 86.632637
1850000000 -0.39143491 171.49663 -41.990829 93.305107 -42.050407 93.362099 -4.380322 85.812241
1860000000 -0.39231855 171.45691 -41.881714 92.97197 -41.932289 92.905014 -4.6157966 84.965607
1870000000 -0.3951993 171.40982 -41.804157 92.342087 -41.833408 92.265366 -4.8856077 84.248306
1880000000 -0.39789611 171.36633 -41.805531 91.809471 -41.785088 91.64595 -5.1872678 83.725243
1890000000 -0.39657742 171.32089 -41.8232 91.563713 -41.769802 91.315826 -5.5185952 83.669815
1900000000 -0.39787683 171.267 -41.840496 91.360947 -41.795235 91.155724 -5.8591275 83.969154
1910000000 -0.39636782 171.21413 -41.84618 91.515846 -41.824657 91.256599 -6.1981359 84.705322
1920000000 -0.39723089 171.16599 -41.81707 91.495239 -41.808819 91.415375 -6.5202432 85.865326
1930000000 -0.39650849 171.12851 -41.817085 91.44072 -41.839649 91.475761 -6.8030939 87.463966
1940000000 -0.3975659 171.08641 -41.867138 91.541168 -41.914856 91.746758 -7.0228195 89.525909
1950000000 -0.39883724 171.05283 -41.98526 91.863525 -42.033566 92.3433 -7.1910691 91.778381
1960000000 -0.40032524 171.02124 -42.117764 92.949471 -42.150551 93.406189 -7.3300886 94.064804
1970000000 -0.4031119 170.98222 -42.203976 94.771034 -42.210655 95.071747 -7.4323545 96.475967
1980000000 -0.40354961 170.93915 -42.14864 97.102539 -42.147404 97.082848 -7.4767585 99.072998
1990000000 -0.40516427 170.88815 -41.962246 99.409279 -41.977974 99.464043 -7.3924365 101.76404
2000000000 -0.40438598 170.83142 -41.644974 101.0182 -41.659565 101.24189 -7.2239356 104.30006
2010000000 -0.40490881 170.78777 -41.249916 101.90452 -41.248665 102.09693 -6.975493 106.53603
2020000000 -0.40519837 170.74319 -40.855877 101.53828 -40.863228 101.69231 -6.6467447 108.3141
2030000000 -0.4036499 170.68994 -40.594364 100.54666 -40.626923 100.70747 -6.2530403 109.36894
2040000000 -0.40566471 170.63887 -40.415359 99.438889 -40.476852 99.727112 -5.8736429 109.89877
2050000000 -0.40557775 170.60178 -40.321762 98.237823 -40.363045 98.537689 -5.5306053 110.12099
