!Keysight Technologies,N5222B,MY61257109,A.17.25.03
!Date: Tuesday, July 21, 2026 12:24:31
!Correction: S11(C  2-Port  ) 
!S21(C  2-Port  ) 
!S12(C  2-Port  ) 
!S22(C  2-Port  ) 
!S2P File: Measurements: S11, S21, S12, S22:
# Hz S  dB   R 50
10000000 -0.38698015 -179.44661 -54.454967 18.666666 -54.079575 21.055943 -2.6446564 -58.735664
20000000 -0.32884419 -179.79361 -38.362503 26.759432 -38.350452 26.924873 -3.3989525 -118.02615
30000000 -0.33341271 -179.97656 -38.731094 24.891392 -38.783661 24.466345 -3.4126005 -131.35222
40000000 -0.33407548 179.90765 -35.563732 15.484277 -35.530529 15.697571 -3.1289532 -150.04065
50000000 -0.32575485 179.8073 -30.839243 -26.569786 -30.844746 -26.704576 -4.7258782 174.61278
60000000 -0.33166692 179.73257 -37.784389 -60.689053 -37.836445 -60.710678 -7.8851562 -157.69666
70000000 -0.33190581 179.74846 -41.341976 -51.322777 -41.355793 -51.368248 -6.4418216 -156.66444
80000000 -0.32404146 179.68224 -42.965744 -44.037144 -42.936844 -44.256191 -5.9152646 -158.5394
90000000 -0.32948253 179.66809 -44.03447 -35.982677 -44.04747 -36.530617 -5.5588517 -160.40488
100000000 -0.32938704 179.64532 -44.177303 -30.035204 -44.200611 -30.065933 -5.3007698 -162.63008
110000000 -0.33036536 179.57227 -44.547157 -25.969784 -44.571095 -26.073311 -5.1599326 -164.16696
120000000 -0.32995871 179.54234 -43.774185 -23.566334 -43.799046 -23.415304 -5.0048952 -166.57191
130000000 -0.32988805 179.47971 -41.58725 -25.151638 -41.556255 -24.841858 -4.9329042 -170.61223
140000000 -0.33048773 179.39896 -44.216869 -34.833977 -44.203346 -34.952175 -5.165616 -169.08426
150000000 -0.32977408 179.36519 -44.858135 -32.136837 -44.875221 -32.047291 -5.0445914 -169.70206
160000000 -0.32750916 179.32565 -45.256157 -30.642151 -45.272804 -31.366566 -4.9628186 -170.65688
170000000 -0.33103076 179.2612 -45.739441 -28.990906 -45.677719 -28.733192 -4.9310875 -171.42616
180000000 -0.33320531 179.24458 -45.898987 -27.976574 -45.960102 -28.371698 -4.891643 -172.05182
190000000 -0.33347169 179.21031 -46.353443 -27.144316 -46.347031 -27.673397 -4.8378363 -172.50902
200000000 -0.32436582 179.17143 -46.676926 -25.318005 -46.700871 -25.819035 -4.7689552 -172.99249
210000000 -0.32956547 179.11293 -47.091679 -24.374027 -47.190365 -24.322788 -4.7006755 -173.50082
220000000 -0.32588014 179.07613 -47.521858 -21.938101 -47.567528 -21.407944 -4.6416349 -173.96158
230000000 -0.327479 179.02771 -46.722382 -18.141813 -46.751392 -17.885052 -4.5195084 -174.85988
240000000 -0.32670727 178.97452 -47.185181 -28.257862 -47.106609 -27.888397 -4.5664349 -175.65889
250000000 -0.32854766 178.93184 -48.794628 -23.499392 -48.871567 -23.826824 -4.5205088 -175.77644
260000000 -0.33718359 178.89465 -49.831558 -13.109953 -49.726269 -13.284454 -4.4484787 -175.83385
270000000 -0.33632064 178.83919 -47.490025 -1.2932299 -47.392166 -0.7279622 -4.2458682 -176.2897
280000000 -0.33371317 178.79643 -46.881165 -14.9236 -46.806236 -14.532529 -4.2018175 -177.78114
290000000 -0.33250913 178.7356 -47.741154 -24.620321 -47.735867 -24.879864 -4.2293468 -178.39221
300000000 -0.33479708 178.70682 -49.921841 -27.710779 -49.901516 -27.469687 -4.2204432 -178.74655
310000000 -0.33412889 178.66443 -52.411232 -11.781449 -52.532581 -10.880825 -4.1457586 -178.83412
320000000 -0.33611506 178.64812 -51.522579 8.325099 -51.49646 9.0016108 -4.0347795 -179.24274
330000000 -0.33682805 178.60432 -49.774124 16.678665 -49.707516 16.277712 -3.9587164 -179.8669
340000000 -0.3386912 178.5766 -45.53244 8.8273001 -45.530094 8.3906736 -3.7672474 178.78233
350000000 -0.33874494 178.48799 -47.105255 -7.5464644 -47.156326 -7.6078873 -3.8602819 177.84061
360000000 -0.33621296 178.43423 -48.453461 -11.657418 -48.404976 -12.49989 -3.8823013 177.39919
370000000 -0.33480546 178.36684 -50.769226 -13.979056 -50.818634 -13.380265 -3.8956227 177.06516
380000000 -0.33580545 178.31184 -52.373619 -2.7510078 -52.389511 -2.1740756 -3.85536 176.88464
390000000 -0.33698806 178.27281 -53.878399 22.961716 -53.918999 21.235491 -3.8182952 176.93694
400000000 -0.33773503 178.25668 -50.254013 41.796856 -50.259598 41.538376 -3.6798306 176.90738
410000000 -0.33676174 178.21671 -47.484802 34.586639 -47.519665 35.158836 -3.5148129 176.11809
420000000 -0.33483902 178.17911 -46.339512 25.598078 -46.273079 25.780664 -3.3971114 175.15735
430000000 -0.33482531 178.13567 -46.056934 17.061213 -46.010281 16.90103 -3.3351543 173.99382
440000000 -0.33471039 178.08136 -46.880962 10.871716 -46.943367 10.381826 -3.3411086 172.86983
450000000 -0.33445737 178.00777 -47.95697 11.722278 -47.92989 11.685857 -3.3493054 172.31972
460000000 -0.33437714 177.97163 -47.432373 18.103453 -47.435585 17.449221 -3.2940397 171.90744
470000000 -0.33269188 177.92807 -47.311855 12.218402 -47.289722 11.852567 -3.2544298 170.90437
480000000 -0.33447638 177.87019 -47.951035 13.868952 -48.006557 13.627346 -3.2406247 170.32208
490000000 -0.332719 177.81705 -48.129997 13.466503 -48.258232 13.333431 -3.214571 169.60854
500000000 -0.32931274 177.77727 -48.355831 14.595857 -48.37051 15.201008 -3.1907172 168.92484
510000000 -0.33192593 177.7296 -48.881065 15.181938 -48.827415 15.651387 -3.1794338 168.24467
520000000 -0.33001903 177.69223 -49.646542 19.545902 -49.571991 20.497496 -3.177969 167.6745
530000000 -0.32948309 177.64307 -49.453899 31.143009 -49.456547 30.859732 -3.166878 167.3185
540000000 -0.33376518 177.58141 -48.049664 34.336193 -48.077904 33.372097 -3.1087174 166.85181
550000000 -0.33196589 177.55875 -47.32494 33.581806 -47.445496 32.354748 -3.0608664 166.20065
560000000 -0.32984895 177.51456 -47.102722 31.199841 -47.170277 31.128139 -3.0230675 165.48619
570000000 -0.33766174 177.45908 -47.022907 28.368946 -47.048737 28.919273 -2.9926536 164.66608
580000000 -0.33490446 177.40343 -47.161228 28.078001 -47.205536 28.387121 -2.9774418 163.94997
590000000 -0.33526573 177.3541 -47.606853 30.23624 -47.567261 30.260391 -2.9746659 163.26343
600000000 -0.34130809 177.33131 -47.318062 37.111732 -47.272057 36.702972 -2.9646008 162.84529
610000000 -0.33467183 177.27872 -45.939907 35.57436 -45.951035 35.65427 -2.8866739 162.36012
620000000 -0.33733636 177.26132 -45.936852 30.687006 -45.906418 30.686541 -2.8470504 161.43466
630000000 -0.34149626 177.22884 -45.958355 28.938066 -45.965504 28.916521 -2.8372481 160.65356
640000000 -0.34036058 177.14131 -46.302231 25.479044 -46.310932 25.414623 -2.8287015 159.77972
650000000 -0.34090626 177.11528 -47.057152 26.260857 -47.042679 26.372181 -2.8498261 158.99872
660000000 -0.34386882 177.05586 -47.632927 31.297266 -47.599533 31.570797 -2.8794305 158.37325
670000000 -0.34758458 177.01245 -47.292927 37.898537 -47.248898 37.582359 -2.8914795 157.96266
680000000 -0.34654209 176.97389 -46.569668 39.994633 -46.615944 39.989697 -2.8704617 157.50766
690000000 -0.34663486 176.92732 -46.1675 40.796291 -46.156227 40.615868 -2.8454769 156.86519
700000000 -0.34596878 176.91588 -45.892124 41.588234 -45.878979 41.871696 -2.8426571 156.2079
710000000 -0.34549898 176.87885 -45.519642 42.544968 -45.488285 42.726616 -2.8442764 155.63506
720000000 -0.34641144 176.83324 -44.939133 43.963051 -44.94532 43.860683 -2.8513391 155.19188
730000000 -0.34490815 176.79619 -44.456081 43.976616 -44.494537 43.920071 -2.851151 154.67847
740000000 -0.34561503 176.74823 -43.535725 43.435318 -43.599369 43.117477 -2.8446317 154.41444
750000000 -0.34307623 176.69003 -42.985149 38.745338 -43.032749 38.767365 -2.7975104 153.95757
760000000 -0.34212217 176.66164 -42.727943 34.534508 -42.75423 34.610195 -2.7596188 153.4101
770000000 -0.3412784 176.58998 -42.723125 30.261219 -42.739391 30.47526 -2.7184772 152.77721
780000000 -0.34203732 176.55582 -42.830875 26.739923 -42.75362 26.922104 -2.6810932 152.0593
790000000 -0.34092557 176.53606 -43.012585 23.395027 -42.950703 23.095638 -2.6541996 151.22911
800000000 -0.33997649 176.49954 -43.412224 20.485029 -43.385025 20.244276 -2.6459365 150.39369
810000000 -0.33859381 176.45432 -43.895119 19.56098 -43.898853 19.347155 -2.6540198 149.6152
820000000 -0.33945414 176.41129 -44.250725 20.067806 -44.247894 19.625074 -2.6705852 148.94907
830000000 -0.33892152 176.36723 -44.449303 20.842964 -44.513313 20.625935 -2.6982355 148.32124
840000000 -0.34005404 176.32584 -44.470699 21.711344 -44.498863 21.539793 -2.7147529 147.86732
850000000 -0.34203115 176.26703 -44.495964 21.205818 -44.52269 21.545856 -2.7184665 147.33977
860000000 -0.34185582 176.22351 -44.589897 20.586172 -44.63681 20.829952 -2.7236362 146.79308
870000000 -0.33939621 176.1938 -44.703487 20.650845 -44.705608 21.066069 -2.7329602 146.27852
880000000 -0.34010917 176.14766 -44.673759 20.330681 -44.606789 20.368883 -2.7443902 145.82701
890000000 -0.33883309 176.11818 -44.790924 18.191143 -44.748104 18.138197 -2.7374866 145.44888
900000000 -0.34034321 176.05974 -45.205849 17.657467 -45.128754 17.303297 -2.7134588 145.00618
910000000 -0.34043449 176.02 -45.525433 17.178097 -45.476345 17.169735 -2.6841986 144.52119
920000000 -0.3418172 175.96555 -45.973907 17.623209 -45.922333 17.273907 -2.6535707 143.929
930000000 -0.34119663 175.92111 -46.493454 19.148552 -46.494034 18.915186 -2.6358809 143.23833
940000000 -0.34372619 175.86919 -46.847183 23.164164 -46.888493 23.21694 -2.6391766 142.52744
950000000 -0.34535575 175.80383 -46.83353 27.59799 -46.821602 27.4806 -2.6494741 141.8819
960000000 -0.34401956 175.77313 -46.479984 31.130684 -46.546089 31.129025 -2.6691537 141.30386
970000000 -0.34459934 175.73471 -46.039356 32.496601 -46.103638 32.404301 -2.6750581 140.81227
980000000 -0.34637162 175.68414 -45.670071 32.609859 -45.738316 32.526299 -2.6790199 140.27306
990000000 -0.34700665 175.6377 -45.343719 32.24366 -45.417 32.330597 -2.6847394 139.77029
1000000000 -0.34598756 175.59018 -45.155102 30.457481 -45.195015 30.615904 -2.6877308 139.30516
1010000000 -0.35085955 175.55177 -45.226704 28.565468 -45.188942 28.861944 -2.6799374 138.90968
1020000000 -0.34950596 175.50102 -45.393265 27.827837 -45.397274 28.134047 -2.6632431 138.45273
1030000000 -0.35087946 175.4726 -45.448971 28.144434 -45.429737 28.372168 -2.6511695 137.93375
1040000000 -0.35146353 175.42014 -45.500542 27.70376 -45.44997 27.739983 -2.6336336 137.39246
1050000000 -0.35138804 175.3782 -45.669834 27.567528 -45.589333 27.410856 -2.6211236 136.8118
1060000000 -0.35052335 175.3378 -45.867706 28.17123 -45.833221 27.77035 -2.6078992 136.16849
1070000000 -0.35152501 175.30353 -45.878506 29.455185 -45.894119 29.127935 -2.6020052 135.52106
1080000000 -0.34856787 175.2636 -45.842739 30.138885 -45.860889 29.901678 -2.6056497 134.85529
1090000000 -0.34788606 175.22249 -45.761002 30.846241 -45.758022 30.46986 -2.6201963 134.27484
1100000000 -0.3465645 175.17953 -45.66375 30.803713 -45.698853 30.514061 -2.6351748 133.80087
1110000000 -0.34574395 175.127 -45.60276 30.047945 -45.669006 30.171778 -2.6367545 133.37198
1120000000 -0.34652805 175.09898 -45.624874 28.624416 -45.650139 28.975473 -2.6267643 132.96863
1130000000 -0.348362 175.05296 -45.806976 28.012146 -45.81757 28.377899 -2.607547 132.44713
1140000000 -0.34985077 175.00954 -46.093006 28.163172 -46.052094 28.247665 -2.5931118 131.85948
1150000000 -0.35138887 174.95357 -46.275936 29.240904 -46.232693 29.269768 -2.5829813 131.23357
1160000000 -0.35152021 174.91547 -46.275383 29.63269 -46.260365 29.80784 -2.578141 130.57553
1170000000 -0.35071978 174.87126 -46.475582 29.675673 -46.453987 29.786791 -2.5826783 129.91949
1180000000 -0.35238734 174.81975 -46.698456 31.145891 -46.682907 31.319378 -2.5876188 129.33502
1190000000 -0.35301232 174.78015 -46.714405 32.764153 -46.65118 32.677628 -2.5887208 128.72571
1200000000 -0.35505208 174.73607 -46.742138 33.32959 -46.742077 33.234581 -2.5991249 128.09825
1210000000 -0.35478213 174.68404 -46.862873 34.620068 -46.851864 34.275917 -2.6151347 127.58537
1220000000 -0.35531896 174.64853 -46.810619 35.955616 -46.880978 35.880211 -2.6188266 127.07134
1230000000 -0.3555398 174.61032 -46.794937 36.715595 -46.816509 36.722885 -2.6177778 126.52183
1240000000 -0.35751441 174.5569 -46.761295 37.370674 -46.753407 37.400536 -2.6200862 125.92197
1250000000 -0.35606855 174.52544 -46.713634 37.891739 -46.765247 38.353664 -2.6324217 125.25103
1260000000 -0.3549653 174.47188 -46.716167 38.486305 -46.705242 38.550934 -2.6601472 124.67484
1270000000 -0.35634813 174.42819 -46.778969 39.056309 -46.767883 38.730537 -2.6719761 124.14168
1280000000 -0.35433891 174.36194 -46.784248 39.760426 -46.770203 39.633083 -2.6865482 123.53901
1290000000 -0.35568109 174.32071 -46.835293 40.643177 -46.813072 40.558899 -2.7157338 122.99131
1300000000 -0.35422826 174.27698 -46.809654 41.27742 -46.799263 41.299366 -2.7466686 122.5761
1310000000 -0.35557884 174.23354 -46.813736 42.185822 -46.809399 42.04594 -2.7593164 122.17589
1320000000 -0.35435662 174.20114 -46.870914 43.116413 -46.860821 43.292683 -2.7760835 121.72823
1330000000 -0.35568362 174.15686 -46.775764 44.6511 -46.753662 44.732487 -2.8026407 121.33366
1340000000 -0.35342959 174.1053 -46.588657 45.433922 -46.605061 45.463078 -2.8193727 121.0712
1350000000 -0.35546786 174.06433 -46.508041 45.738651 -46.48336 45.648571 -2.8092444 120.794
1360000000 -0.35532206 174.02034 -46.374493 45.928379 -46.378445 45.762829 -2.7898283 120.40416
1370000000 -0.35728508 173.97615 -46.277775 45.625629 -46.279057 45.553154 -2.7719383 119.96415
1380000000 -0.35797286 173.91707 -46.335457 45.100311 -46.349384 44.993137 -2.7456899 119.43562
1390000000 -0.35704029 173.87943 -46.344353 45.150082 -46.370922 45.09309 -2.7292376 118.88526
1400000000 -0.35660806 173.82709 -46.417255 44.955166 -46.450142 45.18079 -2.7172105 118.32282
1410000000 -0.35698688 173.78412 -46.539383 45.318691 -46.533958 45.684521 -2.709686 117.74481
1420000000 -0.35726398 173.7576 -46.679295 46.24387 -46.644272 46.417862 -2.7077608 117.17095
1430000000 -0.35778987 173.71576 -46.722702 47.62965 -46.667763 47.258179 -2.7068291 116.58964
1440000000 -0.35843363 173.67293 -46.62109 48.819481 -46.609314 48.620255 -2.7099118 116.01602
1450000000 -0.36046049 173.6346 -46.514557 48.976742 -46.487026 48.952221 -2.7097764 115.43134
1460000000 -0.36259353 173.59138 -46.461533 49.186398 -46.479267 49.004005 -2.7123482 114.83942
1470000000 -0.36440021 173.53401 -46.406281 49.208363 -46.41547 49.052437 -2.717881 114.26088
1480000000 -0.3635186 173.4895 -46.452862 49.072033 -46.473389 48.990185 -2.7194304 113.68559
1490000000 -0.36544675 173.43358 -46.512432 48.890732 -46.547874 49.192848 -2.721823 113.1174
1500000000 -0.36601838 173.38275 -46.626038 48.968689 -46.636368 49.070805 -2.7229087 112.55981
1510000000 -0.36548138 173.35258 -46.792164 49.43322 -46.789982 49.652042 -2.7231534 111.96841
1520000000 -0.36519444 173.31062 -46.938053 50.578083 -46.939548 50.346851 -2.7300475 111.37096
1530000000 -0.36579731 173.27307 -46.986095 51.599632 -46.968998 51.6236 -2.7396221 110.7648
1540000000 -0.36750618 173.23245 -47.061302 52.542545 -47.098026 52.528645 -2.7511978 110.17368
1550000000 -0.36783326 173.18671 -47.169224 54.06694 -47.192791 54.176132 -2.7602174 109.60345
1560000000 -0.3701058 173.13687 -47.110043 55.713387 -47.118061 55.552624 -2.7645466 109.02415
1570000000 -0.37148866 173.09048 -47.138294 56.692745 -47.113747 56.705421 -2.7674282 108.41473
1580000000 -0.37204787 173.03149 -47.123215 57.760696 -47.084587 57.866245 -2.7692688 107.77985
1590000000 -0.37008411 172.98105 -47.094994 59.33337 -47.069839 59.402359 -2.7754688 107.11815
1600000000 -0.36920527 172.93929 -46.930553 60.927555 -46.896076 60.953415 -2.7857022 106.4732
1610000000 -0.36879438 172.89592 -46.768707 61.804195 -46.777695 61.642719 -2.7959864 105.82487
1620000000 -0.3677645 172.85329 -46.602131 62.207375 -46.631317 62.025345 -2.808249 105.17942
1630000000 -0.36745998 172.82498 -46.490616 62.144356 -46.508244 62.132607 -2.8199155 104.50959
1640000000 -0.36683828 172.78487 -46.47797 62.368492 -46.477444 62.426846 -2.8351641 103.81986
1650000000 -0.36863205 172.74367 -46.457165 62.537472 -46.417309 62.773201 -2.8499224 103.12685
1660000000 -0.3706682 172.68677 -46.425022 63.023849 -46.393711 63.158104 -2.8657479 102.41676
1670000000 -0.37193027 172.6458 -46.384903 63.193314 -46.364639 63.020252 -2.8819721 101.68292
1680000000 -0.37411186 172.59029 -46.437416 63.44392 -46.428219 63.429699 -2.9013541 100.92035
1690000000 -0.37354985 172.54544 -46.435333 63.999432 -46.44276 63.966156 -2.9284339 100.12556
1700000000 -0.37184963 172.49432 -46.490036 64.703888 -46.471981 64.728966 -2.9592865 99.325638
1710000000 -0.37281585 172.45468 -46.469997 65.6437 -46.452534 65.678619 -2.9956036 98.531387
1720000000 -0.37268358 172.40245 -46.401409 65.89505 -46.411858 66.070946 -3.0325303 97.752113
1730000000 -0.37265 172.36975 -46.440292 66.178467 -46.444172 66.367935 -3.0713816 96.937752
1740000000 -0.37428707 172.33702 -46.51424 66.847755 -46.516567 66.776299 -3.1122966 96.079994
1750000000 -0.37670669 172.29007 -46.607349 68.241951 -46.573586 67.988655 -3.1608572 95.187683
1760000000 -0.37833625 172.25224 -46.593365 69.362572 -46.627979 69.42453 -3.2169964 94.266495
1770000000 -0.38101894 172.20015 -46.615936 70.636604 -46.565815 70.564064 -3.2831974 93.31868
1780000000 -0.38384384 172.15396 -46.572533 72.154587 -46.554394 71.774704 -3.3611484 92.344261
1790000000 -0.38526306 172.10583 -46.50975 73.620827 -46.526035 73.519287 -3.4564672 91.346252
1800000000 -0.38452795 172.0631 -46.368881 75.220833 -46.391365 75.291237 -3.5652888 90.329849
1810000000 -0.38312337 172.00333 -46.154179 76.525383 -46.168377 76.758446 -3.6853907 89.318588
1820000000 -0.38353139 171.9697 -45.900425 77.427116 -45.920212 77.39389 -3.8157115 88.297989
1830000000 -0.38282314 171.92366 -45.639515 77.373672 -45.684227 77.606102 -3.9694529 87.294296
1840000000 -0.38290229 171.88268 -45.443539 77.002823 -45.442944 77.130402 -4.1489053 86.342659
1850000000 -0.38327491 171.84418 -45.35577 76.117393 -45.323074 76.413239 -4.3525376 85.410561
1860000000 -0.38443574 171.80753 -45.251461 75.89106 -45.227032 76.116005 -4.594192 84.559212
1870000000 -0.38683498 171.76433 -45.180893 75.007454 -45.139523 75.010376 -4.8741293 83.903236
1880000000 -0.38957053 171.72145 -45.204788 73.80928 -45.198261 73.698898 -5.1900558 83.637367
1890000000 -0.38841116 171.68155 -45.311195 72.574745 -45.357697 72.701454 -5.5210876 83.774101
1900000000 -0.38986275 171.62779 -45.585918 71.597435 -45.641972 71.692963 -5.8546863 84.16642
1910000000 -0.38774174 171.57452 -46.022472 71.404099 -46.044502 71.606857 -6.1935658 84.744301
1920000000 -0.3883118 171.52568 -46.489391 72.571907 -46.478928 72.530457 -6.5265942 85.702469
1930000000 -0.38677102 171.49049 -46.959335 75.27253 -47.013275 74.832375 -6.826292 87.140564
1940000000 -0.38737097 171.44963 -47.255329 79.647408 -47.36203 79.186226 -7.0750895 89.033836
1950000000 -0.38818499 171.41624 -47.325871 85.243553 -47.547611 84.630211 -7.2738972 91.205688
1960000000 -0.38934061 171.3838 -47.138233 90.572426 -47.309032 90.718605 -7.4109464 93.612442
1970000000 -0.39227971 171.34412 -46.621967 95.323997 -46.710609 95.624733 -7.483366 96.195969
1980000000 -0.39304733 171.30328 -45.934944 98.612297 -45.929611 98.326736 -7.4513311 98.95916
1990000000 -0.39487666 171.25275 -45.198418 99.664246 -45.18935 98.971695 -7.3133616 101.63212
2000000000 -0.39434797 171.19778 -44.524456 99.341927 -44.538486 98.734688 -7.1202269 104.03764
2010000000 -0.39460421 171.15062 -43.96051 98.037926 -43.986187 98.12812 -6.9607701 106.305
2020000000 -0.3949444 171.10573 -43.543106 95.917458 -43.523643 96.223305 -6.6709194 108.17762
2030000000 -0.39417222 171.05045 -43.294365 93.619934 -43.252056 94.102417 -6.3104219 109.43761
2040000000 -0.39585653 171.00145 -43.147324 91.665184 -43.06279 92.005821 -5.9389567 110.14529
2050000000 -0.39612481 170.96829 -43.034317 89.796417 -42.972858 90.049034 -5.5745249 110.32108
