!Keysight Technologies,N5222B,MY61257109,A.17.25.03
!Date: Tuesday, July 21, 2026 12:22:11
!Correction: S11(C  2-Port  ) 
!S21(C  2-Port  ) 
!S12(C  2-Port  ) 
!S22(C  2-Port  ) 
!S2P File: Measurements: S11, S21, S12, S22:
# Hz S  dB   R 50
10000000 -0.39686671 -179.48521 -55.22324 27.936676 -54.72274 33.850586 -2.6723549 -58.799187
20000000 -0.33911493 -179.81076 -38.238876 29.34626 -38.299816 29.288313 -3.4004631 -118.06478
30000000 -0.34390411 -179.98972 -38.498211 29.00416 -38.550179 28.537571 -3.4115953 -131.42476
40000000 -0.34450769 179.89998 -35.448586 19.128727 -35.41795 19.303902 -3.0966392 -149.88283
50000000 -0.33633628 179.79283 -31.10413 -23.79023 -31.105886 -23.88641 -4.360846 175.00157
60000000 -0.33930916 179.70102 -39.242401 -58.877087 -39.224758 -59.037964 -8.0394545 -159.27736
70000000 -0.33975115 179.69864 -43.954655 -39.357426 -43.949528 -39.498783 -6.5409017 -157.03143
80000000 -0.33552384 179.64363 -45.624229 -19.610056 -45.6077 -19.515301 -5.9915037 -158.76732
90000000 -0.33906594 179.65416 -45.632385 -0.038842823 -45.706432 -0.20974205 -5.6166735 -160.4279
100000000 -0.33868533 179.63704 -44.614403 10.299361 -44.633282 11.01436 -5.3381162 -162.45351
110000000 -0.33974975 179.56247 -43.727333 17.960209 -43.761784 17.995405 -5.1734385 -164.01666
120000000 -0.33990341 179.52939 -42.359062 17.638033 -42.391163 17.88521 -4.9879198 -166.55359
130000000 -0.33998403 179.46562 -40.803566 8.7051849 -40.768467 8.6609068 -4.9502759 -171.0598
140000000 -0.34007475 179.38936 -42.605373 16.528929 -42.582821 16.283125 -5.1871481 -169.12283
150000000 -0.33938727 179.3542 -41.964367 20.925222 -41.993694 20.798115 -5.0547786 -169.71553
160000000 -0.33702469 179.3053 -41.407467 23.046455 -41.473671 22.891012 -4.976665 -170.64719
170000000 -0.33798742 179.2468 -40.870365 24.490183 -40.899757 24.467407 -4.9335756 -171.46196
180000000 -0.34277704 179.22552 -40.342724 23.92993 -40.347736 24.551386 -4.8984723 -172.01225
190000000 -0.34415096 179.19461 -39.919064 24.442156 -39.926899 24.182772 -4.8341808 -172.55977
200000000 -0.3337104 179.15417 -39.492714 23.699368 -39.474339 23.99732 -4.7602696 -173.02028
210000000 -0.33889297 179.09622 -39.161564 23.667915 -39.168095 23.665323 -4.6907654 -173.49342
220000000 -0.33521846 179.05542 -38.806549 22.712046 -38.805626 22.574871 -4.6195645 -174.15262
230000000 -0.33602276 179.00841 -38.272579 20.057676 -38.243252 20.259087 -4.5147023 -175.00035
240000000 -0.33600122 178.95352 -38.431183 17.150858 -38.472103 16.997385 -4.5583072 -175.87642
250000000 -0.3374975 178.9084 -38.407532 18.189369 -38.401134 18.045824 -4.51791 -175.82353
260000000 -0.34682414 178.87277 -38.125118 18.641842 -38.19083 18.501774 -4.435317 -176.13916
270000000 -0.34573862 178.81139 -37.405437 17.112518 -37.379524 17.17005 -4.2531643 -176.51871
280000000 -0.34410641 178.76958 -37.43589 11.953269 -37.431274 11.991343 -4.2204113 -177.91791
290000000 -0.34226081 178.71243 -37.72908 9.1035862 -37.796463 8.9652872 -4.2358227 -178.61877
300000000 -0.34398732 178.68553 -38.136971 8.7903585 -38.125652 8.8342857 -4.2279816 -178.87616
310000000 -0.34400246 178.63225 -38.269848 10.816064 -38.218945 10.966561 -4.1512074 -178.87643
320000000 -0.34442389 178.6194 -37.951855 12.123763 -37.966904 12.190954 -4.0300946 -179.52583
330000000 -0.34558055 178.57018 -37.635338 12.17368 -37.636547 11.995437 -3.9656911 179.82324
340000000 -0.34815669 178.54491 -36.709515 9.1603985 -36.6665 8.983881 -3.8030539 178.73083
350000000 -0.34755823 178.46141 -37.064369 3.4336605 -37.071396 3.5459681 -3.8766806 177.72281
360000000 -0.34492636 178.4104 -37.418781 0.90170652 -37.46381 0.94228339 -3.8961918 177.18697
370000000 -0.34319893 178.34395 -38.009354 -0.48360622 -37.94202 -0.59065866 -3.9076741 177.01569
380000000 -0.34310535 178.28517 -38.300114 -0.30240458 -38.293686 -0.3768042 -3.8703723 176.77612
390000000 -0.34404588 178.24475 -38.746815 1.1539778 -38.799377 1.4529734 -3.8281968 176.66013
400000000 -0.34496084 178.22023 -38.736397 5.1741929 -38.72757 4.9578071 -3.698745 176.68124
410000000 -0.34431994 178.18163 -38.255257 5.9404573 -38.243454 5.9538889 -3.5434456 176.03476
420000000 -0.34269527 178.14548 -37.816811 4.1359968 -37.808968 4.3941956 -3.4244921 174.93532
430000000 -0.34236053 178.10336 -37.686852 1.176787 -37.665356 1.0831711 -3.3641241 173.81483
440000000 -0.34253362 178.05002 -38.02034 -1.9981488 -37.961105 -2.411907 -3.3750534 172.84964
450000000 -0.34168136 177.97299 -38.362122 -3.1937559 -38.390495 -3.1140993 -3.3816915 172.18979
460000000 -0.3410933 177.93701 -38.475479 -1.9174843 -38.508663 -1.7394379 -3.3273747 171.7599
470000000 -0.33934247 177.89108 -38.535316 -3.4663491 -38.50132 -3.7229044 -3.2833726 170.96667
480000000 -0.34023347 177.83319 -38.882984 -4.3291836 -38.861481 -4.0519533 -3.267693 170.30452
490000000 -0.33887982 177.7807 -39.079887 -4.8530378 -39.084362 -4.4876437 -3.2419155 169.52054
500000000 -0.33544946 177.73676 -39.247749 -4.3389707 -39.203133 -4.5188179 -3.2053592 168.9659
510000000 -0.33858401 177.6873 -39.527111 -5.2338176 -39.475716 -5.4082108 -3.190979 168.25507
520000000 -0.3362124 177.64528 -39.89798 -5.3897085 -39.894337 -5.5122466 -3.1914642 167.59523
530000000 -0.3348695 177.59348 -40.360798 -2.7819219 -40.341022 -2.9006865 -3.1864705 167.16371
540000000 -0.33978894 177.53035 -40.33268 -0.3291983 -40.26862 -0.0047577652 -3.1354806 166.66501
550000000 -0.33673209 177.5036 -40.193287 0.38165447 -40.259926 0.80377954 -3.0936291 166.0434
560000000 -0.33511502 177.46115 -40.230831 1.3779368 -40.235897 1.575281 -3.0538025 165.4352
570000000 -0.34305915 177.39909 -40.205414 1.0464466 -40.172226 1.2186369 -3.0112402 164.68095
580000000 -0.33898365 177.34624 -40.264141 0.89377713 -40.261604 0.60396576 -2.9882984 163.96101
590000000 -0.33887199 177.2926 -40.622429 0.9068855 -40.626911 0.63251853 -2.9869733 163.26727
600000000 -0.34471253 177.27075 -40.922375 3.9026101 -40.946697 3.8800452 -2.9818375 162.84103
610000000 -0.33943596 177.21045 -40.472523 6.6858978 -40.464844 6.4643202 -2.9082103 162.3389
620000000 -0.34177434 177.19617 -40.325523 5.13379 -40.316677 5.2584701 -2.8712568 161.40039
630000000 -0.34520888 177.1586 -40.321999 4.6290956 -40.334927 4.7250352 -2.8643675 160.58388
640000000 -0.34339112 177.07541 -40.454666 3.182317 -40.395092 3.5590746 -2.8576314 159.73683
650000000 -0.34429893 177.03738 -40.786865 3.3435218 -40.772835 3.3158469 -2.8726358 158.98865
660000000 -0.34655693 176.98119 -41.168556 4.9627352 -41.157684 5.0935636 -2.8916457 158.41966
670000000 -0.34999272 176.93411 -41.188042 7.8372049 -41.219006 7.9237838 -2.8811307 157.99028
680000000 -0.34816736 176.89294 -41.120251 9.2663298 -41.098408 9.1686592 -2.8555207 157.35912
690000000 -0.34816286 176.84029 -41.112244 10.590183 -41.158737 10.236973 -2.8536456 156.66324
700000000 -0.34826609 176.82625 -41.19331 12.228054 -41.195694 12.333091 -2.8662071 156.05345
710000000 -0.34787905 176.78955 -41.110565 14.778755 -41.082554 14.652274 -2.8760152 155.54079
720000000 -0.34872159 176.74274 -40.892773 16.80092 -40.870876 16.823248 -2.8815575 155.10374
730000000 -0.34685329 176.70256 -40.649952 17.971626 -40.620667 18.041079 -2.8845961 154.56972
740000000 -0.34924364 176.6496 -40.193378 19.96129 -40.154778 19.827944 -2.8834717 154.31818
750000000 -0.34626928 176.59601 -39.640221 18.999149 -39.628563 19.033232 -2.8326397 153.90672
760000000 -0.34514302 176.56361 -39.306812 17.26376 -39.313351 17.173447 -2.7901251 153.39185
770000000 -0.34408063 176.49017 -39.144958 15.012884 -39.175072 14.939649 -2.7431259 152.7998
780000000 -0.34480333 176.45474 -39.089142 12.816028 -39.115242 12.81915 -2.699244 152.07578
790000000 -0.34392822 176.43398 -39.145718 10.843071 -39.168598 10.744653 -2.6705506 151.25793
800000000 -0.34367043 176.39145 -39.340527 9.2289829 -39.378284 9.1219749 -2.6616781 150.40575
810000000 -0.34113026 176.34467 -39.642609 8.6305408 -39.622742 8.5335922 -2.6729672 149.62193
820000000 -0.34186172 176.30013 -39.845715 8.9458933 -39.864159 8.7604322 -2.6925709 148.92409
830000000 -0.34213197 176.25751 -39.996204 9.4456358 -39.989304 9.4073763 -2.7243602 148.29265
840000000 -0.34312692 176.21024 -39.995564 10.41302 -39.958328 10.416863 -2.7403777 147.83855
850000000 -0.3452369 176.1485 -39.989544 10.359075 -39.959274 10.305338 -2.7430508 147.3201
860000000 -0.34434599 176.10207 -40.048134 10.102873 -40.058094 9.995944 -2.7435727 146.79927
870000000 -0.34298995 176.07262 -40.099819 10.410599 -40.098179 10.589042 -2.7471607 146.29529
880000000 -0.34329921 176.01952 -40.084175 10.360251 -40.077023 10.420408 -2.7556155 145.82515
890000000 -0.34175307 175.98965 -40.117153 9.5987759 -40.110584 9.5211029 -2.7514548 145.44763
900000000 -0.3425552 175.93517 -40.28577 9.3459425 -40.30661 9.1923056 -2.7281613 145.02519
910000000 -0.3436102 175.8902 -40.491302 9.3577328 -40.48637 9.1196537 -2.698446 144.53465
920000000 -0.34490705 175.83545 -40.717525 9.5268202 -40.724514 9.4992943 -2.6693156 143.93323
930000000 -0.34358218 175.78662 -40.978233 10.502867 -41.01844 10.468882 -2.6514485 143.22238
940000000 -0.34546003 175.73305 -41.235523 12.562561 -41.231964 12.704153 -2.6555791 142.4991
950000000 -0.34689394 175.66599 -41.247704 15.173652 -41.236721 15.295685 -2.6657298 141.84744
960000000 -0.34646189 175.63312 -41.126717 17.465254 -41.080807 17.576714 -2.6834249 141.27435
970000000 -0.34652022 175.59453 -40.880276 18.703245 -40.864254 18.712605 -2.6887794 140.76871
980000000 -0.34802938 175.54576 -40.659084 19.322458 -40.62801 19.24275 -2.6957066 140.25697
990000000 -0.34853926 175.49277 -40.442234 19.630283 -40.460556 19.375973 -2.699352 139.77769
1000000000 -0.34799963 175.44441 -40.268723 18.913044 -40.299431 18.887154 -2.7021255 139.31604
1010000000 -0.35250273 175.4071 -40.22485 18.196354 -40.217957 18.203838 -2.6969414 138.91283
1020000000 -0.35145959 175.35718 -40.25948 17.702158 -40.279102 17.545683 -2.677032 138.46591
1030000000 -0.35274249 175.32147 -40.294682 17.79516 -40.310787 17.906513 -2.6616833 137.91786
1040000000 -0.35418078 175.26765 -40.308762 17.698021 -40.29348 17.845608 -2.6435983 137.3521
1050000000 -0.35370645 175.22546 -40.366013 17.820675 -40.32452 17.68236 -2.6321442 136.76514
1060000000 -0.35310805 175.18744 -40.437302 17.976816 -40.432274 17.88084 -2.6206176 136.12886
1070000000 -0.35377049 175.14734 -40.465237 18.753345 -40.467739 18.622566 -2.6134493 135.50867
1080000000 -0.35122609 175.10512 -40.423637 19.305141 -40.409725 19.183882 -2.6151752 134.84882
1090000000 -0.3501451 175.06114 -40.36198 19.66457 -40.362904 19.671253 -2.630235 134.25508
1100000000 -0.3488178 175.01808 -40.313675 19.869923 -40.305801 19.759457 -2.646939 133.78662
1110000000 -0.34835947 174.96298 -40.257835 19.744068 -40.276577 19.678768 -2.6487699 133.34628
1120000000 -0.34855273 174.93219 -40.222816 19.377106 -40.237259 19.367758 -2.6405194 132.94368
1130000000 -0.35156345 174.88708 -40.284405 19.017532 -40.290779 18.990223 -2.6188099 132.41121
1140000000 -0.35255468 174.83859 -40.394821 19.067842 -40.381016 19.080669 -2.6046116 131.82585
1150000000 -0.35431281 174.78481 -40.464664 19.526129 -40.452347 19.630852 -2.592181 131.19333
1160000000 -0.35363036 174.74188 -40.446159 19.894386 -40.433506 19.94911 -2.5872862 130.53889
1170000000 -0.35270458 174.69936 -40.482414 19.831902 -40.477192 19.977776 -2.5905423 129.89119
1180000000 -0.35494646 174.64412 -40.562469 20.483236 -40.560944 20.415316 -2.5952075 129.30168
1190000000 -0.35491529 174.60397 -40.540577 21.17828 -40.551258 21.081081 -2.5976365 128.69714
1200000000 -0.3569079 174.55794 -40.569622 21.325634 -40.577259 21.290874 -2.608398 128.07701
1210000000 -0.35647038 174.50447 -40.614491 21.95302 -40.606781 21.886059 -2.6219881 127.55412
1220000000 -0.35722408 174.46791 -40.598408 22.707844 -40.581165 22.604164 -2.6265416 127.01674
1230000000 -0.35659429 174.43027 -40.570595 23.097837 -40.55854 23.037691 -2.6269889 126.45262
1240000000 -0.35821518 174.37492 -40.524693 23.526064 -40.532261 23.477257 -2.6307392 125.85593
1250000000 -0.3571246 174.33839 -40.490871 23.73011 -40.484329 23.692217 -2.6421616 125.20353
1260000000 -0.35648721 174.28082 -40.458149 23.745451 -40.446335 23.787292 -2.666682 124.6427
1270000000 -0.35704195 174.24026 -40.453773 23.803883 -40.47718 23.826618 -2.6750548 124.09908
1280000000 -0.35518861 174.17142 -40.466824 24.189665 -40.475071 24.168703 -2.6926768 123.48139
1290000000 -0.35634056 174.13013 -40.464504 24.270304 -40.467754 24.251232 -2.7216127 122.94976
1300000000 -0.35543218 174.08418 -40.495014 24.617922 -40.477314 24.666199 -2.7514479 122.52256
1310000000 -0.35675475 174.03853 -40.513462 24.919546 -40.494667 24.995552 -2.7662876 122.10378
1320000000 -0.35517767 174.00328 -40.539043 25.488184 -40.515369 25.414711 -2.7837877 121.66213
1330000000 -0.35679746 173.95801 -40.512405 26.08 -40.515091 26.035748 -2.8068981 121.25669
1340000000 -0.35485435 173.90837 -40.463352 26.69385 -40.457546 26.629982 -2.8242774 120.96399
1350000000 -0.35639367 173.86566 -40.420227 26.988346 -40.418453 26.930645 -2.8169975 120.69241
1360000000 -0.35681799 173.81764 -40.346378 27.160864 -40.342644 27.039562 -2.7976923 120.30833
1370000000 -0.35816684 173.77034 -40.303318 27.187286 -40.301781 27.077036 -2.783628 119.8862
1380000000 -0.35880587 173.71092 -40.285435 27.186853 -40.281376 27.12229 -2.7563844 119.39231
1390000000 -0.35812187 173.66841 -40.254982 27.15513 -40.258053 27.205795 -2.7368085 118.85721
1400000000 -0.35711446 173.61871 -40.255989 27.10664 -40.246315 27.105021 -2.7218676 118.28206
1410000000 -0.35743573 173.57486 -40.280945 27.041325 -40.281803 26.901924 -2.7122469 117.68394
1420000000 -0.35789669 173.5464 -40.332474 27.139141 -40.3274 27.151611 -2.7118273 117.0851
1430000000 -0.35864785 173.49963 -40.368103 27.623762 -40.367065 27.622986 -2.7109423 116.504
1440000000 -0.35884464 173.46016 -40.354294 28.181435 -40.354668 28.189728 -2.7136512 115.92474
1450000000 -0.36126384 173.4169 -40.295975 28.499138 -40.287018 28.471731 -2.714498 115.33671
1460000000 -0.36314568 173.37334 -40.244843 28.45812 -40.255714 28.431143 -2.7167265 114.75498
1470000000 -0.36462909 173.31084 -40.222759 28.374733 -40.225151 28.463062 -2.7229083 114.17977
1480000000 -0.36372095 173.26407 -40.24181 28.211433 -40.225136 28.178904 -2.7248693 113.61519
1490000000 -0.36592406 173.20967 -40.237247 28.035608 -40.239838 28.099726 -2.7261236 113.05869
1500000000 -0.36604965 173.15807 -40.278999 27.842499 -40.264122 27.909885 -2.7255096 112.48853
1510000000 -0.36524624 173.12663 -40.351822 27.745985 -40.342419 27.854233 -2.7256527 111.88921
1520000000 -0.36511618 173.0811 -40.433777 28.011227 -40.423714 27.859362 -2.7323 111.27395
1530000000 -0.36542082 173.04726 -40.482307 28.308613 -40.47628 28.143177 -2.7425628 110.66757
1540000000 -0.36737996 173.00232 -40.543209 28.493759 -40.537712 28.488985 -2.754781 110.0732
1550000000 -0.36763886 172.95387 -40.627716 29.037207 -40.629345 28.937586 -2.7629905 109.51733
1560000000 -0.37024647 172.90244 -40.6726 29.560574 -40.672523 29.514946 -2.7654641 108.93738
1570000000 -0.37149712 172.85483 -40.703197 29.907339 -40.685703 29.969439 -2.7675462 108.33099
1580000000 -0.37157777 172.7951 -40.718952 30.430473 -40.708366 30.407631 -2.7689602 107.69221
1590000000 -0.36939156 172.74207 -40.77496 30.983126 -40.756893 30.909502 -2.7752118 107.03053
1600000000 -0.36928332 172.69846 -40.774342 31.888893 -40.750603 31.699068 -2.7849708 106.38334
1610000000 -0.36842382 172.65479 -40.735294 32.309898 -40.735344 32.187599 -2.7960401 105.72844
1620000000 -0.36725375 172.60977 -40.69598 32.70369 -40.689854 32.686939 -2.8087714 105.08292
1630000000 -0.36771238 172.5798 -40.655006 32.74136 -40.66407 32.838341 -2.8196108 104.40773
1640000000 -0.36740306 172.53838 -40.675751 32.752903 -40.667 32.840847 -2.8343818 103.71043
1650000000 -0.36889273 172.49623 -40.69099 32.978222 -40.682915 32.988831 -2.8489389 103.01135
1660000000 -0.37022334 172.43703 -40.694893 33.130028 -40.69466 33.118065 -2.8638384 102.29623
1670000000 -0.37183326 172.39532 -40.731205 33.135303 -40.715702 33.073627 -2.8797755 101.56172
1680000000 -0.37284154 172.33629 -40.800381 33.194592 -40.799664 33.106731 -2.8987501 100.80599
1690000000 -0.37233609 172.29039 -40.869236 33.483562 -40.859192 33.308353 -2.9228988 100.01656
1700000000 -0.37155607 172.23842 -40.946651 33.691017 -40.947308 33.623169 -2.9533658 99.217224
1710000000 -0.37219846 172.19655 -41.025337 34.020447 -41.002117 33.959209 -2.9903741 98.417778
1720000000 -0.37185779 172.14268 -41.079884 34.326641 -41.067261 34.2757 -3.0300357 97.640648
1730000000 -0.37202391 172.10838 -41.161324 34.410572 -41.155945 34.425415 -3.0706918 96.82888
1740000000 -0.37366411 172.07245 -41.330658 34.601101 -41.29697 34.69595 -3.1135499 95.977859
1750000000 -0.37582764 172.0242 -41.499043 35.277191 -41.47076 35.289661 -3.1622882 95.081627
1760000000 -0.37793946 171.98534 -41.649635 36.090931 -41.642921 36.132763 -3.2150817 94.157349
1770000000 -0.38000029 171.93114 -41.811039 37.212994 -41.800018 37.06218 -3.2769108 93.199776
1780000000 -0.38231766 171.883 -41.990387 38.430153 -41.993816 38.157162 -3.3476226 92.205528
1790000000 -0.38326645 171.83357 -42.173187 40.183025 -42.190407 39.868393 -3.4358246 91.187889
1800000000 -0.38285366 171.79028 -42.332081 42.185287 -42.353165 41.918083 -3.540689 90.148239
1810000000 -0.38153923 171.72736 -42.444359 44.478802 -42.451187 44.337975 -3.6654828 89.148247
1820000000 -0.38196149 171.69276 -42.506477 46.982059 -42.485649 46.886189 -3.8027618 88.15979
1830000000 -0.38097289 171.64709 -42.494743 49.468376 -42.474995 49.553131 -3.9675624 87.211494
1840000000 -0.38091409 171.60242 -42.450287 52.086914 -42.388844 52.169518 -4.1552405 86.333687
1850000000 -0.38143805 171.56395 -42.414124 54.663597 -42.323532 54.719135 -4.3617201 85.469986
1860000000 -0.38244769 171.52313 -42.306454 57.861237 -42.26416 57.948658 -4.5932655 84.54911
1870000000 -0.3854427 171.47882 -42.086983 61.032829 -42.083637 61.060978 -4.8646364 83.793892
1880000000 -0.38741457 171.43256 -41.74398 64.311668 -41.795979 64.448181 -5.1726031 83.327888
1890000000 -0.386996 171.39104 -41.282558 67.288208 -41.356106 67.435059 -5.5041685 83.278175
1900000000 -0.38856062 171.3378 -40.786819 69.689278 -40.837303 70.051872 -5.8449163 83.567276
1910000000 -0.38658118 171.28416 -40.224354 71.674927 -40.234673 71.866974 -6.1822095 84.301239
1920000000 -0.3872405 171.23421 -39.572174 72.865166 -39.540207 72.888466 -6.5035248 85.447525
1930000000 -0.38587892 171.19861 -38.889374 72.715057 -38.84301 72.459625 -6.777946 87.12011
1940000000 -0.3867071 171.15823 -38.234779 71.716125 -38.200005 71.032738 -6.9973383 89.129051
1950000000 -0.38780174 171.12628 -37.681976 69.805397 -37.669056 69.04126 -7.1723533 91.29483
1960000000 -0.38853458 171.09265 -37.242958 67.406738 -37.229042 66.87323 -7.3291745 93.478821
1970000000 -0.39108679 171.05333 -36.92524 64.729881 -36.89325 64.590492 -7.4389639 95.872124
1980000000 -0.39162472 171.01018 -36.716145 61.8885 -36.664425 61.978409 -7.4737411 98.496399
1990000000 -0.39329019 170.96115 -36.610378 59.298298 -36.55352 59.445206 -7.3913894 101.19327
2000000000 -0.39236984 170.90562 -36.564217 57.164448 -36.498615 57.160149 -7.2309489 103.72798
2010000000 -0.39257723 170.85599 -36.532871 55.399254 -36.518173 55.262829 -6.9847193 105.97849
2020000000 -0.39232904 170.80974 -36.557434 53.856792 -36.563972 53.62027 -6.6428056 107.71794
2030000000 -0.3913236 170.75647 -36.617153 52.609253 -36.629391 52.419682 -6.2608118 108.818
2040000000 -0.39333725 170.7059 -36.657524 51.685528 -36.682285 51.556789 -5.8917904 109.4358
2050000000 -0.39325365 170.6709 -36.675854 50.873852 -36.688053 50.800415 -5.5581794 109.78429
