!Keysight Technologies,N5222B,MY61257109,A.17.25.03
!Date: Tuesday, July 21, 2026 19:45:57
!Correction: S11(C  2-Port  ) 
!S21(C  2-Port  ) 
!S12(C  2-Port  ) 
!S22(C  2-Port  ) 
!S2P File: Measurements: S11, S21, S12, S22:
# Hz S  dB   R 50
10000000 -0.38418743 -179.67664 -53.340302 18.934746 -53.871975 21.625925 -2.477555 -55.669846
20000000 -0.32745332 -179.86609 -37.811069 21.231327 -37.901882 20.843399 -3.7325668 -116.74185
30000000 -0.33261505 -179.98718 -38.501495 22.196058 -38.504406 21.374147 -3.4076247 -129.69991
40000000 -0.33398741 179.92377 -35.6385 10.007735 -35.508976 9.9032583 -3.4282174 -149.41458
50000000 -0.3278645 179.83221 -31.20401 -27.441622 -31.209297 -27.613089 -5.2217836 178.71021
60000000 -0.333664 179.69893 -37.051075 -62.978054 -36.995628 -63.335674 -8.0228443 -155.54259
70000000 -0.33747989 179.71036 -40.573868 -59.326027 -40.578526 -59.18182 -6.5549402 -154.6758
80000000 -0.33319831 179.63216 -42.449421 -55.399498 -42.491112 -55.433105 -5.9892721 -156.91444
90000000 -0.33967808 179.62796 -43.945526 -51.218884 -43.962906 -51.422176 -5.6462646 -159.06183
100000000 -0.33872899 179.60448 -44.846516 -45.509418 -44.798141 -45.893295 -5.3821254 -161.36913
110000000 -0.34042749 179.52724 -45.732811 -42.328751 -45.712723 -41.861794 -5.2277265 -163.07375
120000000 -0.33966324 179.5024 -44.909904 -36.195137 -45.104465 -36.035694 -5.0509067 -165.70662
130000000 -0.33710834 179.44185 -42.402634 -35.251171 -42.27169 -37.122406 -5.0374317 -170.272
140000000 -0.33645993 179.36644 -45.502182 -52.86874 -45.450413 -53.077702 -5.267849 -168.54135
150000000 -0.3346394 179.33733 -46.7733 -50.556007 -46.821922 -50.88443 -5.1464701 -169.18965
160000000 -0.33067039 179.29434 -47.85857 -49.183002 -47.814308 -49.840534 -5.0573502 -170.22542
170000000 -0.33152723 179.23305 -48.922138 -47.466385 -48.897873 -47.213108 -5.0491009 -171.07794
180000000 -0.33490333 179.211 -49.757137 -45.292431 -49.733253 -45.109287 -5.0153561 -171.71327
190000000 -0.33578056 179.17934 -50.921425 -42.530663 -50.835979 -42.476925 -4.9768167 -172.1362
200000000 -0.32472679 179.13718 -52.056911 -35.67923 -52.027683 -36.075825 -4.8986826 -172.64616
210000000 -0.32975036 179.07967 -53.243752 -28.158161 -53.021179 -29.807421 -4.8434377 -173.08394
220000000 -0.32448411 179.03465 -53.929363 -19.148962 -53.980663 -18.111208 -4.776515 -173.62599
230000000 -0.32479179 178.98688 -51.563934 -11.626335 -51.686298 -10.08667 -4.65657 -174.50151
240000000 -0.32428774 178.92946 -52.725033 -26.864851 -52.662552 -26.050663 -4.7164645 -175.35402
250000000 -0.32590637 178.88354 -56.248951 -9.0272417 -55.989216 -8.7888803 -4.6720357 -175.35143
260000000 -0.33690554 178.84265 -55.632534 23.249683 -55.666122 22.784538 -4.6039748 -175.39575
270000000 -0.33581972 178.79254 -49.702118 29.270061 -49.745419 29.463842 -4.3720145 -175.81332
280000000 -0.33433548 178.75128 -49.918968 5.9291148 -49.991348 6.3872647 -4.3465867 -177.31689
290000000 -0.3338334 178.69608 -51.781082 -2.9788377 -51.904949 -3.3627667 -4.3773289 -177.96904
300000000 -0.33581719 178.66687 -55.048794 6.5383739 -54.817951 5.8587403 -4.3557591 -178.30455
310000000 -0.3356055 178.6152 -53.632813 41.132217 -53.827377 39.424419 -4.2649155 -178.32704
320000000 -0.33630636 178.60309 -50.671032 38.080341 -50.657455 41.275379 -4.1461339 -179.0213
330000000 -0.33695477 178.55672 -49.399147 40.108318 -49.260025 40.22599 -4.1014585 -179.79596
340000000 -0.34020576 178.5235 -46.393097 27.784506 -46.175873 25.645231 -3.9406238 179.08641
350000000 -0.34036899 178.44141 -48.140781 13.485853 -48.277069 13.719081 -4.0305014 178.27272
360000000 -0.33892432 178.38994 -49.646236 12.550402 -49.711411 12.239227 -4.0516062 177.83189
370000000 -0.33938333 178.32172 -52.085728 18.674406 -52.02433 19.877823 -4.0587668 177.53203
380000000 -0.34112075 178.27548 -52.280704 36.467091 -52.048729 35.180271 -4.0226779 177.53023
390000000 -0.3442409 178.22955 -50.628975 55.976166 -50.824669 55.550495 -3.9737256 177.64186
400000000 -0.3443701 178.20406 -47.330025 57.178379 -47.217495 57.915382 -3.8014872 177.54506
410000000 -0.3447274 178.15872 -45.354942 46.487709 -45.499363 46.463017 -3.6309385 176.71417
420000000 -0.34225661 178.11458 -44.61034 34.487892 -44.730099 34.760117 -3.5123515 175.61107
430000000 -0.34205636 178.06441 -44.959568 23.771564 -44.969757 24.903357 -3.4595191 174.28996
440000000 -0.3419404 178.00771 -46.469521 17.907013 -46.346012 19.028191 -3.4876995 173.23508
450000000 -0.34138256 177.93323 -47.625729 23.616751 -47.308064 22.404646 -3.5058949 172.81926
460000000 -0.33923694 177.90921 -46.647671 28.663368 -46.663704 27.009083 -3.4436164 172.40271
470000000 -0.336025 177.86507 -46.756943 21.90307 -46.870403 21.474951 -3.4047873 171.42836
480000000 -0.33598164 177.81328 -47.369473 23.436716 -47.521637 24.042086 -3.3941441 170.96718
490000000 -0.3335368 177.76065 -47.819237 25.462246 -47.819851 25.317131 -3.368474 170.30516
500000000 -0.32843879 177.71616 -47.654427 26.321161 -47.611237 26.898872 -3.3274889 169.60504
510000000 -0.3308109 177.66527 -48.016819 26.533672 -48.030334 27.129135 -3.3094721 169.0316
520000000 -0.32708323 177.62779 -48.788719 30.162006 -48.713093 31.235937 -3.3068352 168.43477
530000000 -0.32694981 177.57718 -48.453888 40.86927 -48.252247 40.686462 -3.2862432 168.10158
540000000 -0.33123276 177.51578 -47.036964 42.010796 -46.967113 40.622982 -3.2167401 167.60048
550000000 -0.32797924 177.49664 -46.52916 37.957333 -46.605438 38.79718 -3.1700199 166.88921
560000000 -0.32696879 177.46089 -46.413216 38.232838 -46.390652 37.422016 -3.1295495 166.20796
570000000 -0.33493829 177.39948 -46.298771 34.320507 -46.357151 35.435749 -3.0954785 165.34717
580000000 -0.33288276 177.34848 -46.582443 34.155422 -46.504917 33.974819 -3.073597 164.60759
590000000 -0.33458012 177.29579 -46.927887 37.077908 -47.031879 36.632465 -3.0700815 163.97202
600000000 -0.34191382 177.27327 -46.605576 42.97776 -46.517456 42.64299 -3.0480707 163.59093
610000000 -0.33731845 177.2095 -45.439434 40.337044 -45.427757 39.967148 -2.9714127 163.05188
620000000 -0.34131199 177.18951 -45.555946 36.157001 -45.602337 36.038162 -2.937371 162.13046
630000000 -0.34573612 177.15431 -45.657227 34.380318 -45.669323 34.219463 -2.9239075 161.34537
640000000 -0.34499979 177.06693 -46.14378 31.890806 -46.175797 31.579216 -2.9178276 160.51205
650000000 -0.34619921 177.03706 -46.741077 34.248814 -46.730705 34.340748 -2.9297001 159.79726
660000000 -0.34937522 176.97911 -46.9786 39.816448 -46.920666 39.744064 -2.9433026 159.19943
670000000 -0.3520892 176.94188 -46.409023 42.944843 -46.337425 43.424538 -2.9333923 158.70485
680000000 -0.35015547 176.89665 -46.026737 43.074848 -46.00005 43.023502 -2.9049788 158.04451
690000000 -0.35080004 176.85085 -45.858578 44.405296 -45.910671 44.247517 -2.8966 157.33537
700000000 -0.35017681 176.83585 -45.618748 46.851357 -45.648201 46.610905 -2.9009228 156.73297
710000000 -0.3489261 176.79843 -45.09132 47.490067 -45.153656 47.716167 -2.9005301 156.21709
720000000 -0.3493278 176.75423 -44.666965 48.194553 -44.608673 48.44453 -2.9016993 155.73619
730000000 -0.34570107 176.71144 -44.217228 48.095917 -44.121502 47.6106 -2.8990548 155.20834
740000000 -0.34636742 176.66292 -43.394882 46.971397 -43.38591 46.679146 -2.8930817 154.86418
750000000 -0.34253952 176.60246 -42.886799 42.547329 -42.93504 42.60376 -2.8527303 154.40984
760000000 -0.33956331 176.57381 -42.691864 38.311363 -42.678337 38.397999 -2.8173382 153.86337
770000000 -0.33751401 176.50601 -42.645222 34.264378 -42.679352 34.229553 -2.7798076 153.22897
780000000 -0.33810717 176.46996 -42.835381 30.188309 -42.800354 30.513718 -2.7398682 152.5054
790000000 -0.33701462 176.44937 -43.131035 27.048817 -43.096012 26.786314 -2.7115893 151.68718
800000000 -0.33629322 176.41228 -43.679806 24.875034 -43.674305 24.449688 -2.6988783 150.89796
810000000 -0.33464804 176.36697 -44.263893 24.706682 -44.275745 24.216408 -2.7032406 150.13184
820000000 -0.33506832 176.32208 -44.626831 25.677639 -44.655666 25.635839 -2.7156308 149.44112
830000000 -0.33468637 176.27592 -44.89159 27.254644 -44.868801 27.48237 -2.7409134 148.78365
840000000 -0.33575651 176.22935 -44.811764 28.71748 -44.82568 28.714909 -2.7567501 148.30322
850000000 -0.33844215 176.16849 -44.805614 28.542587 -44.794365 28.80541 -2.7603807 147.77016
860000000 -0.3372916 176.11827 -44.900791 28.328196 -44.930782 28.425119 -2.7661536 147.21046
870000000 -0.33637908 176.09129 -45.000172 28.241638 -44.972118 28.64846 -2.7756302 146.685
880000000 -0.33880678 176.03773 -44.974705 28.292521 -44.891468 28.13114 -2.7859204 146.2121
890000000 -0.33907351 176.01328 -45.142361 26.968525 -45.059532 26.654772 -2.77736 145.8248
900000000 -0.34030572 175.95953 -45.381565 26.786325 -45.429111 26.731882 -2.7501245 145.38206
910000000 -0.34226641 175.91766 -45.750404 26.774059 -45.699806 26.779831 -2.7216074 144.88223
920000000 -0.34405935 175.86563 -46.133003 28.197454 -46.114834 27.571756 -2.6910858 144.27364
930000000 -0.3439565 175.81577 -46.545296 30.18984 -46.543476 29.892258 -2.6752319 143.5665
940000000 -0.34613809 175.76259 -46.758621 34.447697 -46.79657 34.148605 -2.6776085 142.84
950000000 -0.34750494 175.69154 -46.635044 38.133781 -46.638073 38.093323 -2.6892915 142.17558
960000000 -0.34707731 175.66089 -46.22271 41.092251 -46.208191 41.13308 -2.710808 141.57747
970000000 -0.34792814 175.62201 -45.800014 42.303234 -45.780376 42.013962 -2.7197433 141.06361
980000000 -0.35003594 175.57066 -45.425816 41.839226 -45.460323 41.825405 -2.7283237 140.49768
990000000 -0.35043186 175.52414 -45.179459 41.267632 -45.173504 41.347191 -2.7388785 140.00458
1000000000 -0.34988809 175.47684 -44.939919 39.763348 -44.931236 39.730484 -2.7439969 139.57268
1010000000 -0.35355398 175.43837 -44.916389 37.742306 -44.927795 38.035728 -2.7367764 139.20288
1020000000 -0.35193986 175.38734 -45.135376 37.013939 -45.074841 37.21431 -2.7210827 138.76988
1030000000 -0.35239464 175.3512 -45.240219 37.283665 -45.154259 37.233784 -2.7065761 138.24872
1040000000 -0.35171279 175.29663 -45.243141 37.127674 -45.20158 36.588081 -2.6886067 137.71524
1050000000 -0.35063082 175.24651 -45.359993 36.328835 -45.358711 36.344017 -2.6743369 137.13756
1060000000 -0.34860519 175.20921 -45.630512 36.744686 -45.600403 36.659245 -2.6619959 136.47131
1070000000 -0.34928459 175.17325 -45.677738 38.145977 -45.655102 38.034809 -2.6592665 135.82704
1080000000 -0.3457019 175.13564 -45.635338 38.911388 -45.651512 38.928017 -2.6625955 135.1752
1090000000 -0.3443872 175.09837 -45.551247 39.350807 -45.55521 39.324516 -2.6752613 134.60928
1100000000 -0.34273028 175.06068 -45.527996 39.608162 -45.498089 39.820473 -2.6898558 134.13283
1110000000 -0.34204125 175.00826 -45.468727 39.589264 -45.438599 39.59726 -2.6938107 133.69156
1120000000 -0.3428188 174.97867 -45.399929 38.509724 -45.420292 38.559326 -2.6890924 133.29605
1130000000 -0.34565315 174.92676 -45.628586 37.383301 -45.58902 37.603664 -2.6700957 132.8147
1140000000 -0.34752402 174.87622 -45.938541 37.858105 -45.841446 37.43618 -2.6527417 132.25873
1150000000 -0.35082895 174.81572 -46.124916 38.938053 -46.105507 38.643574 -2.6380692 131.63562
1160000000 -0.35129428 174.77748 -46.17947 39.427887 -46.192528 39.112762 -2.6305182 130.96701
1170000000 -0.35235086 174.73413 -46.374157 40.160484 -46.391609 40.072269 -2.6354883 130.29298
1180000000 -0.35536534 174.68355 -46.503193 41.705997 -46.524113 41.739666 -2.6411319 129.71858
1190000000 -0.35642344 174.64394 -46.54797 42.978806 -46.498116 43.173519 -2.640578 129.11098
1200000000 -0.35908422 174.59966 -46.59877 44.092857 -46.5681 44.143379 -2.6525402 128.47736
1210000000 -0.35916576 174.54604 -46.671341 45.801193 -46.614529 45.619965 -2.6719067 127.96452
1220000000 -0.35943961 174.50691 -46.628212 47.654736 -46.575993 47.180424 -2.6769156 127.4614
1230000000 -0.35952425 174.46486 -46.537689 48.099194 -46.52824 47.770695 -2.6745827 126.92041
1240000000 -0.36108211 174.40796 -46.510395 48.489948 -46.516972 48.865993 -2.6756194 126.32029
1250000000 -0.36052516 174.37115 -46.528358 49.597786 -46.534882 49.715553 -2.6902041 125.64375
1260000000 -0.35910079 174.31746 -46.513527 50.178799 -46.51495 50.13942 -2.7178764 125.08239
1270000000 -0.35936961 174.27686 -46.585571 51.014317 -46.541439 51.025452 -2.7291529 124.54144
1280000000 -0.3563855 174.21536 -46.595875 52.458492 -46.564415 52.294403 -2.7460668 123.92142
1290000000 -0.35680982 174.17455 -46.527458 53.387718 -46.512817 53.675804 -2.7806306 123.3845
1300000000 -0.3546226 174.13504 -46.455341 54.473343 -46.417477 54.434628 -2.8151119 122.98574
1310000000 -0.3559778 174.08781 -46.403557 55.67141 -46.367847 55.651268 -2.8342726 122.60629
1320000000 -0.35435212 174.05223 -46.38625 57.056545 -46.390972 56.825665 -2.8554533 122.18124
1330000000 -0.35491979 174.00443 -46.189857 58.309006 -46.220772 58.209774 -2.886384 121.81615
1340000000 -0.35322317 173.94907 -46.011566 58.761322 -46.003048 59.052341 -2.9098704 121.61062
1350000000 -0.35485601 173.90536 -45.8647 58.726917 -45.848976 58.785275 -2.9001021 121.41962
1360000000 -0.35497034 173.85701 -45.754559 58.542927 -45.775734 58.713299 -2.8773355 121.09352
1370000000 -0.35686463 173.81665 -45.72678 58.586193 -45.734158 58.521778 -2.8569553 120.71478
1380000000 -0.35752988 173.76187 -45.754799 58.219776 -45.758045 58.273834 -2.8244812 120.23828
1390000000 -0.35669377 173.72165 -45.784031 58.106667 -45.752113 58.334755 -2.8037727 119.74284
1400000000 -0.35565609 173.67184 -45.872276 58.604897 -45.810692 58.412651 -2.7838438 119.22646
1410000000 -0.35608935 173.62831 -45.938728 58.831131 -45.896431 58.646416 -2.7675261 118.67696
1420000000 -0.35673958 173.59659 -45.999813 59.920712 -46.006714 59.668343 -2.7599452 118.10275
1430000000 -0.35729265 173.54805 -46.014381 61.049187 -46.009331 61.24279 -2.7529411 117.52272
1440000000 -0.35857898 173.50772 -45.958862 62.279228 -45.931862 62.316658 -2.7527084 116.95091
1450000000 -0.36136991 173.46735 -45.874165 62.643456 -45.856083 62.839817 -2.7500131 116.37357
1460000000 -0.36370915 173.4231 -45.829556 63.225094 -45.843304 63.04467 -2.7506731 115.78738
1470000000 -0.36601415 173.36829 -45.809418 63.342648 -45.796646 63.376007 -2.754636 115.22865
1480000000 -0.36541238 173.32219 -45.873055 63.568645 -45.857185 63.728119 -2.7553966 114.66761
1490000000 -0.36791441 173.26828 -45.896175 63.949574 -45.857586 64.2155 -2.7566848 114.13248
1500000000 -0.36887357 173.21603 -45.906307 64.726776 -45.896873 64.401329 -2.7556012 113.61536
1510000000 -0.36890796 173.18332 -46.017517 65.31472 -45.996788 65.221321 -2.7530515 113.05334
1520000000 -0.36897895 173.13606 -46.072872 66.618156 -46.043617 66.5812 -2.7573719 112.47092
1530000000 -0.36990342 173.09459 -46.080235 67.727829 -46.08371 67.684273 -2.7662001 111.89192
1540000000 -0.37178195 173.04774 -46.11076 68.920219 -46.126301 68.788162 -2.7788558 111.34897
1550000000 -0.37203658 172.99968 -46.12775 70.542816 -46.122341 70.443901 -2.7835667 110.85145
1560000000 -0.37399957 172.94896 -46.047104 71.710182 -46.021526 71.836136 -2.7814744 110.33053
1570000000 -0.37468943 172.90277 -45.995083 73.052078 -45.997765 73.119637 -2.7776618 109.76656
1580000000 -0.37371629 172.845 -45.918903 73.905617 -45.952541 73.977318 -2.771565 109.1781
1590000000 -0.37089968 172.79237 -45.898571 75.148865 -45.901962 75.333015 -2.7709033 108.56139
1600000000 -0.36938086 172.75269 -45.79108 76.63987 -45.725254 76.571571 -2.7716722 107.95959
1610000000 -0.36824855 172.70917 -45.609097 77.462486 -45.571945 77.54026 -2.7762375 107.34277
1620000000 -0.36697742 172.66159 -45.462772 78.203568 -45.440033 78.196617 -2.7834079 106.74358
1630000000 -0.3671439 172.63141 -45.331165 78.897263 -45.337696 78.563408 -2.7886033 106.11789
1640000000 -0.36658195 172.59103 -45.260742 79.351982 -45.263538 79.195351 -2.7957602 105.48161
1650000000 -0.36828265 172.54764 -45.200531 79.909523 -45.187637 79.877174 -2.8025899 104.84106
1660000000 -0.36966664 172.49321 -45.114056 80.258347 -45.135895 80.326942 -2.8100083 104.18455
1670000000 -0.37195143 172.4494 -45.126606 80.782532 -45.121429 80.745064 -2.81933 103.50984
1680000000 -0.37342036 172.39424 -45.143391 81.558174 -45.134384 81.423996 -2.830704 102.82096
1690000000 -0.37326041 172.34996 -45.11227 82.483215 -45.121986 82.627876 -2.845444 102.12171
1700000000 -0.37289399 172.2966 -45.07169 83.704391 -45.043392 83.767357 -2.8637342 101.41207
1710000000 -0.37445608 172.25841 -44.934067 85.008339 -44.905182 84.833893 -2.8877387 100.71346
1720000000 -0.37491322 172.20563 -44.768467 85.634499 -44.756901 85.537048 -2.9128835 100.04462
1730000000 -0.37620816 172.16815 -44.705082 86.056374 -44.719879 86.012886 -2.9361382 99.35128
1740000000 -0.37862235 172.13237 -44.692654 86.854568 -44.680275 86.914818 -2.9601793 98.625481
1750000000 -0.3809531 172.08041 -44.652596 88.035866 -44.634968 87.913872 -2.9882762 97.892029
1760000000 -0.38294697 172.04115 -44.591656 89.248367 -44.570454 89.131035 -3.0193555 97.149887
1770000000 -0.3845107 171.98592 -44.480511 90.360207 -44.490864 90.231079 -3.0534501 96.411125
1780000000 -0.38681149 171.93948 -44.441639 91.615356 -44.470181 91.569168 -3.0875435 95.631241
1790000000 -0.38774315 171.88863 -44.339882 93.19593 -44.34391 93.256546 -3.131072 94.805092
1800000000 -0.38686016 171.84637 -44.139889 94.824783 -44.111153 95.041214 -3.1823974 93.981682
1810000000 -0.38605547 171.78653 -43.860687 96.054695 -43.788864 96.00985 -3.2403331 93.212837
1820000000 -0.38633332 171.75513 -43.513924 96.747765 -43.47879 96.650406 -3.2956803 92.436714
1830000000 -0.38593608 171.70872 -43.2341 96.86068 -43.205044 96.781898 -3.3585031 91.676361
1840000000 -0.38568231 171.66472 -43.013638 96.794304 -42.983631 96.584694 -3.4186401 90.901947
1850000000 -0.38572389 171.6228 -42.846737 96.597519 -42.842575 96.456345 -3.4780788 90.072319
1860000000 -0.38579038 171.58128 -42.70319 96.785484 -42.713131 96.643227 -3.5471535 89.157112
1870000000 -0.3881864 171.53346 -42.543278 96.673599 -42.570023 96.709229 -3.6322076 88.226608
1880000000 -0.39006466 171.48871 -42.449432 96.633385 -42.464989 96.659454 -3.7384052 87.292191
1890000000 -0.38826594 171.44498 -42.366611 96.581001 -42.360634 96.679352 -3.8590293 86.33181
1900000000 -0.38963422 171.39015 -42.262589 96.850113 -42.237701 96.807541 -3.9902124 85.291512
1910000000 -0.38827303 171.339 -42.111874 97.038628 -42.091942 96.97673 -4.1417785 84.217331
1920000000 -0.38922027 171.29225 -41.915554 96.997482 -41.864017 96.966652 -4.3178902 83.123528
1930000000 -0.3886396 171.25673 -41.756371 96.69973 -41.764885 96.590874 -4.5379033 82.198196
1940000000 -0.38956401 171.21219 -41.643036 96.270958 -41.639458 96.307739 -4.7944989 81.399529
1950000000 -0.39122078 171.17429 -41.601624 95.728539 -41.596798 95.624565 -5.0823112 80.811005
1960000000 -0.39192104 171.13737 -41.604153 95.59259 -41.589317 95.58812 -5.402977 80.476021
1970000000 -0.39549416 171.09325 -41.594776 95.611855 -41.603004 95.524193 -5.7476363 80.545967
1980000000 -0.3966313 171.04832 -41.617218 95.726799 -41.657887 95.809029 -6.0929899 81.331238
1990000000 -0.39905006 170.99774 -41.684887 96.189056 -41.720417 96.352821 -6.4058361 82.446938
2000000000 -0.39942437 170.94595 -41.70953 96.918419 -41.70433 96.95211 -6.7062716 83.651566
2010000000 -0.40091172 170.90474 -41.623146 97.285683 -41.592285 97.202713 -7.0402374 84.633362
2020000000 -0.40193272 170.86383 -41.572109 97.639809 -41.578804 97.586571 -7.2899861 86.583466
2030000000 -0.40163684 170.81606 -41.573391 98.492149 -41.577724 98.475319 -7.485898 88.812866
2040000000 -0.40430757 170.77124 -41.520584 99.628586 -41.53574 99.725731 -7.62532 91.29174
2050000000 -0.40465876 170.73708 -41.434959 100.86346 -41.450672 100.92682 -7.6881447 93.987869
