!Keysight Technologies,N5222B,MY61257109,A.17.25.03
!Date: Tuesday, July 21, 2026 19:44:35
!Correction: S11(C  2-Port  ) 
!S21(C  2-Port  ) 
!S12(C  2-Port  ) 
!S22(C  2-Port  ) 
!S2P File: Measurements: S11, S21, S12, S22:
# Hz S  dB   R 50
10000000 -0.38511938 -179.6785 -54.899944 15.371781 -55.766869 35.249931 -2.428288 -54.581184
20000000 -0.32772911 -179.86478 -38.012703 27.521578 -38.04488 27.340244 -3.336529 -115.36906
30000000 -0.33348146 -179.98175 -38.474667 25.311504 -38.484234 25.198215 -3.324367 -129.00632
40000000 -0.33455718 179.92912 -35.351688 16.272285 -35.304859 16.397419 -3.0938175 -148.38522
50000000 -0.32694477 179.83662 -30.274864 -24.479101 -30.278608 -24.588297 -4.5129676 173.68144
60000000 -0.33490947 179.73802 -37.245296 -62.998859 -37.238583 -62.836315 -8.4004507 -155.72873
70000000 -0.33659196 179.71234 -41.151421 -53.881187 -41.176121 -53.717819 -6.6701317 -154.55722
80000000 -0.33150515 179.63768 -42.934566 -46.158154 -42.895611 -46.56139 -6.080368 -156.81654
90000000 -0.33885884 179.63103 -44.136307 -37.182873 -44.195313 -37.678543 -5.6917405 -158.88914
100000000 -0.33824682 179.60936 -44.512306 -29.543896 -44.48737 -30.00012 -5.4135871 -161.21696
110000000 -0.34054732 179.53622 -44.764851 -24.041992 -44.782166 -24.164309 -5.2476792 -162.96193
120000000 -0.33899736 179.50946 -43.80687 -19.669691 -43.796944 -19.493196 -5.052845 -165.59048
130000000 -0.33767265 179.44806 -41.267166 -25.327089 -41.264549 -24.97793 -5.06809 -170.24731
140000000 -0.33633238 179.37631 -44.1506 -33.304737 -44.110867 -33.351315 -5.2842426 -168.43733
150000000 -0.33443165 179.34663 -44.731186 -29.785933 -44.74926 -29.590767 -5.1542554 -169.11719
160000000 -0.33094892 179.30914 -45.168781 -28.268143 -45.08382 -27.93432 -5.0659246 -170.20602
170000000 -0.33147106 179.25217 -45.452896 -25.991045 -45.481239 -25.852865 -5.0571947 -171.02655
180000000 -0.33446157 179.21915 -45.624226 -25.394896 -45.617405 -25.895248 -5.0211587 -171.67958
190000000 -0.33490306 179.18758 -45.913635 -24.183826 -45.916107 -24.696291 -4.9828296 -172.11595
200000000 -0.32394439 179.15056 -46.235149 -23.001919 -46.27747 -22.589235 -4.9033198 -172.65196
210000000 -0.32920578 179.09129 -46.629124 -21.011732 -46.680393 -20.914131 -4.8489833 -173.05737
220000000 -0.3245078 179.04979 -46.960621 -19.194429 -46.904713 -18.337948 -4.7795858 -173.65199
230000000 -0.32414743 178.99614 -45.888157 -16.398647 -45.916527 -16.342474 -4.6681118 -174.55942
240000000 -0.32400882 178.94336 -46.516254 -26.224779 -46.448658 -26.44968 -4.7240343 -175.36136
250000000 -0.32602888 178.89636 -48.064266 -22.400949 -48.105453 -22.399269 -4.6812882 -175.38377
260000000 -0.33610696 178.86154 -49.016346 -13.34543 -49.11808 -12.601257 -4.6180573 -175.44495
270000000 -0.33547461 178.81029 -46.923565 1.3806225 -46.892208 1.3774832 -4.3929415 -175.83699
280000000 -0.33365253 178.76689 -46.243443 -13.62607 -46.234173 -13.772826 -4.3666573 -177.30675
290000000 -0.33295515 178.71217 -47.208694 -22.655298 -47.142513 -23.009884 -4.3893943 -177.92134
300000000 -0.33426476 178.68373 -49.243923 -23.223036 -49.221523 -24.087816 -4.3685498 -178.31433
310000000 -0.33331653 178.63435 -51.149704 -7.0330276 -51.142368 -6.7677946 -4.2828217 -178.29118
320000000 -0.33429495 178.61815 -49.717049 5.3727088 -49.587765 5.7937074 -4.1564927 -178.99884
330000000 -0.33558339 178.5666 -48.833012 11.130274 -48.698997 10.298758 -4.1173778 -179.76129
340000000 -0.33836043 178.53918 -45.234348 7.3783135 -45.385357 6.5409427 -3.9577937 179.16615
350000000 -0.33839905 178.45612 -46.621555 -7.5860443 -46.626236 -7.5555382 -4.0426302 178.35916
360000000 -0.33666664 178.40405 -47.803024 -11.488866 -47.798882 -11.828132 -4.0584097 177.88538
370000000 -0.33666998 178.33731 -49.960339 -12.672035 -49.954342 -12.903189 -4.0650864 177.55989
380000000 -0.3382026 178.28648 -51.608166 -2.8212318 -51.623806 -3.4661584 -4.0356431 177.55002
390000000 -0.34028527 178.24397 -52.939362 22.001381 -52.910065 21.403315 -3.987175 177.6638
400000000 -0.34125766 178.22041 -49.010895 39.897045 -49.192944 39.904457 -3.8197093 177.56129
410000000 -0.341636 178.16888 -46.653156 31.531158 -46.513439 32.9263 -3.6453791 176.83931
420000000 -0.33973575 178.13005 -45.367569 22.573065 -45.175823 21.95834 -3.5191841 175.69148
430000000 -0.33869317 178.07732 -45.090385 12.1473 -45.05603 11.20461 -3.4673262 174.30026
440000000 -0.33862627 178.02115 -46.340664 4.616653 -46.407158 4.1336565 -3.5048835 173.31146
450000000 -0.33771715 177.94913 -47.481174 7.8299017 -47.530991 7.0426493 -3.519177 172.92905
460000000 -0.33621743 177.91898 -46.908291 13.632467 -47.031887 13.226156 -3.4519913 172.50192
470000000 -0.33316812 177.87579 -46.890724 7.8651013 -46.952599 8.1490002 -3.4073043 171.52882
480000000 -0.33296216 177.82132 -47.754566 9.6799564 -47.733242 10.005298 -3.3979819 171.061
490000000 -0.33040196 177.77112 -48.036106 10.764244 -48.057945 11.461029 -3.3714471 170.40076
500000000 -0.32599175 177.72987 -47.926361 13.598639 -47.762012 12.895099 -3.3257086 169.66197
510000000 -0.32668298 177.6768 -48.373173 12.543211 -48.327198 12.772429 -3.3105426 169.09427
520000000 -0.32482469 177.63707 -49.255436 16.252413 -49.120975 16.019699 -3.3061392 168.47266
530000000 -0.32366687 177.59016 -49.100189 27.92321 -49.202614 27.135536 -3.2893012 168.13698
540000000 -0.3276208 177.52687 -47.697868 30.612137 -47.804417 30.434849 -3.2227094 167.64505
550000000 -0.32598451 177.50768 -47.125 29.380762 -47.272446 29.376036 -3.1761518 166.9612
560000000 -0.323861 177.46788 -46.769753 27.700783 -46.800629 28.851088 -3.1320775 166.27715
570000000 -0.33279893 177.41286 -46.793285 25.956099 -46.674984 26.062639 -3.0941606 165.40506
580000000 -0.32977605 177.3562 -46.895664 24.736332 -46.898941 24.89316 -3.0753067 164.63737
590000000 -0.33181417 177.30191 -47.472664 27.131115 -47.385597 26.430796 -3.0706944 164.01389
600000000 -0.33908638 177.27744 -47.139347 34.426155 -47.120598 34.667339 -3.0523694 163.64545
610000000 -0.33456278 177.21922 -45.847786 32.427441 -45.836082 32.335571 -2.9704511 163.09909
620000000 -0.33938867 177.2001 -45.880318 28.14035 -45.900398 28.271955 -2.9380059 162.15662
630000000 -0.34355444 177.16254 -45.892941 26.313524 -45.913651 26.872017 -2.9272616 161.37428
640000000 -0.34216222 177.07591 -46.272247 23.949982 -46.248966 24.010347 -2.9195409 160.56781
650000000 -0.34316111 177.04512 -46.875088 25.868372 -46.888187 25.457113 -2.9288373 159.847
660000000 -0.34602737 176.98814 -47.172424 30.755373 -47.169907 30.300529 -2.9435749 159.22969
670000000 -0.34897575 176.9458 -46.693497 34.845001 -46.710724 34.384953 -2.9323318 158.71817
680000000 -0.34712416 176.90488 -46.296078 35.052181 -46.320454 35.063358 -2.9071515 158.03922
690000000 -0.34796375 176.85579 -46.215267 36.794792 -46.220917 36.686546 -2.9001827 157.34334
700000000 -0.34709582 176.84506 -46.011932 38.90218 -45.912579 39.230152 -2.9049206 156.75771
710000000 -0.34580114 176.80675 -45.499329 40.854534 -45.46542 40.522644 -2.9042485 156.23883
720000000 -0.34550712 176.76324 -44.898396 41.554081 -44.838902 41.597336 -2.906363 155.75601
730000000 -0.34312075 176.72273 -44.395691 41.490604 -44.389721 41.459896 -2.9034412 155.2173
740000000 -0.34320256 176.67128 -43.595669 40.903992 -43.611736 40.965504 -2.9005368 154.87721
750000000 -0.33950034 176.61328 -43.003384 36.870823 -42.964931 36.853756 -2.8602583 154.43367
760000000 -0.33691475 176.58437 -42.672825 32.694542 -42.686371 32.41893 -2.8235428 153.89671
770000000 -0.33488739 176.51413 -42.615322 28.352499 -42.608227 28.026354 -2.7840128 153.26526
780000000 -0.33532137 176.48076 -42.692535 24.551632 -42.71072 24.049736 -2.7422955 152.52901
790000000 -0.33437014 176.46088 -42.957008 20.336632 -43.005032 20.267189 -2.7144191 151.70847
800000000 -0.33355916 176.42287 -43.497192 17.820068 -43.546722 18.056623 -2.7040491 150.90793
810000000 -0.33150625 176.37755 -44.075649 17.031286 -44.073483 17.376173 -2.7082005 150.15668
820000000 -0.33235794 176.33029 -44.476398 18.234858 -44.445 18.338642 -2.7229276 149.45351
830000000 -0.33223665 176.28464 -44.691563 19.558949 -44.657993 19.79586 -2.7491043 148.81233
840000000 -0.33295992 176.23862 -44.627594 20.814905 -44.608013 20.69536 -2.7645099 148.35202
850000000 -0.33526573 176.17522 -44.641495 20.645079 -44.586586 20.161171 -2.7651005 147.83047
860000000 -0.33454853 176.12741 -44.746998 19.944778 -44.772537 19.823898 -2.7650898 147.27968
870000000 -0.33334506 176.09839 -44.834415 20.364859 -44.827274 20.141422 -2.7702665 146.71042
880000000 -0.33494136 176.04573 -44.772217 19.845064 -44.788097 19.897753 -2.7821026 146.17006
890000000 -0.33454937 176.019 -44.920612 18.56139 -44.877007 18.463964 -2.7838054 145.77544
900000000 -0.33673602 175.96564 -45.239143 18.134836 -45.224598 17.861216 -2.7606876 145.38104
910000000 -0.33829466 175.92448 -45.551495 17.830896 -45.556839 17.388966 -2.727839 144.90877
920000000 -0.33942503 175.87032 -45.931892 18.29641 -46.001251 18.127607 -2.6968465 144.30444
930000000 -0.33943513 175.82152 -46.451523 20.037683 -46.51022 20.137661 -2.6788909 143.58061
940000000 -0.34164888 175.765 -46.790466 24.093721 -46.816601 24.394068 -2.6816096 142.85138
950000000 -0.34337878 175.69466 -46.709515 28.721756 -46.673809 28.766941 -2.6925261 142.17805
960000000 -0.34246752 175.66225 -46.312969 31.796104 -46.296257 32.246296 -2.7150929 141.57867
970000000 -0.34318352 175.62387 -45.901882 33.050236 -45.826786 33.178307 -2.7267628 141.05191
980000000 -0.34531033 175.57419 -45.540501 32.970169 -45.445072 33.121487 -2.7372549 140.52173
990000000 -0.34632397 175.5269 -45.209366 32.894711 -45.157406 32.551281 -2.7433717 140.03406
1000000000 -0.34538516 175.48015 -44.963051 31.171953 -44.932178 30.755669 -2.7462764 139.58821
1010000000 -0.34919456 175.44225 -44.918633 29.469404 -44.894573 29.331728 -2.7417142 139.20384
1020000000 -0.34739697 175.38841 -45.033295 28.508377 -45.098797 27.832153 -2.7260129 138.78665
1030000000 -0.34747437 175.35336 -45.069691 27.818638 -45.150398 27.868477 -2.7088745 138.2691
1040000000 -0.34729603 175.29849 -45.203209 27.543642 -45.196335 27.746197 -2.689831 137.71019
1050000000 -0.34617817 175.25052 -45.284473 27.036795 -45.325729 26.934141 -2.6795483 137.12477
1060000000 -0.34458476 175.21068 -45.502689 27.424391 -45.51936 27.617058 -2.6688106 136.47002
1070000000 -0.34473693 175.17776 -45.607742 28.255188 -45.575089 28.362627 -2.6629746 135.82893
1080000000 -0.34159511 175.13933 -45.61911 29.001883 -45.539513 29.135971 -2.6662261 135.16257
1090000000 -0.34046978 175.10265 -45.569069 29.50412 -45.505726 29.527933 -2.6828606 134.58865
1100000000 -0.33834419 175.064 -45.504467 29.801331 -45.436302 29.627882 -2.6996951 134.14304
1110000000 -0.33788446 175.01001 -45.515205 29.748339 -45.435856 29.180801 -2.7007213 133.71236
1120000000 -0.33825913 174.97968 -45.418388 28.784399 -45.394337 28.353996 -2.6947167 133.32144
1130000000 -0.34126356 174.92863 -45.534035 27.586409 -45.567722 27.438459 -2.672344 132.82495
1140000000 -0.34291038 174.87762 -45.823433 27.327427 -45.827934 27.258078 -2.6534693 132.25937
1150000000 -0.34597075 174.81897 -46.040718 28.247461 -46.05809 28.210047 -2.6403332 131.61108
1160000000 -0.34696573 174.77911 -46.104496 28.574673 -46.089897 28.86581 -2.6366804 130.94092
1170000000 -0.34714854 174.73431 -46.297665 29.069651 -46.264179 29.161299 -2.6423185 130.27838
1180000000 -0.35042122 174.68399 -46.447128 30.818121 -46.434158 30.557495 -2.6474867 129.7037
1190000000 -0.35130101 174.64655 -46.419521 31.989325 -46.43679 31.545639 -2.6473029 129.10159
1200000000 -0.35408419 174.60243 -46.527603 32.28096 -46.507004 32.278107 -2.6591911 128.47997
1210000000 -0.35362586 174.54855 -46.647717 33.611244 -46.605423 33.572929 -2.6763322 127.97252
1220000000 -0.35388872 174.50763 -46.577797 34.942543 -46.596134 34.717628 -2.6786616 127.45814
1230000000 -0.35413754 174.46622 -46.565765 35.679527 -46.593876 35.68177 -2.678287 126.88829
1240000000 -0.35578814 174.40808 -46.56636 36.395794 -46.508541 36.380562 -2.6831484 126.30102
1250000000 -0.35429454 174.37094 -46.562935 36.94804 -46.524086 36.969456 -2.6954739 125.6442
1260000000 -0.35358262 174.31461 -46.500694 37.178703 -46.511528 36.847099 -2.7200062 125.07915
1270000000 -0.35328749 174.27759 -46.594563 37.802917 -46.586224 37.543335 -2.7309105 124.51373
1280000000 -0.35040635 174.21405 -46.647167 38.86499 -46.622356 38.744644 -2.7511318 123.89008
1290000000 -0.35166255 174.17346 -46.61599 39.612755 -46.600628 39.544426 -2.7844236 123.36976
1300000000 -0.34948379 174.13377 -46.613827 40.330231 -46.627182 40.271614 -2.8191397 122.96711
1310000000 -0.35007381 174.08589 -46.6036 40.897255 -46.626156 40.868813 -2.8365119 122.58002
1320000000 -0.34910393 174.04819 -46.692619 41.699986 -46.696476 41.850536 -2.8577473 122.14524
1330000000 -0.34983337 174.00127 -46.651535 43.249096 -46.626984 43.156799 -2.8904619 121.76994
1340000000 -0.34848961 173.94563 -46.498211 44.165939 -46.486275 44.028481 -2.915894 121.55777
1350000000 -0.34972703 173.90277 -46.409431 44.63842 -46.365501 44.478115 -2.9094465 121.3816
1360000000 -0.34992567 173.85753 -46.32856 44.97126 -46.280987 44.654037 -2.8858664 121.06953
1370000000 -0.35154352 173.81256 -46.222546 44.790165 -46.22543 44.581238 -2.8639495 120.70668
1380000000 -0.35283345 173.75526 -46.241528 44.506077 -46.229767 44.516338 -2.8284855 120.23196
1390000000 -0.35155925 173.71985 -46.234299 44.713398 -46.21563 44.46777 -2.8057852 119.7346
1400000000 -0.35065496 173.66866 -46.284477 44.668484 -46.27866 44.677979 -2.7849834 119.20053
1410000000 -0.35093167 173.62358 -46.355766 44.782318 -46.340919 44.522652 -2.7688854 118.636
1420000000 -0.35125247 173.59431 -46.467159 45.326637 -46.501057 45.220123 -2.7630658 118.04713
1430000000 -0.35188177 173.54727 -46.499817 46.491589 -46.52779 46.438305 -2.7588482 117.47725
1440000000 -0.35286546 173.50371 -46.478172 47.46846 -46.482872 47.561874 -2.7576373 116.913
1450000000 -0.35617757 173.46263 -46.386166 47.754742 -46.374477 47.922543 -2.7545767 116.33498
1460000000 -0.35823485 173.41949 -46.383053 48.114735 -46.361423 47.971588 -2.7542119 115.75062
1470000000 -0.36005351 173.36354 -46.321308 48.295551 -46.328281 48.126682 -2.7595 115.18068
1480000000 -0.35987633 173.31874 -46.396008 48.332695 -46.367287 48.339333 -2.7587135 114.63093
1490000000 -0.362405 173.26418 -46.406349 48.440868 -46.394665 48.482437 -2.7598147 114.09562
1500000000 -0.36333397 173.21385 -46.477558 48.551056 -46.445377 48.446381 -2.7584052 113.57323
1510000000 -0.36283779 173.17969 -46.583408 48.966663 -46.570812 48.856598 -2.7556565 113.00822
1520000000 -0.36285046 173.13316 -46.681946 49.62022 -46.667645 49.444492 -2.7606647 112.42353
1530000000 -0.36415106 173.08951 -46.750389 50.362206 -46.800892 50.307583 -2.7695582 111.84817
1540000000 -0.36558923 173.04489 -46.863125 51.147663 -46.869717 50.892368 -2.7830241 111.29948
1550000000 -0.36580238 172.99802 -46.994488 52.367527 -46.988617 52.515804 -2.7867062 110.81897
1560000000 -0.36769578 172.9451 -46.966434 53.98526 -46.975132 53.8993 -2.7818835 110.29317
1570000000 -0.36845171 172.89876 -46.961498 55.094082 -46.953476 55.352432 -2.7759123 109.72013
1580000000 -0.36775944 172.83925 -46.935486 56.072792 -46.93364 56.086231 -2.7701514 109.11242
1590000000 -0.36494753 172.7886 -46.958916 57.548874 -46.896877 57.457191 -2.7709579 108.4946
1600000000 -0.3635487 172.74696 -46.839722 58.97242 -46.815659 58.778805 -2.7736084 107.89614
1610000000 -0.36236587 172.70175 -46.708492 59.60976 -46.711014 59.67757 -2.7779813 107.28619
1620000000 -0.3610357 172.65785 -46.5998 60.265511 -46.601051 60.170013 -2.7837205 106.68729
1630000000 -0.36136878 172.62886 -46.493935 60.425365 -46.494606 60.378544 -2.7875364 106.05268
1640000000 -0.36028412 172.5851 -46.451954 60.895004 -46.475895 60.835423 -2.7954991 105.40852
1650000000 -0.36176488 172.54242 -46.437046 61.147125 -46.439835 61.055996 -2.803196 104.76955
1660000000 -0.36386254 172.48578 -46.384808 61.512295 -46.379532 61.422237 -2.8107879 104.11465
1670000000 -0.36483094 172.44263 -46.389999 61.422047 -46.374619 61.405872 -2.8181465 103.44265
1680000000 -0.3666611 172.38664 -46.444012 61.802025 -46.442127 62.010551 -2.8285158 102.75158
1690000000 -0.36681405 172.34435 -46.466171 62.545807 -46.442493 62.575352 -2.8428743 102.04073
1700000000 -0.3661316 172.29219 -46.53368 63.329865 -46.496033 63.298573 -2.860908 101.32706
1710000000 -0.36802429 172.25314 -46.479588 64.237862 -46.4561 64.163033 -2.8867674 100.62575
1720000000 -0.36848047 172.19865 -46.443535 64.709618 -46.437958 64.674232 -2.9124262 99.958061
1730000000 -0.36947921 172.16342 -46.449284 64.841393 -46.441753 64.805603 -2.9343755 99.274155
1740000000 -0.37161472 172.12643 -46.537586 65.039948 -46.534084 65.000175 -2.9563458 98.544174
1750000000 -0.37413612 172.07664 -46.637695 65.973824 -46.623135 66.066261 -2.9843137 97.802132
1760000000 -0.37540737 172.03484 -46.692081 67.086372 -46.687229 67.054649 -3.0145304 97.059044
1770000000 -0.37718692 171.97971 -46.728359 68.006126 -46.714527 68.326614 -3.0497086 96.313812
1780000000 -0.37929177 171.93178 -46.805882 69.32901 -46.794018 69.511627 -3.0835705 95.535698
1790000000 -0.38026929 171.88437 -46.918465 71.537727 -46.848892 71.337189 -3.1248591 94.722198
1800000000 -0.37979209 171.84094 -46.839138 73.927055 -46.82024 73.60836 -3.1734426 93.890167
1810000000 -0.37856048 171.78102 -46.675556 75.803688 -46.682899 75.628143 -3.2301307 93.111038
1820000000 -0.37897003 171.74731 -46.436966 77.140533 -46.426628 77.09211 -3.2852466 92.338455
1830000000 -0.37790245 171.70126 -46.211094 77.801575 -46.189701 77.851692 -3.3444834 91.56076
1840000000 -0.37740406 171.65625 -45.997288 78.294594 -46.004223 78.131287 -3.4044809 90.759499
1850000000 -0.37747833 171.61627 -45.850243 78.11554 -45.884003 78.135124 -3.4645047 89.915955
1860000000 -0.37759551 171.57175 -45.776325 78.744072 -45.807045 78.98156 -3.5342453 88.986633
1870000000 -0.37982824 171.52419 -45.642509 79.17321 -45.659256 79.256187 -3.6218746 88.058441
1880000000 -0.3815237 171.47685 -45.543911 79.503777 -45.523197 79.528328 -3.7276247 87.125793
1890000000 -0.38049081 171.43532 -45.460659 79.756081 -45.421585 79.704247 -3.8456151 86.160103
1900000000 -0.38219753 171.38037 -45.389347 79.955482 -45.348888 79.933784 -3.9717126 85.094398
1910000000 -0.38056174 171.3317 -45.331837 80.46785 -45.291157 80.28138 -4.1204882 83.993187
1920000000 -0.38123655 171.28105 -45.161755 80.7136 -45.178753 80.540932 -4.2983923 82.878304
1930000000 -0.3801899 171.24423 -45.036335 80.419754 -45.044289 80.250381 -4.519279 81.926445
1940000000 -0.38099888 171.20042 -44.928543 79.799477 -44.936382 79.732468 -4.7776961 81.094841
1950000000 -0.38227046 171.16246 -44.923023 78.673759 -44.916981 78.52861 -5.0688548 80.4804
1960000000 -0.38328227 171.12581 -45.039959 77.589417 -45.013268 77.476616 -5.3924799 80.117477
1970000000 -0.38606113 171.08112 -45.286709 76.825172 -45.262085 76.477104 -5.7424994 80.199814
1980000000 -0.38699374 171.03542 -45.649696 76.512253 -45.64653 76.200661 -6.0929928 80.97982
1990000000 -0.38961837 170.9859 -46.16325 77.221649 -46.133587 77.464928 -6.4140167 82.079468
2000000000 -0.3896971 170.9334 -46.689976 79.721298 -46.618881 79.961876 -6.7227044 83.246071
2010000000 -0.39059678 170.8912 -47.12989 84.035683 -47.165459 83.864532 -7.060792 84.261955
2020000000 -0.39101145 170.84857 -47.236446 90.061584 -47.241486 89.818657 -7.3122954 86.242249
2030000000 -0.39084774 170.79968 -46.99588 96.38839 -47.01918 96.283928 -7.5114908 88.499535
2040000000 -0.39339167 170.75336 -46.320213 101.69154 -46.363491 101.81818 -7.6511559 91.010551
2050000000 -0.39348632 170.71519 -45.446671 104.28404 -45.493774 104.49036 -7.7158356 93.737946
