!Keysight Technologies,N5222B,MY61257109,A.17.25.03
!Date: Tuesday, July 21, 2026 19:40:52
!Correction: S11(C  2-Port  ) 
!S21(C  2-Port  ) 
!S12(C  2-Port  ) 
!S22(C  2-Port  ) 
!S2P File: Measurements: S11, S21, S12, S22:
# Hz S  dB   R 50
10000000 -0.38651806 -179.67993 -55.360847 23.50498 -56.067116 30.894278 -2.4570296 -54.541828
20000000 -0.33171806 -179.86464 -38.207085 29.820484 -38.211613 29.818222 -3.3429427 -115.26555
30000000 -0.33797538 -179.99089 -38.518726 29.123714 -38.483212 29.335209 -3.3010879 -128.93932
40000000 -0.33817908 179.91995 -35.423195 19.571257 -35.389446 19.71203 -3.0545149 -148.3735
50000000 -0.33204579 179.82291 -30.957577 -22.546307 -30.965134 -22.707151 -4.3264351 174.46188
60000000 -0.33860362 179.6908 -38.949726 -60.267738 -38.952148 -60.348568 -8.4902287 -157.26118
70000000 -0.34040928 179.70792 -43.9384 -41.975216 -43.949715 -41.810368 -6.7552929 -154.98035
80000000 -0.33696932 179.63959 -45.806026 -21.991199 -45.792435 -22.030531 -6.1484427 -157.01366
90000000 -0.34331378 179.6346 -46.064281 -1.2398612 -46.024693 -1.3900278 -5.7400703 -158.94859
100000000 -0.34285745 179.60957 -45.022816 10.460023 -45.075718 10.990736 -5.4479656 -161.16174
110000000 -0.34387356 179.53336 -44.033638 18.449877 -44.071842 18.487843 -5.272212 -162.93719
120000000 -0.34286752 179.50504 -42.600582 18.892689 -42.612709 19.104799 -5.067678 -165.62166
130000000 -0.34125516 179.44275 -41.11898 8.3179073 -41.076775 8.335145 -5.0879707 -170.51903
140000000 -0.34069821 179.3707 -42.97892 17.414137 -42.993565 17.158394 -5.318574 -168.43111
150000000 -0.338523 179.34 -42.297146 22.142673 -42.328503 22.079414 -5.1827722 -169.06854
160000000 -0.33475292 179.30171 -41.717594 24.364447 -41.729458 24.536341 -5.0862851 -170.11424
170000000 -0.33648145 179.23778 -41.107349 26.824293 -41.14864 26.760853 -5.0653868 -170.94115
180000000 -0.33903012 179.21939 -40.561485 26.45697 -40.540928 26.362211 -5.0295272 -171.63918
190000000 -0.33995801 179.18927 -40.096695 26.751888 -40.118038 26.758757 -4.9822149 -172.06598
200000000 -0.32907873 179.14977 -39.628315 26.309246 -39.626202 26.144888 -4.90453 -172.65422
210000000 -0.33437547 179.08556 -39.291847 26.315603 -39.270657 26.131748 -4.8476677 -173.06557
220000000 -0.32952777 179.04185 -38.903114 25.193333 -38.887981 25.23657 -4.7786217 -173.67958
230000000 -0.33011538 178.99651 -38.32349 22.886377 -38.310539 22.764162 -4.671721 -174.60437
240000000 -0.32976207 178.9362 -38.516281 19.830379 -38.51128 20.093605 -4.7269478 -175.39499
250000000 -0.3311967 178.89969 -38.402279 21.391573 -38.389725 21.168388 -4.6798549 -175.39961
260000000 -0.34096813 178.85912 -38.121311 21.601923 -38.108688 21.780878 -4.6058459 -175.54195
270000000 -0.34075087 178.80405 -37.331959 20.4519 -37.316254 20.423723 -4.3964 -176.05196
280000000 -0.33947459 178.76259 -37.32848 15.355676 -37.3382 15.246 -4.3808579 -177.40157
290000000 -0.33876619 178.71104 -37.642185 12.386211 -37.618214 12.403595 -4.4034495 -177.98325
300000000 -0.3394368 178.68562 -37.98328 12.393424 -37.953892 12.515617 -4.3706431 -178.36659
310000000 -0.33874157 178.62869 -37.912445 14.677552 -37.928165 14.730811 -4.2831178 -178.40279
320000000 -0.33925989 178.61298 -37.552025 15.163169 -37.5187 15.106133 -4.1718497 -179.15436
330000000 -0.34019205 178.56323 -37.297276 14.19905 -37.235809 14.300516 -4.1235886 -179.91876
340000000 -0.34370211 178.53737 -36.356243 11.215089 -36.407803 11.179929 -3.9796503 178.96571
350000000 -0.34411734 178.45775 -36.784092 6.029706 -36.762939 6.0503531 -4.0698061 178.22035
360000000 -0.34212273 178.40665 -37.124104 3.7995915 -37.087685 3.6435666 -4.0856848 177.79008
370000000 -0.3414551 178.34508 -37.582897 2.4140365 -37.61026 2.4955342 -4.0864272 177.52524
380000000 -0.34270087 178.29411 -37.838272 2.6667576 -37.825905 2.6435521 -4.0483851 177.48079
390000000 -0.34387553 178.24663 -38.264301 4.3162575 -38.222198 4.2165174 -3.9977174 177.53235
400000000 -0.34483641 178.2207 -38.081001 7.7864046 -38.085968 7.8883343 -3.838299 177.37038
410000000 -0.345691 178.16808 -37.544525 7.4812469 -37.532433 7.4457951 -3.6813107 176.62347
420000000 -0.34401786 178.12851 -37.160091 5.2955995 -37.135731 5.209918 -3.5674746 175.60022
430000000 -0.34317958 178.08447 -37.045116 1.8874334 -37.041332 1.8160082 -3.5090206 174.30066
440000000 -0.34275603 178.03392 -37.388664 -1.9274516 -37.370441 -1.8155106 -3.5353596 173.35744
450000000 -0.34080631 177.96088 -37.791321 -2.6320245 -37.778648 -2.6948736 -3.5437813 172.93163
460000000 -0.33926719 177.93016 -37.902603 -1.4915723 -37.872417 -1.5905876 -3.478977 172.466
470000000 -0.3362619 177.88748 -37.920959 -3.7185779 -37.923782 -3.6440289 -3.4387145 171.55844
480000000 -0.33593521 177.83246 -38.293232 -4.4577875 -38.253162 -4.5208287 -3.4232771 171.07149
490000000 -0.33262762 177.78154 -38.512859 -4.956079 -38.487232 -5.1100316 -3.3936117 170.37958
500000000 -0.32803118 177.73956 -38.685448 -4.7462616 -38.688736 -4.6810875 -3.3557997 169.69081
510000000 -0.32949007 177.68965 -38.886559 -5.9395189 -38.878826 -5.7968612 -3.33143 169.12489
520000000 -0.32699445 177.64439 -39.322868 -6.0728683 -39.318684 -6.0541844 -3.3268561 168.50716
530000000 -0.32576519 177.59454 -39.725578 -3.5924149 -39.749706 -3.8364856 -3.3100467 168.1539
540000000 -0.3301774 177.52606 -39.637493 -1.2244076 -39.624065 -1.4116212 -3.2405841 167.65872
550000000 -0.3274762 177.51004 -39.5989 -0.73175502 -39.592747 -1.0459799 -3.1929524 166.97182
560000000 -0.32527664 177.46858 -39.591969 -0.51209629 -39.607101 -0.73186499 -3.149235 166.21956
570000000 -0.33501631 177.40833 -39.655186 -1.1032901 -39.636429 -0.98617035 -3.1209226 165.37653
580000000 -0.33204719 177.35533 -39.783569 -1.4580178 -39.793262 -1.5024636 -3.0977759 164.66481
590000000 -0.33335763 177.30336 -40.149792 -1.6716015 -40.16391 -1.2915498 -3.0886154 164.05945
600000000 -0.34065986 177.27888 -40.473167 1.5642056 -40.420738 1.4815327 -3.0665777 163.67157
610000000 -0.33579707 177.2135 -40.046688 3.5499279 -40.031075 3.4367211 -2.9909303 163.10567
620000000 -0.33900717 177.19412 -39.981148 2.21785 -39.962898 2.237716 -2.9574561 162.17223
630000000 -0.34346116 177.1554 -40.015755 1.8687429 -39.978321 1.8228687 -2.9447577 161.39969
640000000 -0.34219751 177.07243 -40.149784 0.6245504 -40.161942 0.55247045 -2.9367194 160.5827
650000000 -0.34245801 177.0352 -40.48254 1.0709312 -40.487625 0.78456569 -2.945349 159.86562
660000000 -0.34483558 176.9743 -40.861694 2.6084621 -40.84277 2.4063051 -2.9569175 159.2253
670000000 -0.34793484 176.93256 -40.878941 5.4059677 -40.863548 5.1216311 -2.9449873 158.69171
680000000 -0.34540761 176.89307 -40.862389 6.4052272 -40.83651 6.3687901 -2.9212642 158.00836
690000000 -0.34650227 176.84459 -40.891205 7.4921899 -40.917866 7.5845246 -2.9138899 157.32486
700000000 -0.34528539 176.82935 -40.971031 9.3475065 -40.964668 9.2535725 -2.9191363 156.72079
710000000 -0.3447358 176.7923 -40.873768 11.592449 -40.855743 11.525995 -2.9214194 156.19511
720000000 -0.34437823 176.74428 -40.685471 13.328617 -40.700111 13.434895 -2.9255219 155.69968
730000000 -0.34152481 176.70375 -40.516434 14.63305 -40.481712 14.819179 -2.9262702 155.17592
740000000 -0.34210032 176.65398 -40.086552 16.452393 -40.074482 16.446371 -2.9239328 154.84512
750000000 -0.33823031 176.59166 -39.580547 15.710987 -39.604061 15.589798 -2.8843381 154.40764
760000000 -0.33591202 176.56248 -39.264935 14.317153 -39.284126 14.159986 -2.851052 153.87744
770000000 -0.33447638 176.49031 -39.113899 12.107872 -39.122894 12.051674 -2.8112538 153.25539
780000000 -0.33364108 176.45676 -39.098541 10.032396 -39.092636 10.129559 -2.7714086 152.55954
790000000 -0.33308876 176.43741 -39.216515 7.8457932 -39.181034 7.915247 -2.739054 151.78246
800000000 -0.33232665 176.3954 -39.464836 6.3287516 -39.414772 6.3871274 -2.7209477 150.99062
810000000 -0.33051956 176.35022 -39.778698 5.856101 -39.756428 5.7806621 -2.721698 150.20491
820000000 -0.3314096 176.30003 -40.019157 6.5463076 -40.021729 6.6656513 -2.7368376 149.48184
830000000 -0.3310492 176.25114 -40.154602 7.54283 -40.154423 7.3612185 -2.7635682 148.82603
840000000 -0.33229423 176.20915 -40.143208 8.5012779 -40.148788 8.4121847 -2.7797992 148.36046
850000000 -0.33466819 176.14185 -40.120907 8.702323 -40.135597 8.5404367 -2.7808816 147.82498
860000000 -0.33399722 176.09309 -40.185371 8.578701 -40.192448 8.4941111 -2.7838581 147.25172
870000000 -0.33225092 176.06157 -40.253979 8.9601402 -40.247421 9.0465879 -2.794631 146.6971
880000000 -0.33455634 176.01556 -40.255157 9.1179018 -40.223648 9.1255817 -2.8062294 146.22997
890000000 -0.3340109 175.98557 -40.308117 8.7596798 -40.271255 8.7355642 -2.7982016 145.85324
900000000 -0.33599815 175.9328 -40.449791 8.6758089 -40.445721 8.7913837 -2.7723627 145.42532
910000000 -0.33662161 175.89108 -40.6133 8.9567747 -40.618755 8.9241247 -2.7417912 144.9384
920000000 -0.33850005 175.83504 -40.78754 9.2906685 -40.801659 9.2790508 -2.7120945 144.32942
930000000 -0.33810663 175.78485 -41.047592 10.252853 -41.043591 10.091044 -2.6925378 143.62012
940000000 -0.34007391 175.73035 -41.239258 12.295799 -41.224052 12.291008 -2.6912999 142.8826
950000000 -0.34166035 175.65872 -41.230572 14.777848 -41.226864 14.767904 -2.7014956 142.19478
960000000 -0.34088218 175.62444 -41.06823 16.969748 -41.083389 16.826689 -2.7250428 141.57455
970000000 -0.34106475 175.58347 -40.849731 18.097216 -40.864147 18.080793 -2.7377114 141.04883
980000000 -0.34317568 175.53616 -40.626186 18.606949 -40.628452 18.583786 -2.745585 140.49525
990000000 -0.34391028 175.48903 -40.4604 19.098564 -40.44875 18.930536 -2.7558894 140.00137
1000000000 -0.34356621 175.43849 -40.28344 18.409756 -40.259201 18.373228 -2.7625911 139.56346
1010000000 -0.34749287 175.401 -40.204643 17.795784 -40.199352 17.709726 -2.7576978 139.19551
1020000000 -0.34569687 175.34546 -40.235142 17.225262 -40.234486 17.154549 -2.7413547 138.77328
1030000000 -0.34610698 175.31053 -40.211308 17.226303 -40.217461 17.180483 -2.726563 138.2594
1040000000 -0.34537649 175.25215 -40.212883 16.959724 -40.207737 16.928637 -2.7071993 137.72659
1050000000 -0.34464499 175.205 -40.279171 16.688313 -40.258923 16.717464 -2.6942954 137.15196
1060000000 -0.34270197 175.16711 -40.352062 17.12639 -40.338013 17.046535 -2.679919 136.48936
1070000000 -0.34294903 175.12968 -40.372074 17.520409 -40.350384 17.527149 -2.6720412 135.83852
1080000000 -0.33984995 175.09201 -40.381832 17.983892 -40.343464 17.92345 -2.6735401 135.16216
1090000000 -0.33901528 175.05763 -40.340378 18.317087 -40.320267 18.354235 -2.6910505 134.57509
1100000000 -0.33710808 175.01521 -40.312778 18.651665 -40.286842 18.672386 -2.7079773 134.10771
1110000000 -0.33655336 174.96324 -40.293633 18.788982 -40.271599 18.785135 -2.7132237 133.65965
1120000000 -0.33728766 174.92972 -40.225563 18.498852 -40.201843 18.436472 -2.7094851 133.289
1130000000 -0.34002995 174.87836 -40.246391 18.063234 -40.258369 18.015091 -2.6885614 132.81157
1140000000 -0.34171498 174.82765 -40.341965 18.021681 -40.352882 17.951979 -2.6689188 132.24937
1150000000 -0.34481707 174.76952 -40.417545 18.47176 -40.444916 18.432756 -2.654408 131.62604
1160000000 -0.34534651 174.72694 -40.406696 18.771742 -40.41198 18.800135 -2.6472683 130.94586
1170000000 -0.34607109 174.68523 -40.482738 19.052303 -40.479095 19.008785 -2.6517382 130.26985
1180000000 -0.34889999 174.63249 -40.559898 19.818474 -40.539104 19.756783 -2.6557872 129.69783
1190000000 -0.34964061 174.59366 -40.527454 20.387049 -40.509285 20.359407 -2.6544633 129.09016
1200000000 -0.35182786 174.55057 -40.53194 20.500185 -40.523655 20.444397 -2.6667657 128.44041
1210000000 -0.35141411 174.49496 -40.584087 20.955137 -40.579895 20.862684 -2.6868494 127.93127
1220000000 -0.3515048 174.45328 -40.576553 21.592585 -40.585205 21.548548 -2.6905754 127.42564
1230000000 -0.35166731 174.41402 -40.531944 22.166494 -40.541115 22.066738 -2.6866937 126.87216
1240000000 -0.35299239 174.35657 -40.514492 22.490002 -40.497513 22.433971 -2.6896386 126.26552
1250000000 -0.35140851 174.31619 -40.468857 22.805006 -40.471397 22.702568 -2.7036564 125.59427
1260000000 -0.35048324 174.26253 -40.436844 22.887289 -40.425728 22.818396 -2.731194 125.02502
1270000000 -0.3506617 174.22282 -40.438103 22.919643 -40.440735 22.928009 -2.7413187 124.47525
1280000000 -0.34807566 174.15877 -40.456379 23.27808 -40.436981 23.273556 -2.758517 123.86062
1290000000 -0.34861836 174.12044 -40.455791 23.492855 -40.43515 23.440613 -2.7926495 123.32221
1300000000 -0.34723127 174.07703 -40.458946 23.726301 -40.443947 23.699808 -2.828351 122.92267
1310000000 -0.34737286 174.03029 -40.451801 23.960903 -40.469002 24.005196 -2.8452048 122.53179
1320000000 -0.34609547 173.99246 -40.484859 24.250261 -40.492176 24.278275 -2.867501 122.09171
1330000000 -0.34692368 173.94287 -40.487534 24.913887 -40.491928 24.757154 -2.9003417 121.7123
1340000000 -0.34565511 173.89 -40.465508 25.450377 -40.473656 25.369528 -2.9266663 121.51411
1350000000 -0.34784874 173.84323 -40.431572 25.839567 -40.435894 25.765375 -2.9172437 121.33895
1360000000 -0.34805852 173.79872 -40.377575 26.105335 -40.381882 26.080338 -2.8929048 121.01906
1370000000 -0.34950933 173.75346 -40.322395 26.316835 -40.328236 26.336779 -2.8706522 120.63595
1380000000 -0.34998685 173.69765 -40.316574 26.400137 -40.286297 26.251499 -2.8373773 120.16748
1390000000 -0.34903941 173.66129 -40.286934 26.435936 -40.269817 26.411003 -2.8146644 119.66386
1400000000 -0.34785521 173.60927 -40.270664 26.461832 -40.275486 26.426359 -2.7964704 119.13831
1410000000 -0.34811324 173.56332 -40.265327 26.316483 -40.259991 26.352652 -2.7811728 118.58949
1420000000 -0.34835386 173.53241 -40.310368 26.639002 -40.301636 26.560799 -2.772373 118.02203
1430000000 -0.34956178 173.48613 -40.335342 26.904091 -40.319832 26.939896 -2.7643156 117.43514
1440000000 -0.35029298 173.44276 -40.304382 27.374727 -40.306637 27.290861 -2.7629602 116.85713
1450000000 -0.35261756 173.39973 -40.259312 27.539808 -40.262089 27.551798 -2.7603016 116.26952
1460000000 -0.35514143 173.35532 -40.249432 27.609499 -40.225533 27.464901 -2.7613111 115.67667
1470000000 -0.35719571 173.3002 -40.20237 27.703716 -40.207531 27.553097 -2.7647583 115.11515
1480000000 -0.35623491 173.25502 -40.220577 27.554092 -40.211086 27.483482 -2.7642868 114.55172
1490000000 -0.35871139 173.19904 -40.224865 27.499224 -40.202679 27.534643 -2.7661881 114.01658
1500000000 -0.35933501 173.14793 -40.241131 27.481716 -40.235313 27.395468 -2.7659092 113.49472
1510000000 -0.35937074 173.11475 -40.270782 27.409452 -40.253181 27.373964 -2.7637506 112.93777
1520000000 -0.35918289 173.06636 -40.31263 27.510071 -40.313774 27.511639 -2.7686286 112.35616
1530000000 -0.36043996 173.02515 -40.365585 27.639828 -40.339893 27.635828 -2.7771118 111.78184
1540000000 -0.36182284 172.97963 -40.412449 27.650085 -40.399273 27.671852 -2.7879121 111.24376
1550000000 -0.36205301 172.93253 -40.497711 28.026598 -40.496059 27.968739 -2.7907536 110.74303
1560000000 -0.36387098 172.88176 -40.526745 28.734079 -40.513638 28.593151 -2.7867382 110.21843
1570000000 -0.36444581 172.83307 -40.548779 29.091259 -40.523392 28.968458 -2.7806351 109.6442
1580000000 -0.36354253 172.77419 -40.55629 29.43981 -40.544388 29.460577 -2.773144 109.0472
1590000000 -0.36085904 172.72397 -40.604877 29.904833 -40.583511 29.881559 -2.7722285 108.42207
1600000000 -0.35953045 172.6824 -40.597279 30.643715 -40.578144 30.530209 -2.7742963 107.81151
1610000000 -0.35842124 172.63695 -40.565201 30.941153 -40.542587 30.917744 -2.7792442 107.19353
1620000000 -0.3569186 172.59096 -40.529999 31.33128 -40.519016 31.267103 -2.7860017 106.58022
1630000000 -0.35688993 172.56012 -40.49699 31.445484 -40.486237 31.36013 -2.7908132 105.9448
1640000000 -0.35567409 172.5179 -40.484806 31.568039 -40.487858 31.465265 -2.7992163 105.30441
1650000000 -0.35762319 172.47566 -40.489273 31.645971 -40.474377 31.622782 -2.8066788 104.67081
1660000000 -0.35942358 172.41946 -40.472473 31.824474 -40.462852 31.766285 -2.8135698 104.01704
1670000000 -0.3609831 172.37611 -40.462086 31.66667 -40.451866 31.600304 -2.8206549 103.34767
1680000000 -0.36241457 172.3205 -40.521008 31.587719 -40.499191 31.607315 -2.8287382 102.66158
1690000000 -0.36209267 172.27263 -40.566902 31.723959 -40.543816 31.857727 -2.8419137 101.95435
1700000000 -0.36133277 172.22108 -40.621044 31.788439 -40.600075 31.781612 -2.8589728 101.23688
1710000000 -0.36280683 172.18182 -40.671791 32.03046 -40.650398 31.9531 -2.8834105 100.53125
1720000000 -0.36327514 172.12529 -40.696724 32.161674 -40.687027 32.099003 -2.9086785 99.848862
1730000000 -0.36439317 172.0914 -40.727386 32.088989 -40.720268 32.014202 -2.9322643 99.152847
1740000000 -0.3667101 172.05397 -40.809254 31.984653 -40.805439 31.854706 -2.9544146 98.424561
1750000000 -0.36855233 172.0033 -40.92989 32.141994 -40.918587 32.007614 -2.9825525 97.684258
1760000000 -0.3699691 171.96161 -41.043396 32.386734 -41.036888 32.340061 -3.0117667 96.942764
1770000000 -0.37158144 171.9077 -41.1726 32.715309 -41.143494 32.510155 -3.0456724 96.195908
1780000000 -0.37412652 171.85841 -41.322636 32.875633 -41.300827 32.972839 -3.0783257 95.41909
1790000000 -0.37467703 171.8096 -41.529076 33.52993 -41.495083 33.597717 -3.1172917 94.60437
1800000000 -0.37434661 171.7664 -41.704433 34.572266 -41.689774 34.736847 -3.1634221 93.776268
1810000000 -0.37272051 171.70683 -41.844028 35.916649 -41.830681 35.845425 -3.2179372 92.98452
1820000000 -0.37290019 171.67197 -41.945004 37.441566 -41.912144 37.365692 -3.2740107 92.194443
1830000000 -0.37166801 171.62549 -41.995998 38.82618 -41.974487 38.633675 -3.3350084 91.409592
1840000000 -0.37176475 171.58009 -42.038967 40.048119 -42.023415 39.869537 -3.3942308 90.611534
1850000000 -0.37126875 171.53987 -42.077415 41.097321 -42.074966 40.990093 -3.4529111 89.773529
1860000000 -0.37202504 171.49739 -42.171162 42.523727 -42.176395 42.214157 -3.519347 88.844711
1870000000 -0.37435731 171.44838 -42.239204 44.154877 -42.245323 43.760231 -3.6057334 87.908371
1880000000 -0.37581128 171.40134 -42.342358 45.727989 -42.303192 45.609955 -3.7078042 86.945343
1890000000 -0.37459689 171.35776 -42.440411 47.388897 -42.384853 47.570797 -3.820379 85.946457
1900000000 -0.37628776 171.30344 -42.563473 49.360775 -42.496574 49.686245 -3.9436383 84.835754
1910000000 -0.37442872 171.25092 -42.638802 51.972164 -42.597931 52.036556 -4.092195 83.70916
1920000000 -0.37494567 171.20119 -42.617603 55.180161 -42.58992 55.099995 -4.275012 82.608864
1930000000 -0.37371573 171.16312 -42.504845 58.294456 -42.483433 58.230965 -4.4966631 81.641693
1940000000 -0.37481728 171.11916 -42.31337 61.710262 -42.318851 61.661064 -4.7550387 80.776291
1950000000 -0.37624118 171.08228 -42.01918 64.768723 -42.015232 64.700508 -5.0477147 80.145676
1960000000 -0.37739107 171.04402 -41.568176 67.7201 -41.646168 67.880905 -5.3730865 79.74881
1970000000 -0.38045886 170.99982 -41.065254 70.292557 -41.109974 70.600571 -5.7256517 79.890694
1980000000 -0.38166586 170.95393 -40.525867 72.34639 -40.475513 72.288269 -6.0785589 80.596214
1990000000 -0.38430819 170.90543 -39.97266 73.854027 -39.848633 73.349213 -6.4042678 81.602974
2000000000 -0.3845025 170.85315 -39.345478 74.932831 -39.232048 74.110138 -6.7271366 82.640442
2010000000 -0.38547382 170.81026 -38.684486 74.625633 -38.635014 74.524445 -7.0608234 83.772247
2020000000 -0.3859621 170.7697 -38.061321 73.409554 -38.012157 73.25238 -7.3156672 85.742897
2030000000 -0.38514936 170.72122 -37.523869 71.449081 -37.48085 71.276062 -7.5220013 87.976608
2040000000 -0.38730955 170.6754 -37.088173 68.991638 -37.036736 68.92981 -7.6674986 90.481293
2050000000 -0.38744599 170.64009 -36.774029 66.04245 -36.69392 66.243141 -7.7435327 93.194633
