!Keysight Technologies,N5222B,MY61257109,A.17.25.03
!Date: Tuesday, July 21, 2026 19:51:57
!Correction: S11(C  2-Port  ) 
!S21(C  2-Port  ) 
!S12(C  2-Port  ) 
!S22(C  2-Port  ) 
!S2P File: Measurements: S11, S21, S12, S22:
# Hz S  dB   R 50
10000000 -0.38753796 -179.66086 -56.002998 23.906153 -56.675243 34.513737 -2.399857 -51.159634
20000000 -0.32889473 -179.86139 -38.016212 31.095358 -38.097923 30.185076 -3.3912277 -112.59245
30000000 -0.33517149 -179.9808 -38.292698 30.240068 -38.300037 30.134081 -3.3404732 -126.45115
40000000 -0.33597773 179.9286 -35.254143 19.668314 -35.182892 19.77565 -3.1322148 -146.95709
50000000 -0.33066955 179.834 -30.742411 -21.707365 -30.746593 -21.85037 -4.3897605 173.99942
60000000 -0.33931112 179.75009 -38.32235 -61.466743 -38.313782 -61.69891 -9.2217512 -156.2782
70000000 -0.34135932 179.733 -43.542534 -46.49147 -43.596031 -46.448997 -7.2091556 -153.0526
80000000 -0.33707672 179.65388 -46.017185 -27.306984 -45.994667 -27.395807 -6.5159359 -155.12901
90000000 -0.34357995 179.6337 -46.63855 -4.2185612 -46.641815 -4.6495409 -6.0581336 -157.17542
100000000 -0.34367463 179.60709 -45.603237 9.7008533 -45.610676 10.034153 -5.7291961 -159.66594
110000000 -0.34552589 179.53209 -44.562504 19.179625 -44.582623 19.362471 -5.5352783 -161.50256
120000000 -0.34438157 179.50484 -42.952587 19.545603 -42.987759 19.65893 -5.3245697 -164.51071
130000000 -0.34292972 179.44382 -41.285595 7.1612124 -41.17244 7.5360236 -5.3213553 -170.11972
140000000 -0.34273615 179.37433 -43.54076 18.588284 -43.557087 18.300291 -5.6184144 -167.49591
150000000 -0.3402707 179.34306 -42.761116 24.470776 -42.782261 24.480602 -5.4667439 -168.13139
160000000 -0.33732125 179.30621 -42.153938 27.651058 -42.130024 27.203373 -5.3592277 -169.26512
170000000 -0.33712876 179.24263 -41.455784 29.943041 -41.470192 29.576103 -5.3365078 -170.26582
180000000 -0.33987486 179.22414 -40.849396 29.740765 -40.82822 29.622498 -5.3292308 -170.94296
190000000 -0.33994457 179.19037 -40.285839 30.293543 -40.296749 30.36904 -5.2816525 -171.37306
200000000 -0.32919797 179.15578 -39.767452 30.398088 -39.770741 30.349037 -5.2089453 -171.8613
210000000 -0.33362374 179.08951 -39.321266 30.223419 -39.346672 30.231234 -5.1422791 -172.3242
220000000 -0.32847115 179.04674 -38.910549 29.571766 -38.911266 29.466547 -5.0814424 -172.93387
230000000 -0.32878777 178.99966 -38.30772 26.872871 -38.289726 26.916378 -4.9690337 -173.85007
240000000 -0.32790777 178.94484 -38.509327 24.365711 -38.477936 24.462103 -5.0379424 -174.61929
250000000 -0.32929516 178.90228 -38.263306 26.125786 -38.263451 25.908073 -4.9858284 -174.55092
260000000 -0.33941916 178.866 -37.973866 26.293013 -37.93058 26.51174 -4.9101014 -174.69318
270000000 -0.33851433 178.80759 -37.059708 25.312643 -37.068249 25.295687 -4.6938443 -175.05206
280000000 -0.33777252 178.77425 -37.016209 19.85593 -37.019783 19.865438 -4.6560798 -176.57816
290000000 -0.33694246 178.72226 -37.333656 17.293089 -37.297409 17.174934 -4.6855807 -177.1875
300000000 -0.3380459 178.69601 -37.534386 17.822577 -37.543327 17.75906 -4.656774 -177.46321
310000000 -0.33713436 178.64522 -37.321259 19.826191 -37.31731 19.662668 -4.5399947 -177.584
320000000 -0.33815026 178.62733 -36.90889 18.791082 -36.873814 19.113516 -4.441349 -178.56082
330000000 -0.33907321 178.58009 -36.513813 17.759472 -36.501682 17.529718 -4.4017172 -179.46909
340000000 -0.34331098 178.55127 -36.051334 14.397293 -36.059166 14.113942 -4.3536744 179.68553
350000000 -0.344455 178.47409 -36.204098 10.088835 -36.181717 10.131127 -4.3915396 179.03001
360000000 -0.34257957 178.42136 -36.500805 7.7318621 -36.44717 7.6988587 -4.4146738 178.66766
370000000 -0.34231627 178.35918 -36.859039 6.6798024 -36.895542 6.5955968 -4.4229784 178.58725
380000000 -0.34391671 178.30742 -37.04356 6.8834329 -37.044724 6.9371171 -4.3658857 178.62196
390000000 -0.34569827 178.26302 -37.3083 8.4676285 -37.23951 8.3528309 -4.2924366 178.72232
400000000 -0.34731483 178.23543 -36.951935 10.571951 -36.984734 10.578111 -4.1183591 178.52589
410000000 -0.34825066 178.18329 -36.479668 9.3051434 -36.505249 9.5481615 -3.9607525 177.73503
420000000 -0.34662142 178.14479 -36.1688 6.982594 -36.112156 6.7639561 -3.8429739 176.58614
430000000 -0.3459385 178.10307 -36.013584 3.1406529 -36.01601 2.8930781 -3.7995484 175.24762
440000000 -0.34479156 178.04967 -36.326675 -0.8110199 -36.362175 -0.952106 -3.8471999 174.39664
450000000 -0.34350514 177.9763 -36.804832 -1.8495123 -36.79789 -1.9483546 -3.8614161 174.11356
460000000 -0.34097067 177.94545 -36.871269 -1.3239536 -36.877659 -1.2884899 -3.7828264 173.72774
470000000 -0.33743373 177.90501 -36.923779 -3.5078619 -36.90464 -3.4231563 -3.7376368 172.92526
480000000 -0.33618611 177.85075 -37.242546 -4.3196278 -37.241955 -4.4868641 -3.7154491 172.46669
490000000 -0.33270335 177.80141 -37.474876 -5.0718207 -37.438454 -5.3135695 -3.6793082 171.81479
500000000 -0.32780087 177.76186 -37.59481 -5.5259128 -37.608097 -5.4690037 -3.6298597 171.22566
510000000 -0.32846251 177.71074 -37.847954 -6.7537966 -37.841595 -6.7093291 -3.5998018 170.66756
520000000 -0.32529813 177.66843 -38.224094 -7.1670032 -38.235039 -7.2990084 -3.5817826 170.12085
530000000 -0.32362169 177.61697 -38.620712 -5.2259808 -38.57283 -5.4440165 -3.5433607 169.77625
540000000 -0.32769871 177.55678 -38.609158 -3.9289353 -38.536556 -3.9321334 -3.4683754 169.24763
550000000 -0.32529226 177.53835 -38.5765 -3.8062527 -38.5396 -3.9519296 -3.411751 168.54497
560000000 -0.3227815 177.498 -38.602768 -3.8325379 -38.610199 -4.046248 -3.3631742 167.82797
570000000 -0.33195665 177.43932 -38.694176 -5.0079236 -38.669037 -4.6711235 -3.3214488 167.00479
580000000 -0.32924768 177.38797 -38.868942 -5.7711616 -38.847511 -5.3561645 -3.2917254 166.32623
590000000 -0.33112267 177.33315 -39.28698 -5.8643117 -39.251461 -5.5595751 -3.2726159 165.71306
600000000 -0.33817294 177.30904 -39.603432 -2.8948734 -39.560734 -3.2608347 -3.2382843 165.28006
610000000 -0.3338879 177.25027 -39.260952 -1.2302566 -39.274792 -1.4467952 -3.158648 164.6261
620000000 -0.33846843 177.22838 -39.238419 -2.762975 -39.24258 -2.6523497 -3.1233981 163.71246
630000000 -0.34212863 177.18799 -39.351921 -3.1518118 -39.36351 -3.3124628 -3.1049247 162.92429
640000000 -0.34217316 177.09871 -39.522732 -4.4169211 -39.514397 -4.3338108 -3.0917747 162.13052
650000000 -0.34313253 177.06732 -39.946396 -4.2325716 -39.901943 -4.4386892 -3.0912778 161.40274
660000000 -0.34561753 177.0079 -40.344597 -2.6993017 -40.312088 -2.7641687 -3.092283 160.7632
670000000 -0.34914097 176.9657 -40.397514 -0.10212272 -40.368118 -0.17951827 -3.0703695 160.21083
680000000 -0.34656087 176.92383 -40.384209 0.76338476 -40.411301 1.0495759 -3.0402369 159.52849
690000000 -0.34729519 176.87666 -40.497669 2.0074673 -40.466995 2.046006 -3.0229506 158.82178
700000000 -0.34635955 176.85762 -40.626465 3.7066557 -40.617657 3.4664745 -3.0212498 158.15961
710000000 -0.3451077 176.82043 -40.582348 5.7563796 -40.556046 5.5274563 -3.0189462 157.57167
720000000 -0.34436616 176.77397 -40.480572 7.6909385 -40.475864 7.5114398 -3.014673 157.0191
730000000 -0.34150633 176.73335 -40.365936 8.8718567 -40.384094 8.8544407 -3.0120819 156.43742
740000000 -0.34182727 176.6805 -40.043873 11.205194 -40.048607 10.981115 -3.0070727 156.04288
750000000 -0.33745247 176.62186 -39.633583 10.957575 -39.612888 10.960694 -2.9704158 155.55746
760000000 -0.33489102 176.59103 -39.320053 10.055938 -39.298943 9.8782291 -2.9392016 154.98035
770000000 -0.33225623 176.52147 -39.171909 8.0047512 -39.136993 8.0730839 -2.9033458 154.36549
780000000 -0.33162361 176.48598 -39.149075 6.1216516 -39.100601 6.1565404 -2.8630326 153.69351
790000000 -0.33020505 176.46791 -39.221149 4.2711334 -39.220184 4.1302395 -2.8269646 152.93399
800000000 -0.32885173 176.43163 -39.4683 2.8403959 -39.441689 2.7442732 -2.804291 152.13968
810000000 -0.32665062 176.3829 -39.783276 2.3124034 -39.808678 2.3200438 -2.8018165 151.31273
820000000 -0.32754403 176.33495 -40.05014 3.1937683 -40.052635 3.3747394 -2.8119614 150.56247
830000000 -0.32742792 176.28751 -40.163235 4.3347015 -40.159733 4.3378992 -2.8314948 149.88817
840000000 -0.32827097 176.24101 -40.183334 5.455245 -40.193039 5.4320431 -2.8445251 149.36212
850000000 -0.33107406 176.17372 -40.163609 5.7148681 -40.160793 5.5507636 -2.8457661 148.80103
860000000 -0.32991764 176.12657 -40.284843 5.6829114 -40.228432 5.6734662 -2.8475306 148.19838
870000000 -0.32900026 176.09558 -40.334965 6.3123779 -40.323078 6.2276082 -2.8551066 147.63046
880000000 -0.33073634 176.04495 -40.322437 6.7046194 -40.30209 6.6198745 -2.8611317 147.14023
890000000 -0.33142719 176.02022 -40.385365 6.4380198 -40.343868 6.640502 -2.8507831 146.70642
900000000 -0.33337188 175.96626 -40.516682 6.5830536 -40.473293 6.4755344 -2.8281565 146.2356
910000000 -0.33506104 175.92642 -40.63628 6.7083063 -40.621315 6.5915399 -2.8005569 145.69753
920000000 -0.3364107 175.86723 -40.807728 7.1555619 -40.801605 6.9801106 -2.7729263 145.06967
930000000 -0.33708763 175.81856 -41.047962 7.9895496 -41.066002 7.9262433 -2.7516947 144.36482
940000000 -0.33947065 175.76448 -41.247631 10.119086 -41.254646 9.9907122 -2.7484457 143.59665
950000000 -0.34118065 175.69025 -41.2328 12.659589 -41.261711 12.427371 -2.7581589 142.87727
960000000 -0.34032333 175.65781 -41.123161 14.914196 -41.111771 14.638236 -2.7811694 142.19894
970000000 -0.34129238 175.61902 -40.912178 16.171158 -40.902451 16.125029 -2.7968681 141.6355
980000000 -0.34336701 175.56779 -40.690674 16.714266 -40.687187 16.764753 -2.8095138 141.06897
990000000 -0.3441036 175.52165 -40.500057 17.127943 -40.511879 17.33989 -2.821094 140.55821
1000000000 -0.34250617 175.47144 -40.324787 16.863049 -40.304443 17.118839 -2.8325 140.11862
1010000000 -0.34658441 175.43492 -40.204086 16.401073 -40.152443 16.394711 -2.8256109 139.71721
1020000000 -0.34414732 175.37898 -40.209545 15.708163 -40.184818 15.709635 -2.8164563 139.2594
1030000000 -0.34426528 175.34552 -40.190079 15.950961 -40.168064 15.694269 -2.8059685 138.73132
1040000000 -0.34325635 175.2886 -40.152908 15.794959 -40.155869 15.379843 -2.7931247 138.22675
1050000000 -0.34191269 175.24153 -40.198273 15.355502 -40.204105 14.939918 -2.779038 137.66295
1060000000 -0.33978698 175.19995 -40.30246 15.232085 -40.290562 15.206006 -2.7651939 137.01607
1070000000 -0.33961481 175.16513 -40.324059 15.880125 -40.343407 15.790699 -2.7553966 136.39172
1080000000 -0.33626077 175.12848 -40.313778 16.211241 -40.311401 16.274645 -2.7523432 135.70905
1090000000 -0.33493856 175.09277 -40.315071 16.607176 -40.297905 16.704241 -2.7660224 135.09358
1100000000 -0.33304849 175.05219 -40.273354 16.936729 -40.286663 17.076307 -2.7833779 134.55528
1110000000 -0.33240628 174.99762 -40.251034 17.211515 -40.209969 17.333548 -2.7948053 134.06155
1120000000 -0.33271286 174.9669 -40.162304 16.878351 -40.134914 16.961288 -2.8009186 133.67473
1130000000 -0.33608568 174.91472 -40.166485 16.482536 -40.17067 16.393488 -2.7870548 133.226
1140000000 -0.33766145 174.86475 -40.2761 16.177629 -40.254383 16.13488 -2.770097 132.7195
1150000000 -0.34136885 174.80794 -40.385662 16.547676 -40.366974 16.479233 -2.7521763 132.12038
1160000000 -0.34261599 174.76602 -40.385967 17.056351 -40.384922 16.932129 -2.7412384 131.45007
1170000000 -0.34276584 174.72345 -40.444878 17.188042 -40.422131 17.125135 -2.7426143 130.77953
1180000000 -0.34647676 174.67062 -40.513901 17.938179 -40.47776 17.890221 -2.7454107 130.21854
1190000000 -0.34757814 174.63174 -40.487598 18.418913 -40.46817 18.500509 -2.7393 129.59459
1200000000 -0.35035303 174.58783 -40.510895 18.642838 -40.504387 18.576185 -2.7512436 128.90334
1210000000 -0.35022506 174.53223 -40.541725 19.204927 -40.541821 19.178373 -2.7744522 128.37398
1220000000 -0.35072288 174.49103 -40.520805 19.789934 -40.527718 19.720066 -2.7789819 127.87934
1230000000 -0.35084718 174.44678 -40.506924 20.195299 -40.481178 20.331972 -2.7733343 127.3257
1240000000 -0.35255831 174.39017 -40.489918 20.640244 -40.492729 20.578222 -2.7721889 126.71555
1250000000 -0.351017 174.3535 -40.467457 21.112963 -40.45541 21.109251 -2.782213 125.99448
1260000000 -0.34988669 174.29871 -40.42141 21.214905 -40.397133 21.149061 -2.8116829 125.38804
1270000000 -0.35032469 174.25905 -40.418793 21.430334 -40.402565 21.451069 -2.8236673 124.82864
1280000000 -0.34693459 174.19571 -40.400417 21.719332 -40.407871 21.765493 -2.8379784 124.17139
1290000000 -0.34743148 174.15538 -40.402843 21.843588 -40.371082 21.849878 -2.8754628 123.57918
1300000000 -0.34551328 174.11397 -40.406612 21.899734 -40.385811 21.807117 -2.9162233 123.11359
1310000000 -0.34582245 174.06688 -40.428741 22.289005 -40.402309 22.1667 -2.9418707 122.67156
1320000000 -0.34431824 174.03065 -40.439857 22.600122 -40.442944 22.380644 -2.9700613 122.19039
1330000000 -0.3442992 173.9818 -40.425201 23.020979 -40.43755 22.989988 -3.0148568 121.72289
1340000000 -0.34339112 173.92639 -40.412098 23.496181 -40.433521 23.500282 -3.0684447 121.45001
1350000000 -0.34455842 173.88329 -40.392529 23.736628 -40.374149 23.809389 -3.0931084 121.35597
1360000000 -0.34470972 173.83823 -40.373451 24.057459 -40.353394 24.102062 -3.0877619 121.21335
1370000000 -0.34668925 173.79614 -40.338211 24.429678 -40.316597 24.384018 -3.0749028 121.00556
1380000000 -0.3473092 173.73993 -40.300301 24.470634 -40.285301 24.48074 -3.0358582 120.71577
1390000000 -0.34525234 173.70213 -40.272865 24.670006 -40.236801 24.625244 -3.0085049 120.31822
1400000000 -0.34450433 173.64975 -40.246952 24.592598 -40.24696 24.426281 -2.9788015 119.88969
1410000000 -0.34413669 173.6053 -40.266785 24.573908 -40.253258 24.427137 -2.9498124 119.38438
1420000000 -0.34485406 173.57581 -40.303223 24.780893 -40.299995 24.65576 -2.9336548 118.81235
1430000000 -0.34568313 173.52895 -40.297653 25.201752 -40.312752 25.05986 -2.9243999 118.2447
1440000000 -0.34651938 173.48653 -40.292595 25.688709 -40.309227 25.611042 -2.9199314 117.7108
1450000000 -0.34958449 173.44444 -40.249809 25.775364 -40.250038 25.774328 -2.9116766 117.15771
1460000000 -0.35215828 173.40012 -40.240711 25.854139 -40.231438 25.776672 -2.9045987 116.59749
1470000000 -0.35476726 173.34366 -40.215389 26.034206 -40.190716 25.989017 -2.9058783 116.02847
1480000000 -0.35428584 173.29739 -40.210335 26.035734 -40.19725 26.041134 -2.9059682 115.49756
1490000000 -0.3566252 173.24428 -40.187069 26.044399 -40.177921 26.036217 -2.9064524 114.99207
1500000000 -0.35773337 173.19208 -40.198605 25.884026 -40.184441 25.98827 -2.9036417 114.50647
1510000000 -0.35762686 173.15724 -40.23011 25.839865 -40.20755 25.826946 -2.8934016 113.96838
1520000000 -0.35783908 173.11046 -40.266357 25.948282 -40.23988 25.844843 -2.8967149 113.36981
1530000000 -0.35866892 173.06902 -40.274338 25.996319 -40.273594 25.903589 -2.9081652 112.79123
1540000000 -0.3606734 173.02266 -40.329296 26.047237 -40.318886 25.82752 -2.9309933 112.29284
1550000000 -0.36124837 172.97565 -40.403721 26.156773 -40.419376 26.114878 -2.9373345 111.92873
1560000000 -0.36265233 172.92384 -40.457466 26.698631 -40.462021 26.752302 -2.9244831 111.50499
1570000000 -0.36305702 172.87656 -40.501251 27.112644 -40.488663 27.143887 -2.9099236 111.01792
1580000000 -0.36223194 172.81898 -40.511005 27.620455 -40.492699 27.637209 -2.8909183 110.49236
1590000000 -0.35896245 172.76764 -40.523808 28.054239 -40.535912 28.103254 -2.8789523 109.91158
1600000000 -0.35719681 172.72481 -40.534786 28.722328 -40.503231 28.766127 -2.8711469 109.33778
1610000000 -0.3559247 172.67813 -40.495438 29.191345 -40.491184 29.184944 -2.8673255 108.73457
1620000000 -0.35421899 172.63382 -40.457325 29.668877 -40.461735 29.643167 -2.8671241 108.16484
1630000000 -0.35380897 172.60339 -40.405663 29.799376 -40.392284 29.750767 -2.8620687 107.56523
1640000000 -0.3529087 172.5627 -40.371761 29.950636 -40.376255 29.84037 -2.8627818 106.94644
1650000000 -0.35405302 172.51904 -40.348537 30.171501 -40.348564 30.066936 -2.8631907 106.34377
1660000000 -0.35568532 172.4617 -40.316242 30.256899 -40.318153 30.220507 -2.8622115 105.71714
1670000000 -0.3574492 172.42084 -40.308067 30.07025 -40.266083 30.075205 -2.8635085 105.08459
1680000000 -0.35907662 172.36559 -40.315708 29.865816 -40.297607 29.905426 -2.8660398 104.46301
1690000000 -0.35899761 172.32031 -40.334602 29.919167 -40.321671 29.9562 -2.8697493 103.82581
1700000000 -0.35869396 172.26762 -40.370426 29.991842 -40.360283 29.883383 -2.8771629 103.14873
1710000000 -0.3599126 172.22786 -40.39333 30.224201 -40.377785 30.219879 -2.8945963 102.47848
1720000000 -0.36039916 172.17403 -40.375587 30.353487 -40.34779 30.336699 -2.9129953 101.8623
1730000000 -0.36153194 172.138 -40.358681 30.227022 -40.36034 30.234034 -2.9276588 101.2353
1740000000 -0.36362469 172.10173 -40.364189 29.931562 -40.35767 29.86701 -2.9421842 100.57886
1750000000 -0.36606318 172.05257 -40.42733 29.817526 -40.419674 29.525023 -2.962249 99.922462
1760000000 -0.36781523 172.01013 -40.491417 29.583899 -40.489872 29.455769 -2.9845665 99.285194
1770000000 -0.36955023 171.95593 -40.55315 29.501961 -40.54348 29.428406 -3.0065968 98.68206
1780000000 -0.37235472 171.90697 -40.65527 29.238752 -40.641773 29.240559 -3.0204194 98.071251
1790000000 -0.37300795 171.85756 -40.803497 29.123186 -40.794361 29.081522 -3.0396717 97.404427
1800000000 -0.37242803 171.81288 -40.978725 29.436411 -40.966969 29.546667 -3.0680568 96.738419
1810000000 -0.37099779 171.7541 -41.120956 30.104021 -41.103024 30.235783 -3.1057148 96.133919
1820000000 -0.37070936 171.71977 -41.204403 31.067505 -41.211769 31.142595 -3.1352904 95.554665
1830000000 -0.36978644 171.67226 -41.275734 31.865627 -41.24522 31.908722 -3.1673241 94.974335
1840000000 -0.36926192 171.62721 -41.304676 32.604607 -41.29105 32.52079 -3.1905079 94.435898
1850000000 -0.36880508 171.58731 -41.332867 33.251884 -41.306973 32.938667 -3.2097821 93.861488
1860000000 -0.36955306 171.54341 -41.392281 33.519066 -41.380741 33.327324 -3.2244785 93.252312
1870000000 -0.37112805 171.49615 -41.449272 34.137047 -41.434181 34.091183 -3.2408431 92.617363
1880000000 -0.37259361 171.44992 -41.49675 34.523258 -41.490509 34.573467 -3.2552068 91.97718
1890000000 -0.37150615 171.40599 -41.571045 34.93409 -41.566879 34.931511 -3.2669299 91.302162
1900000000 -0.37286323 171.35303 -41.673626 35.34251 -41.65527 35.361671 -3.2842674 90.545212
1910000000 -0.37076744 171.29834 -41.808979 35.879536 -41.773762 36.067471 -3.3074648 89.787964
1920000000 -0.37104344 171.24921 -41.914291 37.030716 -41.864216 36.971378 -3.3363748 88.970993
1930000000 -0.36969709 171.21167 -41.960316 37.966152 -41.931366 37.709118 -3.3683097 88.138222
1940000000 -0.37062731 171.16734 -42.016174 38.987419 -42.004761 38.613415 -3.4068272 87.268623
1950000000 -0.37186655 171.12869 -42.045395 39.78624 -42.063419 39.410656 -3.4462895 86.384293
1960000000 -0.37241647 171.09055 -42.129589 40.208687 -42.140137 40.088726 -3.4912093 85.410423
1970000000 -0.3757681 171.04575 -42.262482 40.853546 -42.255051 40.810188 -3.5510223 84.385429
1980000000 -0.37664852 170.99808 -42.402744 41.505257 -42.379898 41.750439 -3.6306627 83.380135
1990000000 -0.37879914 170.94676 -42.597271 42.388889 -42.578968 42.669956 -3.7080266 82.381996
2000000000 -0.37899575 170.89279 -42.875793 43.947575 -42.818527 43.993702 -3.7969267 81.311607
2010000000 -0.37996864 170.84648 -43.088085 46.087734 -43.046803 46.060791 -3.9024134 80.169594
2020000000 -0.38049588 170.80289 -43.234528 48.756767 -43.216072 48.518417 -4.032414 79.030479
2030000000 -0.38087991 170.75 -43.354225 51.819408 -43.405689 51.362389 -4.1858521 77.860939
2040000000 -0.38351414 170.7019 -43.441246 55.423672 -43.48848 54.998482 -4.3734341 76.705009
2050000000 -0.38411871 170.6624 -43.454903 59.124271 -43.462784 58.956718 -4.5938601 75.711296
