!Keysight Technologies,N5222B,MY61257109,A.17.25.03
!Date: Tuesday, July 21, 2026 19:53:52
!Correction: S11(C  2-Port  ) 
!S21(C  2-Port  ) 
!S12(C  2-Port  ) 
!S22(C  2-Port  ) 
!S2P File: Measurements: S11, S21, S12, S22:
# Hz S  dB   R 50
10000000 -0.4002713 -179.6331 -55.045273 16.212137 -55.84222 14.280237 -2.4029169 -51.087101
20000000 -0.34684768 -179.8427 -37.475063 28.071398 -37.438381 28.355583 -3.3757765 -112.74528
30000000 -0.3529014 -179.96901 -37.852856 26.668655 -37.912434 25.945299 -3.4137149 -126.38073
40000000 -0.35397267 179.94032 -34.661568 15.986316 -34.617939 16.114347 -3.2135589 -147.19168
50000000 -0.34627742 179.84157 -29.890516 -24.704628 -29.887688 -24.785975 -4.8099456 173.68411
60000000 -0.35599017 179.78413 -36.531826 -62.932564 -36.540646 -63.17511 -9.0581923 -154.20328
70000000 -0.36071277 179.7587 -40.562725 -55.386631 -40.580532 -55.305645 -7.113276 -152.43637
80000000 -0.35523328 179.67403 -42.523117 -47.789387 -42.555992 -47.902691 -6.4415832 -154.79077
90000000 -0.36142784 179.64413 -43.856041 -37.93116 -43.932716 -38.277157 -6.0066047 -157.07309
100000000 -0.3625516 179.61592 -44.199234 -29.469469 -44.193855 -29.211794 -5.6965017 -159.65503
110000000 -0.3635442 179.543 -44.444771 -23.254868 -44.505413 -23.39407 -5.5242333 -161.53438
120000000 -0.36302295 179.51619 -43.334839 -19.467535 -43.390373 -19.909077 -5.3464108 -164.48958
130000000 -0.36039269 179.45885 -40.729221 -24.555733 -40.70689 -23.672523 -5.3180742 -169.59477
140000000 -0.36039186 179.38695 -43.846279 -32.452049 -43.838127 -32.657509 -5.5947928 -167.38036
150000000 -0.35814267 179.35541 -44.424301 -28.259296 -44.414173 -28.14102 -5.4530592 -168.07104
160000000 -0.35474646 179.32112 -44.824295 -26.041838 -44.657413 -25.953436 -5.3541112 -169.20374
170000000 -0.35546589 179.255 -44.985966 -23.443558 -44.999691 -23.492537 -5.3349299 -170.23938
180000000 -0.35817105 179.24184 -45.025616 -22.521612 -45.001747 -22.951199 -5.3327451 -170.88811
190000000 -0.35837176 179.20869 -45.256271 -21.660484 -45.282547 -21.783344 -5.2875743 -171.33041
200000000 -0.34644619 179.17004 -45.475693 -19.61993 -45.591068 -19.925371 -5.2235231 -171.77173
210000000 -0.35185567 179.11125 -45.720627 -18.829521 -45.817177 -18.409782 -5.153285 -172.25368
220000000 -0.34562707 179.07082 -46.032429 -16.876936 -45.993523 -16.266001 -5.0994716 -172.78279
230000000 -0.34594157 179.02307 -45.148689 -15.280389 -45.103878 -15.045295 -4.9823418 -173.70235
240000000 -0.34465873 178.96684 -45.718296 -24.202244 -45.657021 -24.089722 -5.0476441 -174.46913
250000000 -0.346553 178.92044 -47.011505 -19.556629 -47.078026 -20.197405 -5.0019107 -174.45512
260000000 -0.35686913 178.88829 -47.927677 -12.681081 -47.904919 -12.448416 -4.9333625 -174.49196
270000000 -0.35641444 178.84065 -46.16872 2.2560899 -46.0522 1.8111982 -4.7115083 -174.70108
280000000 -0.35453299 178.80223 -45.281597 -11.74391 -45.220013 -11.744216 -4.6536913 -176.37265
290000000 -0.35299379 178.745 -46.1992 -20.8447 -46.154606 -20.803307 -4.687005 -176.94977
300000000 -0.35446277 178.72241 -48.010174 -19.686058 -48.034576 -20.619232 -4.6643305 -177.21693
310000000 -0.35465968 178.67262 -49.026165 -3.8445318 -49.097301 -3.3591013 -4.5458522 -177.36256
320000000 -0.35547826 178.65698 -47.721745 1.3610783 -47.592846 3.672883 -4.4284253 -178.24512
330000000 -0.35587779 178.61053 -46.699459 4.6275034 -46.552197 3.9912391 -4.3984432 -179.13341
340000000 -0.36004761 178.57962 -45.172352 1.3103271 -45.284798 0.13854226 -4.3445492 179.97148
350000000 -0.35982233 178.50111 -45.665749 -9.4771185 -45.671333 -9.5819435 -4.3727913 179.28012
360000000 -0.3588109 178.44525 -46.765949 -14.288666 -46.800785 -14.470921 -4.4005265 178.93674
370000000 -0.35961986 178.38116 -48.855057 -14.839478 -48.879436 -14.356474 -4.4085736 178.82245
380000000 -0.36137891 178.32938 -50.368378 -4.5443683 -50.244205 -4.4239135 -4.3539186 178.79309
390000000 -0.36452407 178.28685 -51.118317 18.694899 -51.224037 17.466671 -4.2873778 179.01678
400000000 -0.36515784 178.26715 -47.562504 32.693825 -47.920921 31.987494 -4.1033783 178.9398
410000000 -0.36528623 178.21571 -45.311935 24.029802 -45.412495 26.762243 -3.9175711 178.05261
420000000 -0.36301592 178.174 -44.576393 14.768017 -44.239231 15.818783 -3.797086 176.82475
430000000 -0.36252627 178.12431 -44.299358 6.8037033 -44.040592 5.4993773 -3.7546957 175.48883
440000000 -0.36229441 178.06844 -45.279858 -1.1088339 -45.276691 -2.6669436 -3.8019428 174.47351
450000000 -0.36083654 177.99403 -46.679119 -0.010951317 -46.74873 -0.83437872 -3.8273499 174.188
460000000 -0.35845077 177.96719 -46.358467 6.9040446 -46.405781 6.1212707 -3.7516201 173.89218
470000000 -0.35518047 177.92685 -46.285397 2.126981 -46.228848 1.8916341 -3.701082 173.01553
480000000 -0.35449171 177.87643 -46.96209 3.7840295 -47.038567 2.9333651 -3.6817708 172.51633
490000000 -0.35083655 177.82491 -47.1707 3.539108 -47.43792 4.0942087 -3.6501133 171.93214
500000000 -0.34557548 177.78351 -47.297565 5.0540829 -47.316643 6.2348566 -3.5985594 171.32571
510000000 -0.34699854 177.7319 -47.892193 5.0515919 -47.843433 5.7383728 -3.5732307 170.68819
520000000 -0.34422269 177.69547 -48.647339 8.4824276 -48.675415 9.0775375 -3.5565846 170.1738
530000000 -0.3432191 177.64709 -48.950485 19.429628 -48.658714 20.072775 -3.51894 169.84795
540000000 -0.34693432 177.58449 -47.587753 23.901117 -47.410759 23.232416 -3.4432271 169.32608
550000000 -0.34423923 177.56946 -46.921738 23.757772 -46.910305 22.557766 -3.3848457 168.66844
560000000 -0.34228715 177.53239 -46.350948 20.947729 -46.561001 21.486328 -3.333194 167.95265
570000000 -0.35143152 177.47067 -46.436768 17.829699 -46.519661 18.604593 -3.2901883 167.13962
580000000 -0.35005841 177.42328 -46.837143 17.488583 -46.729374 17.163805 -3.2633505 166.37955
590000000 -0.35152444 177.37077 -47.402065 19.78616 -47.367931 19.778578 -3.2511361 165.72345
600000000 -0.36024138 177.34898 -47.100014 28.084333 -47.117184 27.899916 -3.2196827 165.29752
610000000 -0.35503411 177.29082 -45.822552 26.134531 -45.830711 26.270655 -3.1326993 164.65536
620000000 -0.35921326 177.27014 -45.844994 21.876677 -45.827076 21.768879 -3.0977705 163.73503
630000000 -0.36431491 177.23497 -45.956482 20.386196 -45.950756 20.346029 -3.0823526 162.95462
640000000 -0.36427465 177.14876 -46.426334 18.158724 -46.416843 18.169369 -3.0680969 162.14536
650000000 -0.3655481 177.11583 -47.029846 20.173456 -46.943111 20.387617 -3.0700366 161.42516
660000000 -0.36846608 177.06364 -47.412537 25.494635 -47.355171 24.949139 -3.075676 160.80856
670000000 -0.37208283 177.02008 -46.9146 30.185261 -46.885567 30.24893 -3.0552845 160.31995
680000000 -0.37020051 176.9819 -46.475231 31.262821 -46.476898 30.632223 -3.0213132 159.63799
690000000 -0.37007678 176.93777 -46.192024 31.746922 -46.269367 32.205765 -3.0056539 158.90265
700000000 -0.36973795 176.92371 -46.089916 33.88649 -46.056305 34.420155 -3.0021598 158.22575
710000000 -0.36816233 176.88651 -45.626026 35.951721 -45.546768 36.061802 -2.9960787 157.63426
720000000 -0.36757153 176.8423 -45.077438 37.059902 -45.028946 37.092106 -2.9900553 157.10437
730000000 -0.36433601 176.80035 -44.689407 37.159702 -44.642891 36.576275 -2.9832444 156.51617
740000000 -0.36379695 176.75175 -43.85046 37.095928 -43.88945 36.821373 -2.9772387 156.09619
750000000 -0.35942698 176.69528 -43.230949 32.797371 -43.261795 33.181263 -2.9393454 155.60606
760000000 -0.35624501 176.66486 -42.919727 29.191259 -42.92424 29.016256 -2.9076724 155.03134
770000000 -0.35465801 176.5945 -42.845451 24.825491 -42.861336 24.913166 -2.8706458 154.41159
780000000 -0.35449284 176.56389 -42.956932 21.033728 -42.955261 20.905361 -2.8333046 153.70837
790000000 -0.3531906 176.54515 -43.257347 17.396261 -43.248051 17.272238 -2.8018186 152.90752
800000000 -0.35251537 176.50928 -43.782574 14.869493 -43.744823 14.846181 -2.7851079 152.07565
810000000 -0.35012573 176.46056 -44.354008 14.620368 -44.32571 14.643439 -2.7856953 151.28288
820000000 -0.35073355 176.41583 -44.739334 16.087204 -44.717247 16.154133 -2.7941172 150.56494
830000000 -0.34991503 176.36929 -44.928623 17.590427 -44.906311 17.523314 -2.8135173 149.89288
840000000 -0.35085675 176.32706 -44.842873 19.057825 -44.811104 18.972782 -2.8278487 149.37503
850000000 -0.3537921 176.26372 -44.702904 18.594444 -44.765469 18.289835 -2.8281753 148.8364
860000000 -0.35373285 176.21886 -44.886639 17.921469 -44.950676 17.886595 -2.8267283 148.26294
870000000 -0.35197833 176.18639 -45.002167 17.922291 -45.044743 18.114906 -2.8256586 147.71077
880000000 -0.35423219 176.13789 -45.059185 18.15575 -45.070927 18.349771 -2.8292491 147.14183
890000000 -0.35475463 176.11545 -45.158054 17.738827 -45.116142 17.628361 -2.8293033 146.64717
900000000 -0.35674548 176.06177 -45.354324 17.078863 -45.303787 17.116098 -2.8162742 146.17596
910000000 -0.35829812 176.02315 -45.63887 16.498739 -45.586769 16.682161 -2.7889447 145.67873
920000000 -0.36059803 175.96718 -46.024708 17.292271 -46.044857 17.199001 -2.7600918 145.06625
930000000 -0.36085764 175.91853 -46.512833 19.087152 -46.513931 18.938721 -2.7389586 144.36539
940000000 -0.36381581 175.86525 -46.784863 23.092896 -46.811253 23.220974 -2.7369792 143.61011
950000000 -0.36569399 175.79668 -46.707752 27.286589 -46.694805 27.573963 -2.7462788 142.90536
960000000 -0.36562413 175.76366 -46.356792 30.583006 -46.296135 30.701281 -2.7684166 142.24921
970000000 -0.36531129 175.72379 -45.892048 32.335674 -45.888073 32.106518 -2.7814965 141.70209
980000000 -0.36806795 175.67715 -45.470928 32.020157 -45.486652 31.914736 -2.7924905 141.145
990000000 -0.36861035 175.62985 -45.146057 31.962984 -45.142159 31.683714 -2.8025508 140.62378
1000000000 -0.36760366 175.58264 -44.847034 30.340284 -44.875046 30.134287 -2.8117962 140.14235
1010000000 -0.37136716 175.54576 -44.778507 28.176102 -44.783733 28.198116 -2.8075795 139.72729
1020000000 -0.36909395 175.49278 -44.962856 26.855791 -44.938549 26.807859 -2.7972708 139.28467
1030000000 -0.36885864 175.45889 -44.951351 26.896608 -44.98003 26.612419 -2.7878146 138.75301
1040000000 -0.36794314 175.40512 -44.970745 26.071918 -44.989433 25.932751 -2.7729402 138.23015
1050000000 -0.36621609 175.35745 -45.149841 25.38579 -45.183372 25.261232 -2.7644203 137.66771
1060000000 -0.36436418 175.3186 -45.350735 25.262098 -45.374493 25.649734 -2.7502649 137.04744
1070000000 -0.36450297 175.28819 -45.418163 26.051098 -45.443592 26.488239 -2.7411323 136.42717
1080000000 -0.36043489 175.2502 -45.480206 26.570875 -45.419815 26.831511 -2.7380989 135.73453
1090000000 -0.35958105 175.21532 -45.488503 27.47191 -45.384281 27.362743 -2.7524216 135.09526
1100000000 -0.3571777 175.17833 -45.414265 27.729639 -45.374012 27.81072 -2.7725749 134.56938
1110000000 -0.35649285 175.12497 -45.360325 27.701704 -45.305862 27.576258 -2.7825963 134.10361
1120000000 -0.35691914 175.09595 -45.262173 26.556347 -45.236103 26.429682 -2.7880552 133.72205
1130000000 -0.35978943 175.04755 -45.410213 25.507917 -45.382824 25.401646 -2.771069 133.27151
1140000000 -0.36180061 174.99838 -45.654999 25.175524 -45.699669 24.72365 -2.7539434 132.75008
1150000000 -0.36511418 174.93938 -45.906322 25.324863 -45.922523 25.697355 -2.7371655 132.14893
1160000000 -0.36622286 174.89842 -45.99617 26.142822 -46.02095 25.924833 -2.7268996 131.48749
1170000000 -0.36716363 174.85353 -46.172386 26.654367 -46.209629 26.815479 -2.7301047 130.82137
1180000000 -0.37080887 174.80582 -46.32328 28.149805 -46.338894 28.202152 -2.7329476 130.23776
1190000000 -0.37179068 174.76997 -46.349506 29.144499 -46.341717 28.945423 -2.7297208 129.60136
1200000000 -0.37461805 174.726 -46.411102 29.250183 -46.411709 29.586945 -2.741796 128.93889
1210000000 -0.37461692 174.672 -46.553329 30.461384 -46.547783 30.678068 -2.7616942 128.40662
1220000000 -0.37559056 174.63423 -46.569607 31.921312 -46.530411 31.900354 -2.7677763 127.90471
1230000000 -0.37569526 174.59055 -46.540665 32.619331 -46.539551 32.71727 -2.7631643 127.35976
1240000000 -0.37728858 174.53494 -46.567883 33.400196 -46.525196 33.617985 -2.7636425 126.74695
1250000000 -0.37567863 174.49814 -46.560001 34.45285 -46.503239 34.313637 -2.7732038 126.05087
1260000000 -0.37508848 174.44377 -46.547138 34.536484 -46.483891 34.674351 -2.8018255 125.45014
1270000000 -0.37516975 174.4073 -46.594925 35.299171 -46.595753 34.929745 -2.8139348 124.8865
1280000000 -0.37229013 174.34384 -46.593708 36.189331 -46.584511 36.023415 -2.8321686 124.23154
1290000000 -0.37250844 174.30504 -46.591034 36.588028 -46.574074 36.344601 -2.8658621 123.65648
1300000000 -0.37070909 174.26418 -46.624237 37.046368 -46.61277 36.980545 -2.9032335 123.17806
1310000000 -0.37073502 174.22121 -46.624496 37.795033 -46.668518 37.989475 -2.9290538 122.72556
1320000000 -0.36917764 174.18407 -46.723949 38.791969 -46.724415 39.044807 -2.9578335 122.2394
1330000000 -0.37002885 174.13631 -46.660896 40.456562 -46.677471 40.353382 -3.0042541 121.7831
1340000000 -0.36800146 174.08368 -46.563385 41.262623 -46.562725 41.337475 -3.0570951 121.4978
1350000000 -0.36975572 174.03912 -46.454224 41.601814 -46.449974 41.650131 -3.0842459 121.42139
1360000000 -0.36957166 173.9957 -46.412918 42.075176 -46.337265 41.864315 -3.0777078 121.27031
1370000000 -0.37142381 173.95403 -46.314285 42.137974 -46.29903 42.100845 -3.068059 121.07426
1380000000 -0.37219143 173.90086 -46.280334 42.056854 -46.279091 42.052025 -3.0281065 120.78892
1390000000 -0.37105811 173.86427 -46.26862 42.117798 -46.239925 42.058212 -2.9971373 120.39329
1400000000 -0.36975572 173.81493 -46.29567 41.949383 -46.288818 41.717514 -2.9658582 119.93101
1410000000 -0.36976108 173.771 -46.400146 41.764652 -46.403889 41.580647 -2.9397542 119.40914
1420000000 -0.37053204 173.74109 -46.530628 42.304142 -46.52916 42.385002 -2.9287291 118.8583
1430000000 -0.37169284 173.69545 -46.552937 43.457451 -46.584721 43.582302 -2.9177566 118.31245
1440000000 -0.37259418 173.65488 -46.55624 44.427044 -46.523258 44.485008 -2.913017 117.78234
1450000000 -0.37592673 173.6152 -46.48914 44.756886 -46.473953 44.835781 -2.9032114 117.23676
1460000000 -0.3782388 173.57175 -46.505306 45.045662 -46.500271 44.994694 -2.8970828 116.66302
1470000000 -0.38028002 173.51694 -46.480915 45.670593 -46.472824 45.492855 -2.9012711 116.10564
1480000000 -0.3803744 173.47301 -46.50182 45.767151 -46.507439 45.856155 -2.8995454 115.58016
1490000000 -0.3832882 173.42003 -46.512909 45.967308 -46.520451 45.905518 -2.8975711 115.06547
1500000000 -0.383733 173.36885 -46.541492 45.838169 -46.515514 46.045074 -2.8933895 114.55616
1510000000 -0.38393292 173.33572 -46.680782 45.989376 -46.632748 46.071255 -2.8889091 114.00118
1520000000 -0.38382405 173.28999 -46.800442 46.640488 -46.763229 46.738991 -2.8967402 113.43393
1530000000 -0.3855553 173.24869 -46.85437 47.636799 -46.84671 47.378777 -2.9067485 112.88938
1540000000 -0.38727304 173.20448 -46.990719 48.139469 -46.944454 47.717541 -2.9246206 112.3839
1550000000 -0.38768032 173.15912 -47.077682 49.200626 -47.095634 48.964314 -2.9320467 112.01707
1560000000 -0.3892166 173.10693 -47.095318 50.552811 -47.126068 50.436661 -2.9201214 111.60186
1570000000 -0.38978544 173.06062 -47.176327 51.666901 -47.158817 51.623955 -2.9045982 111.11044
1580000000 -0.38871208 173.00255 -47.138981 52.601067 -47.159679 52.996109 -2.8857949 110.56808
1590000000 -0.38557535 172.95317 -47.195896 54.22744 -47.169334 54.418221 -2.8753829 109.98643
1600000000 -0.38382179 172.91127 -47.129089 55.541229 -47.07896 55.598736 -2.866704 109.41241
1610000000 -0.38286582 172.8665 -47.018513 56.583969 -46.983643 56.552315 -2.8624339 108.8121
1620000000 -0.38098872 172.82362 -46.897579 57.620911 -46.846691 57.510002 -2.8638263 108.23937
1630000000 -0.38060749 172.79439 -46.80138 57.806568 -46.790558 57.731041 -2.8612027 107.63393
1640000000 -0.38006246 172.75456 -46.754345 58.36179 -46.78175 58.115307 -2.8640096 107.02267
1650000000 -0.38116759 172.71248 -46.721027 58.618496 -46.714317 58.892021 -2.8639615 106.43643
1660000000 -0.38233688 172.65825 -46.651905 58.913506 -46.616051 58.979763 -2.8647039 105.82327
1670000000 -0.38378757 172.61769 -46.616207 58.930782 -46.618343 58.749462 -2.864712 105.21128
1680000000 -0.385712 172.56342 -46.71249 59.221355 -46.678501 59.101593 -2.8650334 104.58248
1690000000 -0.38571003 172.51877 -46.756779 59.839931 -46.751846 59.631268 -2.8671663 103.92255
1700000000 -0.38544554 172.4691 -46.797882 60.581646 -46.809864 60.730171 -2.8748028 103.23624
1710000000 -0.38700223 172.43082 -46.757778 61.710705 -46.752171 61.781754 -2.894577 102.57444
1720000000 -0.38791016 172.37714 -46.705288 62.131218 -46.671391 62.123707 -2.9144485 101.96011
1730000000 -0.38903058 172.34341 -46.662792 62.180744 -46.679214 62.195492 -2.9290142 101.34608
1740000000 -0.3911933 172.30797 -46.744118 62.330742 -46.739212 62.330204 -2.9427557 100.68298
1750000000 -0.39368215 172.25903 -46.854568 62.616913 -46.839645 62.723156 -2.9646578 100.02327
1760000000 -0.39539462 172.21849 -46.918049 63.66629 -46.928986 63.39468 -2.9875305 99.401512
1770000000 -0.39688259 172.16586 -46.991268 64.180893 -46.979404 64.049416 -3.0098646 98.79792
1780000000 -0.39920473 172.11812 -47.122124 65.007378 -47.125946 64.537704 -3.0245593 98.180504
1790000000 -0.40013307 172.06786 -47.324921 66.289673 -47.304852 66.306229 -3.0429878 97.528923
1800000000 -0.40011802 172.02592 -47.434372 68.782837 -47.412491 68.628342 -3.0684507 96.841927
1810000000 -0.39921039 171.96936 -47.408585 70.846603 -47.399265 71.201431 -3.1071069 96.221657
1820000000 -0.39901572 171.93594 -47.276249 73.123444 -47.266491 73.576653 -3.1410086 95.642876
1830000000 -0.39805868 171.89017 -47.079948 74.778786 -47.026581 74.748772 -3.1746721 95.080879
1840000000 -0.39759231 171.84668 -46.917759 75.778145 -46.885029 75.844528 -3.2004652 94.543419
1850000000 -0.397672 171.80678 -46.763657 76.390656 -46.74073 76.213577 -3.2184331 93.989296
1860000000 -0.39764363 171.76492 -46.703747 77.115349 -46.677872 77.168266 -3.2339559 93.376953
1870000000 -0.39963382 171.71655 -46.565727 78.091736 -46.555939 77.926674 -3.2491956 92.762917
1880000000 -0.40149063 171.6738 -46.451443 78.395065 -46.489635 78.32827 -3.2620544 92.11335
1890000000 -0.40001756 171.62981 -46.425816 79.045761 -46.417973 79.054619 -3.2753384 91.426041
1900000000 -0.40170783 171.57613 -46.400753 79.858505 -46.403942 79.880852 -3.2942533 90.668457
1910000000 -0.3995572 171.52795 -46.368614 80.997505 -46.337261 80.945969 -3.3184323 89.911102
1920000000 -0.40016147 171.47845 -46.235683 82.1073 -46.206684 82.162758 -3.3489954 89.100403
1930000000 -0.39881822 171.44107 -46.086201 82.813927 -46.058563 82.776527 -3.3807762 88.27729
1940000000 -0.39936194 171.39914 -45.956234 83.505264 -45.94001 83.640594 -3.4193704 87.415672
1950000000 -0.40067101 171.36163 -45.849556 83.768448 -45.847126 83.64769 -3.4573317 86.535286
1960000000 -0.40153578 171.32581 -45.799339 84.014214 -45.783245 83.961838 -3.5009949 85.553726
1970000000 -0.40441981 171.28139 -45.730694 84.488068 -45.749496 84.645699 -3.5588505 84.517365
1980000000 -0.40527681 171.23581 -45.702343 84.962395 -45.70575 85.185921 -3.6373622 83.508659
1990000000 -0.40762675 171.1866 -45.734447 86.054436 -45.699215 85.824326 -3.7187626 82.519157
2000000000 -0.40807629 171.13414 -45.69611 87.124413 -45.678093 87.051704 -3.8131747 81.46254
2010000000 -0.4094972 171.09055 -45.604549 88.652771 -45.587215 88.522438 -3.9200535 80.317871
2020000000 -0.41019559 171.04939 -45.398808 89.592171 -45.396584 89.540756 -4.0484982 79.159882
2030000000 -0.41020811 170.99893 -45.212257 90.44648 -45.218376 90.242401 -4.2048535 77.994843
2040000000 -0.41320354 170.95265 -45.010639 90.714836 -45.01712 90.684494 -4.3924384 76.852119
2050000000 -0.41385382 170.91684 -44.780254 90.244705 -44.799072 90.240517 -4.6093521 75.831024
