!Keysight Technologies,N5222B,MY61257109,A.17.25.03
!Date: Tuesday, July 21, 2026 19:55:46
!Correction: S11(C  2-Port  ) 
!S21(C  2-Port  ) 
!S12(C  2-Port  ) 
!S22(C  2-Port  ) 
!S2P File: Measurements: S11, S21, S12, S22:
# Hz S  dB   R 50
10000000 -0.37765452 -179.63197 -55.282162 13.634881 -55.370369 18.459637 -2.4038925 -51.064186
20000000 -0.32351404 -179.85065 -37.920521 26.733156 -38.000992 26.869709 -3.4548113 -112.44424
30000000 -0.32773834 -179.97319 -38.410259 24.546295 -38.463829 24.131481 -3.4313257 -126.26942
40000000 -0.32983804 179.93651 -35.290157 14.789419 -35.262856 14.921983 -3.2386985 -146.82272
50000000 -0.32300317 179.8419 -30.312098 -24.374853 -30.3085 -24.577951 -4.8163276 173.85669
60000000 -0.33230343 179.77287 -36.522614 -63.482258 -36.518269 -63.410595 -9.0172548 -153.63335
70000000 -0.33609605 179.76134 -40.226753 -58.349236 -40.217579 -58.522694 -7.0711212 -152.21338
80000000 -0.32961798 179.66815 -42.054264 -54.924938 -42.09494 -54.985146 -6.4145103 -154.69225
90000000 -0.33640036 179.63725 -43.683105 -49.790497 -43.657696 -50.040524 -5.9841003 -156.98734
100000000 -0.33671951 179.60925 -44.486481 -44.124977 -44.542572 -43.946423 -5.6804934 -159.49734
110000000 -0.33848354 179.52873 -45.335716 -39.717461 -45.39204 -39.903358 -5.5018067 -161.40836
120000000 -0.33712849 179.5029 -44.610737 -33.944279 -44.649754 -33.621246 -5.3047905 -164.36899
130000000 -0.33553362 179.43867 -41.702995 -35.515991 -41.606983 -35.605263 -5.306788 -169.69823
140000000 -0.33483481 179.36636 -44.984707 -51.072548 -44.99987 -51.268028 -5.5751157 -167.42345
150000000 -0.33249152 179.33145 -46.222797 -48.298183 -46.19717 -48.35379 -5.4400373 -168.12532
160000000 -0.32884055 179.29898 -47.026989 -46.630524 -47.117111 -46.473221 -5.3463154 -169.21838
170000000 -0.32978302 179.22998 -47.961597 -45.261608 -48.000366 -45.364521 -5.3275194 -170.27568
180000000 -0.33187312 179.20694 -48.774361 -44.6171 -48.679752 -44.395241 -5.3285246 -170.8811
190000000 -0.3321369 179.17831 -49.721024 -42.68856 -49.766579 -42.286942 -5.2812529 -171.34169
200000000 -0.32110381 179.13535 -51.123077 -37.323151 -50.911598 -37.27515 -5.2217007 -171.74907
210000000 -0.32552412 179.07375 -51.942657 -30.760313 -52.042023 -30.262417 -5.1506634 -172.23923
220000000 -0.32013592 179.03157 -52.930042 -23.105539 -52.900097 -23.198954 -5.0967736 -172.69655
230000000 -0.32036024 178.98401 -51.013462 -12.707908 -51.026379 -13.752456 -4.9736042 -173.66296
240000000 -0.31980878 178.92059 -52.075634 -27.617279 -52.049366 -28.086725 -5.0402303 -174.42267
250000000 -0.3209101 178.87953 -55.099667 -12.602986 -55.065422 -12.294363 -4.9902601 -174.38618
260000000 -0.33121681 178.84154 -55.77499 16.442015 -55.913845 15.813931 -4.9264107 -174.42456
270000000 -0.33108243 178.79274 -49.978859 29.825022 -49.974079 29.907978 -4.6930342 -174.59995
280000000 -0.32942361 178.74973 -49.507977 7.2760153 -49.537746 8.0012951 -4.6316972 -176.32005
290000000 -0.32824361 178.6963 -51.316341 -1.8672848 -51.336929 -2.9576879 -4.6732154 -176.94994
300000000 -0.32982519 178.67 -53.853638 7.2883701 -53.873116 6.9113712 -4.6496582 -177.19681
310000000 -0.32918987 178.62164 -52.478409 35.418381 -52.493092 35.469952 -4.5306883 -177.38139
320000000 -0.3308056 178.6046 -49.84605 35.419357 -50.043701 35.167244 -4.4232502 -178.26233
330000000 -0.33148336 178.55273 -48.560642 31.945341 -48.599892 32.396107 -4.3844538 -179.10143
340000000 -0.33589467 178.52255 -47.051517 23.849697 -47.059708 24.100443 -4.3227119 -179.98485
350000000 -0.33670357 178.4409 -47.941612 13.555664 -47.906643 13.915599 -4.3533707 179.23459
360000000 -0.33572015 178.38441 -49.479374 11.492092 -49.396141 10.922604 -4.3856306 178.90045
370000000 -0.3364507 178.32216 -51.653 17.876261 -51.626076 18.829746 -4.3969517 178.82022
380000000 -0.3386341 178.26904 -51.509758 35.200626 -51.527176 34.156612 -4.3419023 178.76503
390000000 -0.3418256 178.22562 -49.940323 53.626003 -49.952736 53.274548 -4.2712393 179.05357
400000000 -0.34273252 178.20197 -46.738384 53.486721 -46.58469 53.447407 -4.0746684 178.93613
410000000 -0.34270281 178.14845 -44.985382 43.312927 -45.015694 42.248943 -3.9002841 177.88054
420000000 -0.34066072 178.10509 -44.251625 31.965914 -44.378109 31.719341 -3.7939532 176.76173
430000000 -0.33964562 178.0565 -44.391056 20.706732 -44.466183 21.010906 -3.7462709 175.45944
440000000 -0.33948299 177.99585 -45.970394 13.358743 -45.92923 14.695967 -3.7926393 174.42987
450000000 -0.33834168 177.92641 -47.163059 18.889597 -47.104202 19.116831 -3.8118668 174.15732
460000000 -0.33623251 177.89326 -46.400208 22.960951 -46.367355 22.933977 -3.7319565 173.80501
470000000 -0.33292833 177.85204 -46.591728 17.56212 -46.535355 17.664661 -3.6937439 172.93036
480000000 -0.3319768 177.80112 -47.338612 20.011841 -47.252823 19.589251 -3.6754742 172.41228
490000000 -0.32920942 177.75214 -47.672256 21.17453 -47.626381 20.410295 -3.6447837 171.83113
500000000 -0.32372767 177.70909 -47.530483 23.414373 -47.5891 23.13521 -3.5998476 171.29459
510000000 -0.32433933 177.65958 -47.910553 23.075842 -47.918533 23.23694 -3.571852 170.61885
520000000 -0.32179651 177.61919 -48.513752 27.302706 -48.542072 27.709667 -3.5562148 170.12395
530000000 -0.32012895 177.56984 -48.027237 36.546505 -48.10854 37.191483 -3.5173509 169.84729
540000000 -0.32417503 177.50856 -46.899406 36.67852 -46.828083 37.333355 -3.4355693 169.33141
550000000 -0.32174435 177.49184 -46.533199 34.304993 -46.330677 34.876278 -3.3702929 168.63872
560000000 -0.3200849 177.45326 -46.312794 33.455399 -46.2491 32.422787 -3.3235681 167.86974
570000000 -0.32936218 177.39191 -46.395538 31.453732 -46.44931 30.962488 -3.2891314 167.07455
580000000 -0.32750916 177.33926 -46.554737 30.103298 -46.563168 30.235571 -3.2614698 166.3831
590000000 -0.32968697 177.28716 -47.111389 32.610523 -47.097115 33.084499 -3.24824 165.72607
600000000 -0.33643782 177.26727 -46.681183 39.503872 -46.612202 39.355923 -3.2128291 165.28065
610000000 -0.33250129 177.20627 -45.596561 36.438812 -45.553158 36.346432 -3.1302271 164.61436
620000000 -0.33756158 177.18575 -45.736851 32.505108 -45.711334 32.310474 -3.0944216 163.69794
630000000 -0.34228685 177.14517 -45.903542 31.250521 -45.922031 31.018208 -3.0770874 162.93538
640000000 -0.34232607 177.05742 -46.406307 29.407396 -46.431053 29.148727 -3.0639033 162.12778
650000000 -0.3437486 177.02843 -46.91386 31.828419 -46.967628 31.782274 -3.0664666 161.4173
660000000 -0.34674561 176.96585 -47.107689 36.846668 -47.159039 37.593712 -3.0700078 160.82088
670000000 -0.35020205 176.92548 -46.571659 40.692169 -46.490421 40.769756 -3.046802 160.3186
680000000 -0.34797832 176.88385 -46.216038 40.96167 -46.209354 40.624344 -3.0130937 159.64116
690000000 -0.34918866 176.8354 -46.100212 41.861656 -46.079212 41.960392 -2.9988341 158.89262
700000000 -0.34826973 176.82297 -45.874214 44.052235 -45.827068 44.214527 -2.9963863 158.21606
710000000 -0.3471247 176.78412 -45.447323 45.236973 -45.396023 45.179516 -2.990968 157.60564
720000000 -0.34694302 176.73822 -44.948387 46.271523 -44.903278 46.034355 -2.9857678 157.0769
730000000 -0.34359115 176.69656 -44.507069 46.066799 -44.553932 46.02639 -2.9790416 156.51497
740000000 -0.34338272 176.64531 -43.744938 45.512959 -43.72028 45.475765 -2.9698827 156.11185
750000000 -0.3381612 176.58717 -43.225601 41.690639 -43.235756 41.470543 -2.9298048 155.59955
760000000 -0.33571818 176.55786 -42.983536 37.80508 -42.994102 37.761501 -2.898797 155.00766
770000000 -0.33354351 176.48669 -42.988216 33.761147 -42.969891 33.622776 -2.8640342 154.38722
780000000 -0.33355916 176.45337 -43.100681 29.873055 -43.105202 29.730537 -2.8267472 153.70024
790000000 -0.33184379 176.43495 -43.434055 26.456793 -43.401859 26.528921 -2.7977691 152.90508
800000000 -0.33067542 176.39722 -43.939831 24.206316 -43.936836 24.389051 -2.7814641 152.09006
810000000 -0.32852337 176.35065 -44.574821 23.864597 -44.531116 23.939352 -2.7792034 151.27895
820000000 -0.3292999 176.30441 -44.971027 25.828016 -44.926113 25.480288 -2.7865057 150.56248
830000000 -0.32944065 176.2572 -45.124519 27.543989 -45.128727 27.45866 -2.8047719 149.89
840000000 -0.33033967 176.21346 -45.059353 29.106926 -45.060265 28.915483 -2.8179984 149.3766
850000000 -0.33305493 176.14957 -44.998104 28.933224 -45.033157 28.582712 -2.8168986 148.81718
860000000 -0.33170548 176.10268 -45.149902 28.748243 -45.196907 28.453161 -2.8171892 148.22055
870000000 -0.33050895 176.07004 -45.217827 29.093424 -45.285217 29.271917 -2.8207521 147.65556
880000000 -0.33341885 176.0242 -45.193745 29.372826 -45.240643 29.493679 -2.8300891 147.13306
890000000 -0.33367658 175.9958 -45.262215 28.525665 -45.30872 28.894457 -2.8269696 146.66306
900000000 -0.33668426 175.9433 -45.480892 28.336571 -45.466206 28.235336 -2.8111207 146.19255
910000000 -0.33779183 175.89998 -45.771744 28.11953 -45.738819 28.197414 -2.7851443 145.67494
920000000 -0.34020913 175.84552 -46.145531 28.613441 -46.108662 29.017834 -2.7558787 145.06717
930000000 -0.34040371 175.79477 -46.553158 30.647404 -46.492603 30.75289 -2.7344117 144.38094
940000000 -0.34383491 175.74002 -46.828815 34.811893 -46.747448 34.590309 -2.7292254 143.63486
950000000 -0.34530556 175.67128 -46.671158 38.875217 -46.64856 39.064438 -2.7379248 142.91461
960000000 -0.34439504 175.63814 -46.239853 41.910732 -46.251625 41.805374 -2.7611809 142.26944
970000000 -0.34512955 175.59801 -45.808346 42.837509 -45.79232 42.648453 -2.7731137 141.73758
980000000 -0.34790343 175.54576 -45.500866 42.722889 -45.472561 42.385822 -2.7798705 141.17142
990000000 -0.34812304 175.50291 -45.242771 42.480152 -45.190273 42.104809 -2.7901218 140.62465
1000000000 -0.34711152 175.45634 -44.961517 41.34465 -44.980225 40.865688 -2.8009772 140.12872
1010000000 -0.35057443 175.41527 -44.848934 39.421719 -44.892071 39.691387 -2.8002024 139.70856
1020000000 -0.34836537 175.36073 -44.970161 38.383751 -45.00169 38.678993 -2.7905533 139.25157
1030000000 -0.34784511 175.32709 -45.0144 38.244122 -44.98489 38.48243 -2.7835414 138.73871
1040000000 -0.34730443 175.26985 -45.039921 37.551117 -44.998749 37.609653 -2.7719383 138.23161
1050000000 -0.34602427 175.22176 -45.138176 36.662167 -45.173233 37.122982 -2.7604241 137.6938
1060000000 -0.34414172 175.17845 -45.394352 37.107613 -45.385986 37.372692 -2.7447844 137.07129
1070000000 -0.3438167 175.1461 -45.503963 38.027431 -45.436749 38.161133 -2.7339773 136.46082
1080000000 -0.34040144 175.11148 -45.537033 38.92622 -45.451599 38.704063 -2.7296641 135.76532
1090000000 -0.33863747 175.07407 -45.499336 39.619831 -45.461449 39.179073 -2.7453229 135.13058
1100000000 -0.33658469 175.0354 -45.44965 40.059544 -45.432034 39.7103 -2.7638123 134.5945
1110000000 -0.33582559 174.98111 -45.365879 40.169449 -45.417259 39.885872 -2.7706399 134.11487
1120000000 -0.33649796 174.9502 -45.281986 39.083397 -45.312222 39.102585 -2.7752345 133.72673
1130000000 -0.33982477 174.90065 -45.394611 37.930489 -45.418201 38.310551 -2.7602942 133.26132
1140000000 -0.34123108 174.85043 -45.696644 37.484035 -45.684639 37.83717 -2.7445033 132.72841
1150000000 -0.34498355 174.79056 -45.939384 38.299618 -45.898201 38.583454 -2.7321792 132.13469
1160000000 -0.3466517 174.74966 -46.025238 38.970623 -46.012596 38.949364 -2.7222726 131.49403
1170000000 -0.34739503 174.7076 -46.261688 39.940968 -46.255714 39.936783 -2.7240121 130.84052
1180000000 -0.35105178 174.65701 -46.351196 41.649139 -46.361012 41.56826 -2.7259533 130.27805
1190000000 -0.35190591 174.61864 -46.37521 42.807301 -46.37323 42.695774 -2.7215405 129.63635
1200000000 -0.35465854 174.57216 -46.47884 43.718636 -46.482635 43.490875 -2.7322986 128.94977
1210000000 -0.3547872 174.51863 -46.558231 45.23597 -46.539829 45.075359 -2.7550814 128.40791
1220000000 -0.35556787 174.47807 -46.491096 46.648815 -46.490891 46.650093 -2.7624609 127.91738
1230000000 -0.35579377 174.43335 -46.454937 47.436382 -46.452076 47.503117 -2.7564757 127.39412
1240000000 -0.35819468 174.37833 -46.477776 47.986832 -46.486286 48.264984 -2.7551179 126.77807
1250000000 -0.35666454 174.33856 -46.513428 49.278873 -46.511314 49.477474 -2.7645779 126.06486
1260000000 -0.35577157 174.285 -46.446747 49.871494 -46.450768 50.049057 -2.7958322 125.46162
1270000000 -0.35575807 174.24327 -46.496025 50.875195 -46.492374 50.825035 -2.8079674 124.92315
1280000000 -0.35333297 174.18338 -46.498348 52.193745 -46.512074 52.045727 -2.8224237 124.27898
1290000000 -0.35364693 174.14357 -46.463867 53.283707 -46.481113 53.216572 -2.8562887 123.67585
1300000000 -0.3514899 174.10173 -46.448029 54.51387 -46.457783 54.126869 -2.8973541 123.18651
1310000000 -0.35200584 174.05655 -46.429916 55.552269 -46.4226 55.549751 -2.9222107 122.74406
1320000000 -0.35044393 174.01846 -46.417419 56.777828 -46.383572 56.757126 -2.9527211 122.24969
1330000000 -0.35107508 173.96985 -46.252293 58.42041 -46.236881 58.555149 -3.0002987 121.81747
1340000000 -0.34914741 173.91364 -46.043743 59.437801 -46.032066 59.49329 -3.0520909 121.55998
1350000000 -0.35033759 173.87109 -45.846989 59.563725 -45.841896 59.485493 -3.074784 121.46904
1360000000 -0.3508037 173.82721 -45.692005 59.491524 -45.67868 59.648418 -3.0700502 121.31744
1370000000 -0.35246736 173.78156 -45.559277 59.581406 -45.570198 59.367924 -3.0567582 121.13173
1380000000 -0.35279894 173.73033 -45.580364 58.889297 -45.54705 58.824615 -3.0147855 120.81822
1390000000 -0.35147783 173.69237 -45.544086 58.927185 -45.535133 58.901997 -2.9865792 120.38647
1400000000 -0.35036901 173.63943 -45.595394 58.702248 -45.602074 58.6945 -2.9609988 119.93581
1410000000 -0.3508963 173.59546 -45.711914 58.747784 -45.68573 58.685669 -2.9366798 119.43399
1420000000 -0.35172036 173.56511 -45.825638 59.672005 -45.820267 59.771088 -2.9235909 118.89587
1430000000 -0.35243282 173.51753 -45.83313 60.885208 -45.813072 61.112129 -2.9122 118.35799
1440000000 -0.35367894 173.4751 -45.798306 61.84227 -45.758247 61.90704 -2.9070585 117.82507
1450000000 -0.35697591 173.43365 -45.721344 62.23251 -45.68457 62.084782 -2.8966289 117.28118
1460000000 -0.35929677 173.38937 -45.746746 62.808407 -45.735321 62.684246 -2.8908825 116.71078
1470000000 -0.3622705 173.33289 -45.701927 63.294483 -45.662815 63.408485 -2.8933327 116.14816
1480000000 -0.36207044 173.28891 -45.702919 63.985676 -45.698708 63.727673 -2.8943124 115.61479
1490000000 -0.36452153 173.23564 -45.657707 64.218567 -45.692619 64.068237 -2.8928192 115.10101
1500000000 -0.36568186 173.18021 -45.702564 64.515793 -45.707626 64.441528 -2.8899674 114.60547
1510000000 -0.36573762 173.14685 -45.786163 64.709648 -45.802231 65.12397 -2.8831484 114.05003
1520000000 -0.36575171 173.09932 -45.880177 66.01223 -45.822136 66.052391 -2.8915062 113.49156
1530000000 -0.36730361 173.05666 -45.905434 67.164185 -45.864258 67.099823 -2.9003475 112.94804
1540000000 -0.36967143 173.01112 -45.953709 68.18232 -45.881428 67.942703 -2.918376 112.44704
1550000000 -0.36968017 172.96306 -45.957802 69.462555 -45.933613 69.245667 -2.9241908 112.05309
1560000000 -0.37150869 172.91147 -45.916462 70.450607 -45.86364 70.547691 -2.9160633 111.6368
1570000000 -0.37167621 172.86523 -45.898972 71.705902 -45.868526 71.793976 -2.9017842 111.1619
1580000000 -0.37086329 172.80554 -45.831947 72.657143 -45.848713 72.757324 -2.8825808 110.62908
1590000000 -0.36808345 172.75545 -45.815411 74.292244 -45.844288 74.245087 -2.871676 110.03914
1600000000 -0.36600542 172.71175 -45.698097 75.423798 -45.707222 75.459015 -2.863894 109.4588
1610000000 -0.36459446 172.66762 -45.597149 76.629494 -45.606361 76.343658 -2.8603485 108.86362
1620000000 -0.36336097 172.62091 -45.466759 77.574593 -45.458523 77.388512 -2.8611753 108.29199
1630000000 -0.36324644 172.59106 -45.351048 77.708778 -45.35416 77.793724 -2.8595228 107.70542
1640000000 -0.36212361 172.55122 -45.298958 78.489983 -45.277718 78.525383 -2.8622689 107.09628
1650000000 -0.36360303 172.50685 -45.233818 79.042702 -45.186283 79.184196 -2.8637912 106.51254
1660000000 -0.36524624 172.45107 -45.171577 79.590599 -45.10136 79.768234 -2.8631887 105.91259
1670000000 -0.36672756 172.41013 -45.135677 79.946732 -45.089394 79.942787 -2.8617566 105.29356
1680000000 -0.36844525 172.3558 -45.137341 80.81002 -45.114857 80.777687 -2.8627689 104.65479
1690000000 -0.36861995 172.30934 -45.11232 81.814003 -45.113544 81.926231 -2.8667469 103.99902
1700000000 -0.36831281 172.25797 -45.087784 83.045128 -45.096935 83.099464 -2.8743918 103.31841
1710000000 -0.37016585 172.21811 -44.945847 84.511543 -44.967251 84.36142 -2.8929148 102.65894
1720000000 -0.37087148 172.16513 -44.813881 85.200272 -44.812714 84.946434 -2.9112637 102.04348
1730000000 -0.37207296 172.12875 -44.736759 85.516861 -44.738285 85.546532 -2.9280093 101.41764
1740000000 -0.37451336 172.09134 -44.71463 86.10878 -44.704338 86.328445 -2.9432807 100.7716
1750000000 -0.37692127 172.04152 -44.707249 87.057671 -44.665379 87.106712 -2.9648299 100.11985
1760000000 -0.37898558 171.99937 -44.661549 88.119629 -44.609097 88.112953 -2.9879127 99.495613
1770000000 -0.38079032 171.94455 -44.595554 88.966614 -44.563999 89.008644 -3.0095601 98.900063
1780000000 -0.3834098 171.89801 -44.58643 90.162331 -44.56456 90.053543 -3.0231869 98.2799
1790000000 -0.38454717 171.84674 -44.538239 91.887489 -44.551163 91.868263 -3.0431986 97.604378
1800000000 -0.38457376 171.80566 -44.391022 94.05806 -44.421249 94.019135 -3.0721772 96.92942
1810000000 -0.38358086 171.74263 -44.183781 95.752983 -44.19558 95.561615 -3.1100507 96.316589
1820000000 -0.38383394 171.70958 -43.888283 96.972801 -43.936657 96.902046 -3.1431947 95.732101
1830000000 -0.38276941 171.66182 -43.621773 97.515869 -43.620132 97.489838 -3.1797886 95.171989
1840000000 -0.38259923 171.618 -43.399063 97.88253 -43.369148 97.859566 -3.206526 94.65657
1850000000 -0.38220119 171.57623 -43.23875 97.893158 -43.189411 97.89695 -3.2244108 94.106201
1860000000 -0.38240331 171.53302 -43.108295 98.343018 -43.051785 98.351349 -3.2400215 93.500732
1870000000 -0.38443828 171.48695 -42.933918 98.840286 -42.878342 98.523193 -3.2549233 92.887733
1880000000 -0.38606253 171.4404 -42.761982 98.9132 -42.746239 98.849884 -3.2690024 92.241478
1890000000 -0.38547239 171.39682 -42.638519 99.351372 -42.644863 99.341827 -3.2815263 91.562706
1900000000 -0.38687462 171.34303 -42.515739 99.954475 -42.545322 99.986275 -3.3003755 90.798981
1910000000 -0.38499436 171.29195 -42.386818 100.65383 -42.403107 100.81627 -3.3276973 90.037018
1920000000 -0.38578302 171.24077 -42.18618 101.27451 -42.192642 101.39954 -3.359504 89.242905
1930000000 -0.38468888 171.20377 -41.992786 101.6128 -41.988987 101.60532 -3.3923347 88.428764
1940000000 -0.38546166 171.15945 -41.798962 101.82525 -41.766865 101.73464 -3.4300056 87.578964
1950000000 -0.38647053 171.12094 -41.67099 101.92523 -41.616253 101.76228 -3.469034 86.704102
1960000000 -0.38758549 171.08484 -41.52272 102.10699 -41.476631 101.94856 -3.5123985 85.737495
1970000000 -0.39077607 171.0399 -41.384483 102.39545 -41.322216 102.25867 -3.5689542 84.707588
1980000000 -0.3919661 170.99535 -41.219219 102.41906 -41.180244 102.32514 -3.6466258 83.694298
1990000000 -0.39464447 170.9445 -41.064068 102.59667 -41.066601 102.5294 -3.7266667 82.697548
2000000000 -0.39572808 170.89212 -40.917347 102.95554 -40.935703 103.01668 -3.8231134 81.647346
2010000000 -0.39666533 170.84857 -40.71727 103.33562 -40.757393 103.46367 -3.9358661 80.522224
2020000000 -0.39747685 170.80711 -40.526535 103.25333 -40.505814 103.42085 -4.0680952 79.385635
2030000000 -0.39758378 170.75591 -40.338772 103.34558 -40.305885 103.33583 -4.2214532 78.22084
2040000000 -0.40046915 170.70753 -40.137894 103.3791 -40.076839 103.16573 -4.4102721 77.099243
2050000000 -0.40125382 170.6725 -39.921467 102.8481 -39.870472 102.51447 -4.6278405 76.097778
