!Keysight Technologies,N5222B,MY61257109,A.17.25.03
!Date: Tuesday, July 21, 2026 11:55:19
!Correction: S11(C  2-Port  ) 
!S21(C  2-Port  ) 
!S12(C  2-Port  ) 
!S22(C  2-Port  ) 
!S2P File: Measurements: S11, S21, S12, S22:
# Hz S  dB   R 50
10000000 -0.022757113 -0.15128 -83.687187 -111.07314 -86.839478 129.58733 -0.0040025203 0.011035413
20000000 -0.0037211485 0.062135246 -95.005859 -22.985226 -87.876366 14.965712 -0.0030667577 0.015120546
30000000 0.0036070056 0.13295002 -96.11039 -94.27932 -82.538124 14.940653 -0.002845282 0.0030797163
40000000 0.0083763823 0.14387524 -96.234505 -25.627081 -93.665451 29.751495 -0.00063425256 0.0038477052
50000000 0.0090966327 0.15065034 -109.49226 -77.822815 -95.158363 -152.03513 -0.0013879685 0.010520172
60000000 0.025616644 0.081659637 -101.26591 -17.07601 -105.84801 100.65862 0.0019394613 -0.035070315
70000000 0.026172971 0.10263152 -93.048157 72.343025 -94.476692 120.41506 0.00054667727 -0.0018508647
80000000 0.032627542 0.095863409 -102.49199 -150.73015 -103.33498 -37.51215 -0.0017665589 0.033499073
90000000 0.028930398 0.073384628 -106.00838 -61.353676 -99.375343 34.130592 -0.0018375159 0.033874661
100000000 0.031956408 0.082348615 -94.390717 -3.0561497 -95.735489 119.84084 -0.0025290188 0.034336824
110000000 0.029985577 0.075824402 -95.475578 112.94119 -92.793091 93.584785 -0.002508298 0.038461659
120000000 0.029414825 0.084947824 -102.29836 -157.1506 -106.29389 27.362841 -0.0018753256 0.047805108
130000000 0.030947972 0.11442761 -101.55415 -25.390738 -92.178123 179.59822 -0.0018419183 0.047131475
140000000 0.028638275 0.10373929 -93.227631 86.737915 -109.43335 64.256012 -0.0011810785 0.052609865
150000000 0.028008707 0.10710156 -102.78936 0.53257859 -92.486824 75.892349 -0.0009987955 0.058918875
160000000 0.021018166 0.10672615 -93.059013 10.846564 -93.52787 -173.00766 -0.00016877979 0.068101741
170000000 0.018786175 0.11080196 -116.71404 -61.385849 -91.302734 -1.2449666 -0.0015076016 0.064872459
180000000 0.017129606 0.10260893 -89.476486 14.005928 -89.164307 91.546761 -0.0017305629 0.067343734
190000000 0.015691649 0.12076998 -93.464096 40.893112 -88.317848 168.3376 -0.0022775268 0.077394411
200000000 0.012236129 0.09083645 -95.557274 48.434948 -95.649086 -41.614819 -0.0020102519 0.077634551
210000000 0.013391887 0.12313686 -96.015312 75.059494 -97.246689 110.82548 -0.0030514742 0.079216637
220000000 0.01201826 0.11518285 -92.187675 50.611893 -100.37239 32.613918 -0.0020208699 0.082112029
230000000 0.01187731 0.11649007 -98.515961 -153.95111 -96.309349 178.64145 -0.0013229745 0.085800275
240000000 0.010445876 0.12083441 -104.7356 126.35561 -95.55526 119.87801 -0.00091697782 0.094896756
250000000 0.010221204 0.1362693 -91.523888 81.770081 -98.80394 94.903358 -0.00091853127 0.096640371
260000000 0.0067292773 0.11664529 -110.05882 -19.512165 -90.583138 130.68275 -0.0016300865 0.10363262
270000000 0.0042054686 0.10558293 -97.441925 41.748573 -96.723351 109.33682 -0.0020964928 0.10476714
280000000 0.00036808287 0.11706798 -105.50838 -149.64984 -84.504715 76.484314 -0.0036462746 0.10895658
290000000 0.00092351314 0.13475908 -106.96358 -141.08485 -98.354118 124.55003 -0.0025313499 0.11084194
300000000 0.0014716268 0.14685167 -91.997383 94.032753 -91.433968 90.391441 -0.0032931669 0.11258207
310000000 0.0004607458 0.13736331 -97.14608 -164.32028 -100.88371 173.19273 -0.0027872599 0.11230264
320000000 0.0019560209 0.1303471 -107.53995 24.431883 -94.305588 138.37669 -0.0011694266 0.1131608
330000000 0.0026199049 0.12102185 -91.892944 149.92545 -98.888924 115.05757 -0.0021627934 0.1174676
340000000 0.0049910517 0.14114343 -92.28231 60.613335 -98.646912 111.59603 -0.0016704838 0.12448716
350000000 0.0077355998 0.14583138 -90.933281 75.974503 -96.276054 108.2233 -0.0026585259 0.12601297
360000000 0.010538325 0.15020174 -96.31356 -179.18121 -93.642807 64.871269 -0.0023971845 0.13629809
370000000 0.014131431 0.174291 -96.021301 114.30579 -97.653252 130.59166 -0.0025844474 0.13754813
380000000 0.016060984 0.17327566 -94.959984 106.61717 -99.617714 -61.307281 -0.0024458771 0.14624323
390000000 0.016838236 0.18763718 -93.333488 80.874741 -96.568802 99.600906 -0.0023686942 0.14734532
400000000 0.020547228 0.18160415 -94.699341 67.51265 -94.416168 80.010765 -0.002919365 0.14408873
410000000 0.0229632 0.16602951 -94.939957 132.0681 -102.63271 111.41254 -0.0027825974 0.14564851
420000000 0.021947522 0.19677207 -99.476784 92.73922 -88.502052 69.186203 -0.0028779199 0.14704821
430000000 0.018765556 0.17914777 -91.303864 67.565247 -93.289734 123.15125 -0.0024469132 0.14641236
440000000 0.01656593 0.17730989 -101.3775 52.408379 -89.822235 110.63686 -0.0028926847 0.15267842
450000000 0.017700944 0.19669257 -89.77166 65.906158 -100.14271 56.024071 -0.002870149 0.16056742
460000000 0.015806682 0.20231095 -91.245758 71.10199 -95.375404 47.809513 -0.002005849 0.16526237
470000000 0.012623824 0.20234589 -96.658768 77.123924 -90.289719 86.46962 -0.0019732178 0.17598251
480000000 0.013761417 0.21234053 -95.831154 68.466705 -93.218079 93.054298 -0.0025815982 0.1814521
490000000 0.011719318 0.20507661 -95.535431 119.22293 -94.673973 100.15001 -0.0030095098 0.17822325
500000000 0.0079175085 0.20348428 -90.346275 55.634148 -94.448074 75.907799 -0.0032918716 0.17471229
510000000 0.0024362216 0.18586935 -92.303139 94.522758 -89.937004 68.683739 -0.0024917214 0.1782818
520000000 0.0063426057 0.19789715 -91.830666 86.937935 -99.053238 138.62761 -0.0026852048 0.1733682
530000000 0.0014229774 0.20683078 -90.537971 115.27769 -100.07124 -139.95833 -0.0028061687 0.18180524
540000000 -0.00081419002 0.1837983 -91.919441 69.945717 -90.793968 47.434242 -0.0024948295 0.18654196
550000000 0.0013339579 0.19530012 -87.834091 109.05072 -92.851295 106.32129 -0.0030545827 0.19679269
560000000 0.0017604068 0.16936827 -93.814575 97.901367 -90.003517 105.6502 -0.0023759461 0.20809297
570000000 0.0036106268 0.19804306 -94.475922 63.964565 -88.53418 106.0014 -0.0023632552 0.21027553
580000000 0.001774897 0.21024792 -89.632141 90.433884 -89.791222 105.41058 -0.0020182801 0.21384792
590000000 0.0029515503 0.21861778 -92.906174 56.529446 -89.763252 86.967041 -0.0020957158 0.2154709
600000000 0.004560783 0.21989398 -94.166489 92.541229 -95.39045 169.33501 -0.0033783971 0.21988837
610000000 0.00807874 0.22514975 -92.611076 104.05927 -87.426689 56.963661 -0.0036112992 0.21683134
620000000 0.0073526357 0.24534512 -90.260628 67.464302 -90.936577 174.02507 -0.0024787709 0.22228077
630000000 0.010517149 0.23502873 -89.281731 70.904869 -93.040665 130.13483 -0.0032473141 0.21933843
640000000 0.011748749 0.2461239 -85.506813 92.728241 -91.022415 80.575233 -0.0027183595 0.23429823
650000000 0.013098718 0.24813931 -88.802429 93.94252 -86.982361 97.934563 -0.0017634513 0.24068739
660000000 0.011274741 0.26205593 -91.542648 69.814064 -91.645844 74.255829 -0.0015679372 0.24660827
670000000 0.013915722 0.28931069 -87.498314 102.36279 -91.494308 95.474342 -0.0011225607 0.25731453
680000000 0.011303142 0.27733645 -92.777473 82.013069 -85.457016 77.296669 -0.0015580971 0.26072335
690000000 0.014946179 0.28757089 -92.863258 84.66246 -91.887177 110.40029 -0.0024236029 0.26430055
700000000 0.016919719 0.29675791 -93.665649 93.210098 -91.859161 78.18412 -0.0032426512 0.25798121
710000000 0.014132463 0.29053858 -87.600769 74.83194 -88.546555 87.64119 -0.0025593231 0.2587654
720000000 0.015129333 0.28431416 -92.615952 89.56826 -91.886086 104.73441 -0.0034765825 0.26121846
730000000 0.014109758 0.29298851 -89.118652 85.498024 -87.684502 107.61395 -0.0031335913 0.26579845
740000000 0.010618892 0.29820803 -89.782005 85.170654 -98.975807 122.77809 -0.0020503937 0.27362666
750000000 0.010895187 0.30725437 -91.015587 80.238571 -87.02153 92.375053 -0.0021444052 0.27593711
760000000 0.0091725774 0.32298964 -88.812462 49.71254 -89.899422 88.702415 -0.0016924955 0.28342727
770000000 0.0083443448 0.32588011 -91.318245 79.67392 -91.825096 81.37043 -0.0016640099 0.28861663
780000000 0.0066620777 0.33845052 -90.598091 85.779922 -86.333618 82.894791 -0.0020446961 0.29683694
790000000 0.00477282 0.33421913 -89.058815 81.888901 -87.883957 84.28611 -0.002559064 0.29730973
800000000 0.0043590795 0.31382781 -92.247032 104.93764 -90.479347 82.168823 -0.002685982 0.29656419
810000000 0.0025821342 0.31666261 -86.147102 86.850716 -88.780838 97.288689 -0.0031400674 0.30026084
820000000 0.0029727623 0.33121839 -89.634163 112.86282 -90.229652 94.61068 -0.0037439477 0.29947457
830000000 0.0025096959 0.33686173 -89.748459 87.618622 -87.251907 107.5415 -0.0030957707 0.29861778
840000000 0.00069575908 0.33926618 -86.919563 87.968613 -88.03096 107.62299 -0.0030807462 0.30103603
850000000 0.0017060679 0.37120509 -88.776642 97.986885 -86.623901 91.535683 -0.0020413294 0.30693862
860000000 0.0047857487 0.35736451 -88.043007 89.853523 -86.825989 93.864723 -0.0020017053 0.31403595
870000000 0.0050282846 0.37015781 -89.896233 94.373543 -86.650146 90.574783 -0.0022021597 0.31784055
880000000 0.0057020402 0.3633604 -85.393547 86.603127 -86.313805 102.40977 -0.0022832248 0.3200016
890000000 0.0070285625 0.36147416 -89.133026 89.634148 -86.817184 101.54794 -0.0037141533 0.32378182
900000000 0.0074162069 0.36402917 -90.799217 97.858261 -91.305458 84.831207 -0.0035372046 0.32280666
910000000 0.0089592049 0.36784607 -87.273262 79.169586 -88.928162 78.49781 -0.0044888752 0.32670656
920000000 0.0089390557 0.38903418 -85.05114 77.980675 -88.55822 97.423576 -0.0040973513 0.32666963
930000000 0.010221204 0.40271008 -87.997452 92.104149 -85.480904 90.571793 -0.0035454948 0.32812822
940000000 0.012199474 0.402661 -89.170471 106.58987 -86.468941 95.623657 -0.0030017386 0.33218679
950000000 0.012530388 0.41276562 -87.016602 105.84072 -87.259659 107.6142 -0.0025880735 0.33450079
960000000 0.014398214 0.40631339 -89.033051 85.786438 -86.026024 101.33465 -0.0021141039 0.33979738
970000000 0.01552812 0.4129726 -87.909424 78.259514 -86.44635 84.427795 -0.0021156578 0.34782714
980000000 0.014634539 0.41413683 -87.974327 82.151962 -86.607925 90.876022 -0.0030400765 0.35111997
990000000 0.012847341 0.42383349 -87.296059 101.8861 -86.083313 92.031288 -0.0040792138 0.35974145
1000000000 0.011843751 0.42592454 -85.708595 85.662819 -88.538208 98.968681 -0.0034654425 0.36249793
1010000000 0.008932339 0.4289715 -86.452751 100.52511 -85.284363 66.817863 -0.003970392 0.37323302
1020000000 0.0090878494 0.43444291 -86.782967 76.784912 -86.171806 86.420853 -0.0041069379 0.37407771
1030000000 0.0072585689 0.4272866 -87.137268 79.580872 -86.13176 84.700317 -0.0032853952 0.37280044
1040000000 0.0063529448 0.44190678 -88.219002 91.029823 -85.445847 90.363754 -0.0025717558 0.37596053
1050000000 0.0056617111 0.45346075 -85.295753 76.468788 -84.684387 69.425331 -0.0022692389 0.3788133
1060000000 0.0044625183 0.46052605 -85.44091 74.429222 -87.75766 76.546104 -0.0016880932 0.38386241
1070000000 0.002613696 0.45589545 -87.108093 85.082169 -84.76873 84.176895 -0.0023787953 0.388836
1080000000 0.00092454837 0.4639492 -86.404007 84.777916 -87.278481 109.28611 -0.0025860015 0.39855924
1090000000 -0.0013511989 0.46406227 -86.385666 89.893616 -83.334862 95.048561 -0.0028678176 0.4067696
1100000000 -0.0048236805 0.47823831 -86.485191 83.876312 -83.582085 95.402313 -0.0033530092 0.41309577
1110000000 -0.0026274438 0.46648255 -86.065536 78.656754 -85.264641 100.65575 -0.0036587103 0.41494161
1120000000 0.00011027283 0.4664841 -85.302437 92.66346 -84.674637 95.689774 -0.0041965893 0.41834316
1130000000 0.00017446792 0.47560075 -84.257584 87.624123 -86.800697 92.055397 -0.0040141796 0.41749296
1140000000 0.00063053641 0.48459044 -84.587837 77.067413 -85.656364 76.754929 -0.0036004181 0.41664883
1150000000 0.0016444831 0.47991139 -85.278732 82.125343 -85.979248 86.365906 -0.0029950035 0.42024115
1160000000 0.0036778739 0.48442814 -83.358459 93.278603 -85.858719 79.625923 -0.0030874813 0.42706645
1170000000 0.0036954612 0.50037289 -85.451241 79.939728 -81.114777 91.122887 -0.0029084857 0.43129906
1180000000 0.0057309945 0.50550479 -84.599464 67.770645 -84.267494 98.703476 -0.0041136746 0.44162983
1190000000 0.0081252484 0.50627518 -85.876152 94.181328 -84.238396 97.214592 -0.0041639414 0.44394857
1200000000 0.0062330081 0.51396996 -87.156471 83.743797 -84.809288 92.930656 -0.0046720821 0.45133358
1210000000 0.0093818065 0.51388091 -85.006516 85.287834 -82.573471 92.685989 -0.0040491582 0.45334443
1220000000 0.01088021 0.53034222 -84.025948 96.426216 -85.456337 88.375793 -0.0041618687 0.45529106
1230000000 0.0088527733 0.53152496 -86.883263 88.948929 -83.372078 101.05215 -0.0035986046 0.45187998
1240000000 0.011009831 0.52589673 -83.788681 94.91275 -84.979851 84.665352 -0.0043642367 0.45218888
1250000000 0.0096003236 0.53927314 -86.075798 76.351204 -84.798874 93.484291 -0.0040600402 0.45800206
1260000000 0.01118644 0.53226262 -82.944275 86.428078 -84.683548 77.289085 -0.0042916834 0.4617148
1270000000 0.0088600069 0.54875779 -83.31205 94.474014 -85.553291 81.196144 -0.0040976102 0.46871239
1280000000 0.0097759562 0.55614567 -83.960808 94.8479 -83.116447 91.171646 -0.0046049659 0.47394079
1290000000 0.0090795839 0.57536364 -84.434113 95.615898 -81.458862 87.052483 -0.0046184408 0.47892493
1300000000 0.008195526 0.57768267 -83.42025 82.415443 -84.042709 95.448586 -0.0049037579 0.48350942
1310000000 0.0052775298 0.57660538 -82.752762 88.511238 -82.560463 79.793045 -0.0048376746 0.48369196
1320000000 0.0057340967 0.57219577 -84.30201 94.19413 -84.104591 87.50209 -0.0048996112 0.47850817
1330000000 0.0032914476 0.5554136 -82.635078 88.380318 -84.377068 110.87848 -0.0050408514 0.48000073
1340000000 0.0036975304 0.56275117 -84.769066 83.100212 -82.345795 90.179436 -0.0050794664 0.48092723
1350000000 0.0039194375 0.56323183 -82.861534 91.020226 -83.957001 82.979668 -0.0053251595 0.48291093
1360000000 0.0036789083 0.58447969 -83.282272 88.887192 -83.990776 101.12243 -0.0048495955 0.49164429
1370000000 0.0036556306 0.5868752 -83.338966 89.461235 -84.221909 95.710701 -0.0042833919 0.49763536
1380000000 0.0035873486 0.59950256 -84.548866 86.321114 -83.662697 81.536552 -0.0050286711 0.50520617
1390000000 0.0020056993 0.61007118 -81.846535 84.984459 -83.352119 94.910728 -0.0043875575 0.51069838
1400000000 0.00039189588 0.61017776 -83.124329 74.491653 -82.00106 87.19857 -0.004780144 0.51126647
1410000000 -0.00093846774 0.60708684 -82.50882 90.239677 -83.138985 74.117462 -0.0053684423 0.51258045
1420000000 -0.0009721269 0.60962456 -82.898888 88.748825 -82.35421 91.971298 -0.0054096524 0.51313353
1430000000 0.00068747689 0.60919565 -82.103195 87.245132 -85.541763 96.141685 -0.0049579209 0.51379371
1440000000 0.0005223474 0.59448487 -82.871056 86.850868 -83.25071 78.848991 -0.0053627407 0.51635671
1450000000 0.0017733445 0.60330099 -82.073524 87.775757 -82.430801 89.916321 -0.0048192749 0.52348673
1460000000 0.0044966526 0.61580849 -83.206764 89.199699 -82.629135 88.561562 -0.004840266 0.52820706
1470000000 0.0064728786 0.61884481 -82.214767 83.646263 -81.755142 88.59185 -0.004871882 0.53848523
1480000000 0.0074100047 0.63237721 -81.97123 85.153282 -81.213776 89.464714 -0.0050859456 0.54152536
1490000000 0.008818157 0.64777815 -83.556221 92.485909 -82.651367 81.782768 -0.0047443821 0.5463205
1500000000 0.0092433542 0.65629441 -83.096748 90.116318 -81.537193 86.13916 -0.0053718118 0.54723006
1510000000 0.0097614918 0.65995669 -83.288177 82.646362 -81.394188 89.408424 -0.0057720044 0.54879785
1520000000 0.0090558184 0.65729797 -81.057884 93.888924 -82.870125 82.458633 -0.0065380195 0.54708612
1530000000 0.0081815738 0.65182287 -82.232315 83.216583 -82.32235 85.712784 -0.006378843 0.54828936
1540000000 0.0096555967 0.66192812 -82.645424 74.844627 -81.399872 82.219093 -0.0062471512 0.55115533
1550000000 0.0098239956 0.65613121 -82.082642 94.05275 -82.099739 88.454155 -0.0061901202 0.55720234
1560000000 0.0098498221 0.66106474 -82.002464 81.810249 -80.981964 78.161789 -0.0058463966 0.56400299
1570000000 0.010290931 0.67722702 -81.433853 83.362167 -81.951416 84.942841 -0.0052606249 0.57217938
1580000000 0.01067312 0.69060647 -81.716614 78.854332 -81.420074 86.124153 -0.0049237125 0.58046442
1590000000 0.010108088 0.69959176 -82.009087 80.019478 -80.834129 81.589546 -0.0057059079 0.5842734
1600000000 0.0068822824 0.70342207 -81.209694 80.833824 -80.82795 83.888962 -0.0063822134 0.59112537
1610000000 0.0039116787 0.70536619 -79.9524 87.149559 -81.432625 90.192337 -0.0059505994 0.5918197
1620000000 0.0018675299 0.69154251 -81.506348 80.056061 -80.578194 79.966255 -0.0067441277 0.5912022
1630000000 0.0010746524 0.69652832 -80.722473 78.356827 -81.517509 83.930023 -0.0069546537 0.5924145
1640000000 7.8174919e-005 0.69179219 -81.618904 78.285378 -81.804359 79.133621 -0.0065802773 0.59656471
1650000000 0.00017964491 0.69218928 -80.815788 83.866219 -81.602547 90.079491 -0.0060561011 0.59980202
1660000000 0.001343274 0.69729561 -80.333031 73.366852 -81.181335 80.745026 -0.0054000625 0.60888976
1670000000 0.0030726127 0.71089184 -81.962769 81.046356 -81.367493 76.006432 -0.0053085722 0.61604613
1680000000 0.0027073459 0.72695529 -79.69545 81.413666 -80.250343 79.81208 -0.0055553154 0.62136585
1690000000 0.0029913874 0.7273773 -80.550499 77.522049 -80.025101 79.956123 -0.0060076271 0.62460572
1700000000 0.0016843322 0.73533529 -81.185532 83.460579 -80.441605 79.881157 -0.0068141292 0.62749892
1710000000 0.0014353986 0.73975807 -80.738419 89.264908 -80.122665 73.539108 -0.0074706408 0.62970668
1720000000 -0.00038545916 0.7424885 -81.388603 82.38781 -80.783638 85.460564 -0.0078611718 0.62971616
1730000000 0.0012796137 0.74492604 -80.910545 80.595963 -81.151512 77.845985 -0.0086016189 0.62949383
1740000000 0.0016807095 0.74295813 -81.14798 80.957703 -81.680046 65.073166 -0.0083432905 0.63188863
1750000000 0.0023368741 0.73346353 -80.842621 79.379478 -80.527222 82.768501 -0.0076373774 0.63649726
1760000000 0.006063953 0.7469613 -80.439178 78.161636 -80.483749 72.982178 -0.0061631608 0.64211226
1770000000 0.0072280746 0.75332963 -80.82608 82.130066 -80.509575 76.706146 -0.0067267572 0.64853179
1780000000 0.0085024601 0.75730276 -80.485344 71.312622 -80.808609 77.739655 -0.0058979793 0.65383303
1790000000 0.007533527 0.77287692 -80.115753 80.318832 -80.436813 76.503418 -0.0065198722 0.65827954
1800000000 0.0080280975 0.77788126 -80.286758 70.439308 -79.912132 73.674706 -0.0071211113 0.66320962
1810000000 0.0047050724 0.78070331 -80.46566 68.693893 -81.424049 70.105774 -0.0082424022 0.66557199
1820000000 0.0049714013 0.78645837 -81.072914 78.206764 -80.521072 67.828362 -0.0084970929 0.6673333
1830000000 0.0037130488 0.79732162 -80.260506 70.829079 -80.164421 73.216438 -0.0084916456 0.66998881
1840000000 0.0044769994 0.78876805 -80.271332 71.627556 -79.765572 79.147362 -0.0084379576 0.67424643
1850000000 0.0036033846 0.78851628 -80.690758 74.024071 -80.568039 75.667259 -0.0081225829 0.67348695
1860000000 0.0052258205 0.79382014 -80.868614 74.996582 -80.074913 75.758263 -0.0070653656 0.67585236
1870000000 0.0057811467 0.79009521 -80.199799 77.380615 -80.542358 70.503944 -0.007408408 0.68033415
1880000000 0.0063250288 0.80856168 -80.162384 70.820847 -79.678642 71.472466 -0.0076876846 0.68807012
1890000000 0.0063384701 0.81001693 -80.022903 78.628242 -80.730309 76.434311 -0.0074747894 0.68935734
1900000000 0.0043099453 0.82568234 -79.27346 70.120186 -81.141823 71.644089 -0.0078430194 0.69287854
1910000000 0.0026059351 0.83368391 -80.593132 69.959099 -79.420792 67.780525 -0.0086278152 0.69985723
1920000000 0.001576687 0.84482902 -80.403458 72.085609 -80.399277 71.607269 -0.0089385575 0.70089209
1930000000 -0.0013366982 0.83922225 -79.724625 69.08802 -80.704933 78.693405 -0.0089938082 0.70507491
1940000000 -0.0028059098 0.84301144 -80.289307 72.345482 -80.679741 69.663696 -0.0090389429 0.70535034
